Freq.	V(1|1|1|a)	I(R129)
1.00000000000000e+005	1.54067708693407e-002,5.88354482133267e-002	1.96918645826132e-002,-1.17670896426653e-003
1.09909909909910e+005	1.61443311231133e-002,6.46361808848285e-002	1.96771133775377e-002,-1.29272361769657e-003
1.19819819819820e+005	1.69512511349282e-002,7.04284721075549e-002	1.96609749773014e-002,-1.40856944215110e-003
1.29729729729730e+005	1.78274547570860e-002,7.62115615893853e-002	1.96434509048583e-002,-1.52423123178771e-003
1.39639639639640e+005	1.87728592270653e-002,8.19846892562440e-002	1.96245428154587e-002,-1.63969378512488e-003
1.49549549549550e+005	1.97873751565706e-002,8.77470952722943e-002	1.96042524968686e-002,-1.75494190544589e-003
1.59459459459459e+005	2.08709065198149e-002,9.34980200606395e-002	1.95825818696037e-002,-1.86996040121279e-003
1.69369369369369e+005	2.20233506410629e-002,9.92367043245641e-002	1.95595329871787e-002,-1.98473408649128e-003
1.79279279279279e+005	2.32445981814613e-002,1.04962389069352e-001	1.95351080363708e-002,-2.09924778138705e-003
1.89189189189189e+005	2.45345331251830e-002,1.10674315624715e-001	1.95093093374963e-002,-2.21348631249429e-003
1.99099099099099e+005	2.58930327649158e-002,1.16371725667859e-001	1.94821393447017e-002,-2.32743451335717e-003
2.09009009009009e+005	2.73199676867276e-002,1.22053861247232e-001	1.94536006462654e-002,-2.44107722494465e-003
2.18918918918919e+005	2.88152017543408e-002,1.27719964806975e-001	1.94236959649132e-002,-2.55439929613950e-003
2.28828828828829e+005	3.03785920928529e-002,1.33369279212100e-001	1.93924281581429e-002,-2.66738558424200e-003
2.38738738738739e+005	3.20099890719384e-002,1.39001047774447e-001	1.93598002185612e-002,-2.78002095548893e-003
2.48648648648649e+005	3.37092362885741e-002,1.44614514279418e-001	1.93258152742285e-002,-2.89229028558837e-003
2.58558558558559e+005	3.54761705493266e-002,1.50208923013542e-001	1.92904765890135e-002,-3.00417846027083e-003
2.68468468468468e+005	3.73106218522470e-002,1.55783518792867e-001	1.92537875629551e-002,-3.11567037585734e-003
2.78378378378378e+005	3.92124133684167e-002,1.61337546992236e-001	1.92157517326317e-002,-3.22675093984472e-003
2.88288288288288e+005	4.11813614231923e-002,1.66870253575439e-001	1.91763727715362e-002,-3.33740507150879e-003
2.98198198198198e+005	4.32172754771992e-002,1.72380885126278e-001	1.91356544904560e-002,-3.44761770252557e-003
3.08108108108108e+005	4.53199581071233e-002,1.77868688880561e-001	1.90936008378575e-002,-3.55737377761123e-003
3.18018018018018e+005	4.74892049863570e-002,1.83332912759040e-001	1.90502159002729e-002,-3.66665825518080e-003
3.27927927927928e+005	4.97248048655526e-002,1.88772805401308e-001	1.90055039026889e-002,-3.77545610802616e-003
3.37837837837838e+005	5.20265395531422e-002,1.94187616200677e-001	1.89594692089372e-002,-3.88375232401354e-003
3.47747747747748e+005	5.43941838958833e-002,1.99576595340032e-001	1.89121163220823e-002,-3.99153190680065e-003
3.57657657657657e+005	5.68275057594931e-002,2.04938993828689e-001	1.88634498848101e-002,-4.09877987657378e-003
3.67567567567567e+005	5.93262660094352e-002,2.10274063540249e-001	1.88134746798113e-002,-4.20548127080497e-003
3.77477477477477e+005	6.18902184919260e-002,2.15581057251465e-001	1.87621956301615e-002,-4.31162114502930e-003
3.87387387387387e+005	6.45191100152301e-002,2.20859228682119e-001	1.87096177996954e-002,-4.41718457364237e-003
3.97297297297297e+005	6.72126803313162e-002,2.26107832535904e-001	1.86557463933737e-002,-4.52215665071808e-003
4.07207207207207e+005	6.99706621179499e-002,2.31326124542324e-001	1.86005867576410e-002,-4.62652249084647e-003
4.17117117117117e+005	7.27927809612962e-002,2.36513361499589e-001	1.85441443807741e-002,-4.73026722999177e-003
4.27027027027027e+005	7.56787553391173e-002,2.41668801318510e-001	1.84864248932177e-002,-4.83337602637020e-003
4.36936936936936e+005	7.86282966046443e-002,2.46791703067379e-001	1.84274340679071e-002,-4.93583406134758e-003
4.46846846846846e+005	8.16411089712095e-002,2.51881327017817e-001	1.83671778205758e-002,-5.03762654035634e-003
4.56756756756756e+005	8.47168894977304e-002,2.56936934691577e-001	1.83056622100454e-002,-5.13873869383154e-003
4.66666666666666e+005	8.78553280751344e-002,2.61957788908279e-001	1.82428934384973e-002,-5.23915577816559e-003
4.76576576576576e+005	9.10561074138235e-002,2.66943153834056e-001	1.81788778517235e-002,-5.33886307668113e-003
4.86486486486486e+005	9.43189030322738e-002,2.71892295031074e-001	1.81136219393545e-002,-5.43784590062149e-003
4.96396396396396e+005	9.76433832468786e-002,2.76804479507908e-001	1.80471323350624e-002,-5.53608959015815e-003
5.06306306306306e+005	1.01029209163137e-001,2.81678975770720e-001	1.79794158167373e-002,-5.63357951541439e-003
5.16216216216216e+005	1.04476034668303e-001,2.86515053875219e-001	1.79104793066339e-002,-5.73030107750437e-003
5.26126126126125e+005	1.07983506425607e-001,2.91311985479336e-001	1.78403298714879e-002,-5.82623970958671e-003
5.36036036036035e+005	1.11551263870180e-001,2.96069043896581e-001	1.77689747225964e-002,-5.92138087793162e-003
5.45945945945945e+005	1.15178939206790e-001,3.00785504150017e-001	1.76964212158642e-002,-6.01571008300035e-003
5.55855855855855e+005	1.18866157409540e-001,3.05460643026791e-001	1.76226768518092e-002,-6.10921286053583e-003
5.65765765765765e+005	1.22612536223649e-001,3.10093739133158e-001	1.75477492755270e-002,-6.20187478266317e-003
5.75675675675675e+005	1.26417686169476e-001,3.14684072949926e-001	1.74716462766105e-002,-6.29368145899851e-003
5.85585585585585e+005	1.30281210548919e-001,3.19230926888232e-001	1.73943757890216e-002,-6.38461853776463e-003
5.95495495495495e+005	1.34202705454364e-001,3.23733585345583e-001	1.73159458909127e-002,-6.47467170691165e-003
6.05405405405405e+005	1.38181759780333e-001,3.28191334762043e-001	1.72363648043933e-002,-6.56382669524086e-003
6.15315315315315e+005	1.42217955238024e-001,3.32603463676486e-001	1.71556408952395e-002,-6.65206927352971e-003
6.25225225225225e+005	1.46310866372906e-001,3.36969262782786e-001	1.70737826725419e-002,-6.73938525565572e-003
6.35135135135135e+005	1.50460060585583e-001,3.41288024985847e-001	1.69907987882883e-002,-6.82576049971694e-003
6.45045045045045e+005	1.54665098156112e-001,3.45559045457318e-001	1.69066980368778e-002,-6.91118090914635e-003
6.54954954954955e+005	1.58925532272010e-001,3.49781621690876e-001	1.68214893545598e-002,-6.99563243381752e-003
6.64864864864865e+005	1.63240909060162e-001,3.53955053556916e-001	1.67351818187968e-002,-7.07910107113832e-003
6.74774774774775e+005	1.67610767622892e-001,3.58078643356485e-001	1.66477846475422e-002,-7.16157286712970e-003
6.84684684684685e+005	1.72034640078444e-001,3.62151695874288e-001	1.65593071984311e-002,-7.24303391748576e-003
6.94594594594594e+005	1.76512051606152e-001,3.66173518430579e-001	1.64697589678770e-002,-7.32347036861158e-003
7.04504504504504e+005	1.81042520496605e-001,3.70143420931726e-001	1.63791495900679e-002,-7.40286841863452e-003
7.14414414414414e+005	1.85625558207112e-001,3.74060715919234e-001	1.62874888358578e-002,-7.48121431838467e-003
7.24324324324324e+005	1.90260669422816e-001,3.77924718616987e-001	1.61947866115437e-002,-7.55849437233974e-003
7.34234234234234e+005	1.94947352123821e-001,3.81734746976452e-001	1.61010529575236e-002,-7.63469493952904e-003
7.44144144144144e+005	1.99685097658727e-001,3.85490121719557e-001	1.60062980468255e-002,-7.70980243439114e-003
7.54054054054054e+005	2.04473390824999e-001,3.89190166378958e-001	1.59105321835000e-002,-7.78380332757916e-003
7.63963963963964e+005	2.09311709956633e-001,3.92834207335349e-001	1.58137658008673e-002,-7.85668414670697e-003
7.73873873873874e+005	2.14199527019617e-001,3.96421573851467e-001	1.57160094596077e-002,-7.92843147702935e-003
7.83783783783784e+005	2.19136307715734e-001,3.99951598102416e-001	1.56172738456853e-002,-7.99903196204833e-003
7.93693693693694e+005	2.24121511595297e-001,4.03423615201863e-001	1.55175697680941e-002,-8.06847230403726e-003
8.03603603603604e+005	2.29154592179466e-001,4.06836963223676e-001	1.54169081564107e-002,-8.13673926447352e-003
8.13513513513514e+005	2.34234997092842e-001,4.10190983218490e-001	1.53153000581432e-002,-8.20381966436981e-003
8.23423423423424e+005	2.39362168207136e-001,4.13485019224659e-001	1.52127566358573e-002,-8.26970038449318e-003
8.33333333333334e+005	2.44535541796734e-001,4.16718418272993e-001	1.51092891640653e-002,-8.33436836545986e-003
8.43243243243244e+005	2.49754548707117e-001,4.19890530384635e-001	1.50049090258577e-002,-8.39781060769271e-003
8.53153153153153e+005	2.55018614537159e-001,4.23000708561353e-001	1.48996277092568e-002,-8.46001417122706e-003
8.63063063063063e+005	2.60327159836443e-001,4.26048308767460e-001	1.47934568032711e-002,-8.52096617534920e-003
8.72972972972973e+005	2.65679600318858e-001,4.29032689902491e-001	1.46864079936228e-002,-8.58065379804983e-003
8.82882882882883e+005	2.71075347093881e-001,4.31953213763686e-001	1.45784930581224e-002,-8.63906427527371e-003
8.92792792792793e+005	2.76513806917096e-001,4.34809244997196e-001	1.44697238616581e-002,-8.69618489994392e-003
9.02702702702703e+005	2.81994382461696e-001,4.37600151036867e-001	1.43601123507661e-002,-8.75200302073735e-003
9.12612612612613e+005	2.87516472612896e-001,4.40325302029262e-001	1.42496705477421e-002,-8.80650604058524e-003
9.22522522522523e+005	2.93079472787425e-001,4.42984070743486e-001	1.41384105442515e-002,-8.85968141486973e-003
9.32432432432433e+005	2.98682775280544e-001,4.45575832464189e-001	1.40263444943891e-002,-8.91151664928379e-003
9.42342342342343e+005	3.04325769643306e-001,4.48099964865917e-001	1.39134846071339e-002,-8.96199929731834e-003
9.52252252252253e+005	3.10007843093146e-001,4.50555847866789e-001	1.37998431381371e-002,-9.01111695733577e-003
9.62162162162163e+005	3.15728380961272e-001,4.52942863459199e-001	1.36854323807746e-002,-9.05885726918398e-003
9.72072072072073e+005	3.21486767180787e-001,4.55260395514974e-001	1.35702646563843e-002,-9.10520791029948e-003
9.81981981981983e+005	3.27282384820013e-001,4.57507829562053e-001	1.34543523035997e-002,-9.15015659124107e-003
9.91891891891893e+005	3.33114616666057e-001,4.59684552529406e-001	1.33377076666789e-002,-9.19369105058811e-003
1.00180180180180e+006	3.38982845864426e-001,4.61789952456411e-001	1.32203430827115e-002,-9.23579904912822e-003
1.01171171171171e+006	3.44886456621258e-001,4.63823418162440e-001	1.31022708675748e-002,-9.27646836324880e-003
1.02162162162162e+006	3.50824834975734e-001,4.65784338871733e-001	1.29835033004853e-002,-9.31568677743466e-003
1.03153153153153e+006	3.56797369651348e-001,4.67672103787969e-001	1.28640526069730e-002,-9.35344207575938e-003
1.04144144144144e+006	3.62803452995998e-001,4.69486101612083e-001	1.27439309400800e-002,-9.38972203224166e-003
1.05135135135135e+006	3.68842482022450e-001,4.71225719995880e-001	1.26231503595510e-002,-9.42451439991759e-003
1.06126126126126e+006	3.74913859562491e-001,4.72890344922831e-001	1.25017228087502e-002,-9.45780689845662e-003
1.07117117117117e+006	3.81016995550297e-001,4.74479360006047e-001	1.23796600889941e-002,-9.48958720012093e-003
1.08108108108108e+006	3.87151308453041e-001,4.75992145691746e-001	1.22569738309392e-002,-9.51984291383491e-003
1.09099099099099e+006	3.93316226869864e-001,4.77428078354562e-001	1.21336754626027e-002,-9.54856156709124e-003
1.10090090090090e+006	3.99511191323931e-001,4.78786529268645e-001	1.20097761735214e-002,-9.57573058537290e-003
1.11081081081081e+006	4.05735656276698e-001,4.80066863435611e-001	1.18852868744660e-002,-9.60133726871222e-003
1.12072072072072e+006	4.11989092398774e-001,4.81268438246929e-001	1.17602181520245e-002,-9.62536876493859e-003
1.13063063063063e+006	4.18270989138134e-001,4.82390601954060e-001	1.16345802172373e-002,-9.64781203908119e-003
1.14054054054054e+006	4.24580857634216e-001,4.83432691914450e-001	1.15083828473157e-002,-9.66865383828900e-003
1.15045045045045e+006	4.30918234035918e-001,4.84394032575116e-001	1.13816353192816e-002,-9.68788065150232e-003
1.16036036036036e+006	4.37282683293101e-001,4.85273933147591e-001	1.12543463341380e-002,-9.70547866295181e-003
1.17027027027027e+006	4.43673803505633e-001,4.86071684918186e-001	1.11265239298873e-002,-9.72143369836372e-003
1.18018018018018e+006	4.50091230931752e-001,4.86786558125203e-001	1.09981753813650e-002,-9.73573116250406e-003
1.19009009009009e+006	4.56534645779786e-001,4.87417798319200e-001	1.08693070844043e-002,-9.74835596638400e-003
1.20000000000000e+006	4.63003778935152e-001,4.87964622102785e-001	1.07399244212970e-002,-9.75929244205570e-003
1.20990990990991e+006	4.69498419809760e-001,4.88426212121304e-001	1.06100316038048e-002,-9.76852424242608e-003
1.21981981981982e+006	4.76018425545802e-001,4.88801711143544e-001	1.04796314890840e-002,-9.77603422287087e-003
1.22972972972973e+006	4.82563731863195e-001,4.89090215029765e-001	1.03487253627361e-002,-9.78180430059531e-003
1.23963963963964e+006	4.89134365914071e-001,4.89290764329736e-001	1.02173126817186e-002,-9.78581528659472e-003
1.24954954954955e+006	4.95730461603937e-001,4.89402334181386e-001	1.00853907679213e-002,-9.78804668362772e-003
1.25945945945946e+006	5.02352277965505e-001,4.89423822084775e-001	9.95295444068991e-003,-9.78847644169551e-003
1.26936936936937e+006	5.09000221338453e-001,4.89354032997029e-001	9.81999557323093e-003,-9.78708065994059e-003
1.27927927927928e+006	5.15674872332025e-001,4.89191661018392e-001	9.68650255335951e-003,-9.78383322036784e-003
1.28918918918919e+006	5.22377018849455e-001,4.88935266698051e-001	9.55245962301090e-003,-9.77870533396101e-003
1.29909909909910e+006	5.29107696866021e-001,4.88583248651766e-001	9.41784606267957e-003,-9.77166497303532e-003
1.30900900900901e+006	5.35868241223239e-001,4.88133807707611e-001	9.28263517553523e-003,-9.76267615415221e-003
1.31891891891892e+006	5.42660349501335e-001,4.87584901113704e-001	9.14679300997330e-003,-9.75169802227407e-003
1.32882882882883e+006	5.49486163168248e-001,4.86934183346771e-001	9.01027673663503e-003,-9.73868366693541e-003
1.33873873873874e+006	5.56348371842410e-001,4.86178928583400e-001	8.87303256315179e-003,-9.72357857166800e-003
1.34864864864865e+006	5.63250348910868e-001,4.85315927660377e-001	8.73499302178264e-003,-9.70631855320754e-003
1.35855855855856e+006	5.70196330335638e-001,4.84341348893324e-001	8.59607339328724e-003,-9.68682697786648e-003
1.36846846846847e+006	5.77191653953001e-001,4.83250546647676e-001	8.45616692093999e-003,-9.66501093295353e-003
1.37837837837838e+006	5.84243085090648e-001,4.82037792652294e-001	8.31513829818704e-003,-9.64075585304588e-003
1.38828828828829e+006	5.91359267915082e-001,4.80695890132082e-001	8.17281464169835e-003,-9.61391780264164e-003
1.39819819819820e+006	5.98551364167105e-001,4.79215605009358e-001	8.02897271665791e-003,-9.58431210018716e-003
1.40810810810811e+006	6.05833978432429e-001,4.77584801981140e-001	7.88332043135141e-003,-9.55169603962281e-003
1.41801801801802e+006	6.13226534310349e-001,4.75787086090851e-001	7.73546931379302e-003,-9.51574172181701e-003
1.42792792792793e+006	6.20755383277539e-001,4.73799578409418e-001	7.58489233444922e-003,-9.47599156818836e-003
1.43783783783784e+006	6.28457147415263e-001,4.71589094960992e-001	7.43085705169475e-003,-9.43178189921984e-003
1.44774774774775e+006	6.36384222339358e-001,4.69105193909327e-001	7.27231555321283e-003,-9.38210387818654e-003
1.45765765765766e+006	6.44614216356420e-001,4.66266605318447e-001	7.10771567287160e-003,-9.32533210636895e-003
1.46756756756756e+006	6.53266806251861e-001,4.62932336666998e-001	6.93466387496278e-003,-9.25864673333996e-003
1.47747747747747e+006	6.62534542513755e-001,4.58832972767356e-001	6.74930914972489e-003,-9.17665945534712e-003
1.48738738738738e+006	6.72735258843492e-001,4.53382262499388e-001	6.54529482313017e-003,-9.06764524998777e-003
1.49729729729729e+006	6.84338000559527e-001,4.45055141716880e-001	6.31323998880945e-003,-8.90110283433760e-003
1.50720720720720e+006	6.97009506926915e-001,4.28870458270270e-001	6.05980986146170e-003,-8.57740916540539e-003
1.51711711711711e+006	6.92637581375174e-001,3.91101874374219e-001	6.14724837249652e-003,-7.82203748748437e-003
1.52702702702702e+006	6.42917683930250e-001,4.09882326431940e-001	7.14164632139499e-003,-8.19764652863880e-003
1.53693693693693e+006	6.67735827047282e-001,4.36602431207262e-001	6.64528345905436e-003,-8.73204862414524e-003
1.54684684684684e+006	6.91562840933151e-001,4.30930474580040e-001	6.16874318133698e-003,-8.61860949160081e-003
1.55675675675675e+006	7.03670846591796e-001,4.07429203734940e-001	5.92658306816407e-003,-8.14858407469880e-003
1.56666666666666e+006	6.86112541595007e-001,3.96406520633201e-001	6.27774916809986e-003,-7.92813041266402e-003
1.57657657657657e+006	6.67678798846061e-001,4.03037146471652e-001	6.64642402307879e-003,-8.06074292943305e-003
1.58648648648648e+006	6.86637792099626e-001,4.27451939236370e-001	6.26724415800748e-003,-8.54903878472741e-003
1.59639639639639e+006	7.11336889497880e-001,4.21082344973065e-001	5.77326221004241e-003,-8.42164689946130e-003
1.60630630630630e+006	7.24725162736283e-001,3.98670672341433e-001	5.50549674527434e-003,-7.97341344682865e-003
1.61621621621621e+006	7.16040271667882e-001,3.65382350857936e-001	5.67919456664236e-003,-7.30764701715871e-003
1.62612612612612e+006	6.64352458055422e-001,3.89684350607529e-001	6.71295083889156e-003,-7.79368701215058e-003
1.63603603603603e+006	6.92643676260469e-001,4.22415978068091e-001	6.14712647479063e-003,-8.44831956136183e-003
1.64594594594594e+006	7.18682647548629e-001,4.20109314690162e-001	5.62634704902741e-003,-8.40218629380323e-003
1.65585585585585e+006	7.36615172614773e-001,4.04948085465194e-001	5.26769654770454e-003,-8.09896170930389e-003
1.66576576576576e+006	7.29634232203738e-001,3.73528197171944e-001	5.40731535592524e-003,-7.47056394343888e-003
1.67567567567567e+006	6.99274536618886e-001,4.01424465235074e-001	6.01450926762229e-003,-8.02848930470148e-003
1.68558558558558e+006	7.24213267118777e-001,4.18702442325945e-001	5.51573465762446e-003,-8.37404884651889e-003
1.69549549549549e+006	7.42439348348520e-001,4.16847992154085e-001	5.15121303302960e-003,-8.33695984308170e-003
1.70540540540540e+006	7.55382038674589e-001,4.12482862254814e-001	4.89235922650823e-003,-8.24965724509629e-003
1.71531531531531e+006	7.66258331719832e-001,4.07284716856142e-001	4.67483336560335e-003,-8.14569433712285e-003
1.72522522522522e+006	7.75760547679821e-001,4.01759271851582e-001	4.48478904640357e-003,-8.03518543703165e-003
1.73513513513513e+006	7.84531250610132e-001,3.96149378262963e-001	4.30937498779735e-003,-7.92298756525926e-003
1.74504504504504e+006	7.92870384704608e-001,3.90323528579243e-001	4.14259230590784e-003,-7.80647057158486e-003
1.75495495495495e+006	8.00905123437920e-001,3.84275123021609e-001	3.98189753124161e-003,-7.68550246043217e-003
1.76486486486486e+006	8.08757948427224e-001,3.77955734852475e-001	3.82484103145552e-003,-7.55911469704950e-003
1.77477477477477e+006	8.16520399615787e-001,3.71286623514901e-001	3.66959200768426e-003,-7.42573247029803e-003
1.78468468468468e+006	8.24270991225471e-001,3.64155052087596e-001	3.51458017549059e-003,-7.28310104175192e-003
1.79459459459459e+006	8.32086393916164e-001,3.56391962954468e-001	3.35827212167673e-003,-7.12783925908936e-003
1.80450450450450e+006	8.40047562729605e-001,3.47726333028978e-001	3.19904874540790e-003,-6.95452666057956e-003
1.81441441441441e+006	8.48235863019629e-001,3.37688687663866e-001	3.03528273960742e-003,-6.75377375327732e-003
1.82432432432432e+006	8.56688466313371e-001,3.25387241222555e-001	2.86623067373259e-003,-6.50774482445109e-003
1.83423423423423e+006	8.65155405176723e-001,3.08927498417638e-001	2.69689189646555e-003,-6.17854996835276e-003
1.84414414414414e+006	8.71709114074519e-001,2.83768623069237e-001	2.56581771850962e-003,-5.67537246138474e-003
1.85405405405405e+006	8.63163991570995e-001,2.39628614149875e-001	2.73672016858010e-003,-4.79257228299750e-003
1.86396396396396e+006	7.76470836326845e-001,2.09779322216871e-001	4.47058327346311e-003,-4.19558644433742e-003
