Freq.	V(1|1|1|a)	I(R129)
1.00000000000000e+005	1.67173127207438e-002,7.15569723151394e-002	1.96656537455851e-002,-1.43113944630279e-003
1.09909909909910e+005	1.78037025722314e-002,7.85834060193087e-002	1.96439259485554e-002,-1.57166812038617e-003
1.19819819819820e+005	1.89913349712644e-002,8.55915606225788e-002	1.96201733005747e-002,-1.71183121245158e-003
1.29729729729730e+005	2.02798512856642e-002,9.25798219518910e-002	1.95944029742867e-002,-1.85159643903782e-003
1.39639639639640e+005	2.16688630071053e-002,9.95465845255597e-002	1.95666227398579e-002,-1.99093169051119e-003
1.49549549549550e+005	2.31579520113727e-002,1.06490252233664e-001	1.95368409597725e-002,-2.12980504467328e-003
1.59459459459459e+005	2.47466708377577e-002,1.13409239009462e-001	1.95050665832448e-002,-2.26818478018924e-003
1.69369369369369e+005	2.64345429872482e-002,1.20301969491215e-001	1.94713091402550e-002,-2.40603938982429e-003
1.79279279279279e+005	2.82210632391518e-002,1.27166879673810e-001	1.94355787352170e-002,-2.54333759347620e-003
1.89189189189189e+005	3.01056979857665e-002,1.34002417549609e-001	1.93978860402847e-002,-2.68004835099217e-003
1.99099099099099e+005	3.20878855846961e-002,1.40807043737937e-001	1.93582422883061e-002,-2.81614087475875e-003
2.09009009009009e+005	3.41670367283856e-002,1.47579232102676e-001	1.93166592654323e-002,-2.95158464205352e-003
2.18918918918919e+005	3.63425348304352e-002,1.54317470357403e-001	1.92731493033913e-002,-3.08634940714807e-003
2.28828828828829e+005	3.86137364282328e-002,1.61020260657587e-001	1.92277252714353e-002,-3.22040521315175e-003
2.38738738738739e+005	4.09799716014288e-002,1.67686120179318e-001	1.91804005679714e-002,-3.35372240358636e-003
2.48648648648649e+005	4.34405444057611e-002,1.74313581684109e-001	1.91311891118848e-002,-3.48627163368217e-003
2.58558558558559e+005	4.59947333217223e-002,1.80901194069304e-001	1.90801053335656e-002,-3.61802388138608e-003
2.68468468468468e+005	4.86417917175485e-002,1.87447522903663e-001	1.90271641656490e-002,-3.74895045807325e-003
2.78378378378378e+005	5.13809483259952e-002,1.93951150947691e-001	1.89723810334801e-002,-3.87902301895382e-003
2.88288288288288e+005	5.42114077343549e-002,2.00410678658345e-001	1.89157718453129e-002,-4.00821357316691e-003
2.98198198198198e+005	5.71323508871571e-002,2.06824724677717e-001	1.88573529822569e-002,-4.13649449355435e-003
3.08108108108108e+005	6.01429356009869e-002,2.13191926305361e-001	1.87971412879803e-002,-4.26383852610723e-003
3.18018018018018e+005	6.32422970908427e-002,2.19510939953936e-001	1.87351540581832e-002,-4.39021879907872e-003
3.27927927927928e+005	6.64295485074516e-002,2.25780441587847e-001	1.86714090298510e-002,-4.51560883175695e-003
3.37837837837838e+005	6.97037814849507e-002,2.31999127144624e-001	1.86059243703010e-002,-4.63998254289248e-003
3.47747747747748e+005	7.30640666983370e-002,2.38165712938752e-001	1.85387186660333e-002,-4.76331425877505e-003
3.57657657657657e+005	7.65094544300865e-002,2.44278936047747e-001	1.84698109113983e-002,-4.88557872095493e-003
3.67567567567567e+005	8.00389751453354e-002,2.50337554680234e-001	1.83992204970933e-002,-5.00675109360467e-003
3.77477477477477e+005	8.36516400750169e-002,2.56340348525866e-001	1.83269671984997e-002,-5.12680697051733e-003
3.87387387387387e+005	8.73464418063446e-002,2.62286119086896e-001	1.82530711638731e-002,-5.24572238173793e-003
3.97297297297297e+005	9.11223548800300e-002,2.68173689991263e-001	1.81775529023994e-002,-5.36347379982527e-003
4.07207207207207e+005	9.49783363936289e-002,2.74001907287076e-001	1.81004332721274e-002,-5.48003814574152e-003
4.17117117117117e+005	9.89133266104038e-002,2.79769639718388e-001	1.80217334677919e-002,-5.59539279436776e-003
4.27027027027027e+005	1.02926249573100e-001,2.85475778982193e-001	1.79414750085380e-002,-5.70951557964386e-003
4.36936936936936e+005	1.07016013722031e-001,2.91119239966572e-001	1.78596797255594e-002,-5.82238479933143e-003
4.46846846846846e+005	1.11181512516877e-001,2.96698960969971e-001	1.77763697496625e-002,-5.93397921939942e-003
4.56756756756756e+005	1.15421625061599e-001,3.02213903901591e-001	1.76915674987680e-002,-6.04427807803181e-003
4.66666666666666e+005	1.19735216731890e-001,3.07663054462887e-001	1.76052956653622e-002,-6.15326108925773e-003
4.76576576576576e+005	1.24121139804575e-001,3.13045422310216e-001	1.75175772039085e-002,-6.26090844620433e-003
4.86486486486486e+005	1.28578234088393e-001,3.18360041198675e-001	1.74284353182321e-002,-6.36720082397350e-003
4.96396396396396e+005	1.33105327555598e-001,3.23605969107178e-001	1.73378934488880e-002,-6.47211938214357e-003
5.06306306306306e+005	1.37701236973820e-001,3.28782288344886e-001	1.72459752605236e-002,-6.57564576689772e-003
5.16216216216216e+005	1.42364768537654e-001,3.33888105639050e-001	1.71527046292469e-002,-6.67776211278100e-003
5.26126126126125e+005	1.47094718499435e-001,3.38922552204422e-001	1.70581056300113e-002,-6.77845104408843e-003
5.36036036036035e+005	1.51889873798679e-001,3.43884783794331e-001	1.69622025240264e-002,-6.87769567588662e-003
5.45945945945945e+005	1.56749012689697e-001,3.48773980733601e-001	1.68650197462061e-002,-6.97547961467202e-003
5.55855855855855e+005	1.61670905366866e-001,3.53589347933449e-001	1.67665818926627e-002,-7.07178695866898e-003
5.65765765765765e+005	1.66654314587099e-001,3.58330114888556e-001	1.66669137082580e-002,-7.16660229777111e-003
5.75675675675675e+005	1.71697996289030e-001,3.62995535656486e-001	1.65660400742194e-002,-7.25991071312971e-003
5.85585585585585e+005	1.76800700208480e-001,3.67584888819662e-001	1.64639859958304e-002,-7.35169777639323e-003
5.95495495495495e+005	1.81961170489764e-001,3.72097477430106e-001	1.63607765902047e-002,-7.44194954860212e-003
6.05405405405405e+005	1.87178146292413e-001,3.76532628937161e-001	1.62564370741517e-002,-7.53065257874323e-003
6.15315315315315e+005	1.92450362392930e-001,3.80889695098430e-001	1.61509927521414e-002,-7.61779390196859e-003
6.25225225225225e+005	1.97776549781180e-001,3.85168051874162e-001	1.60444690043764e-002,-7.70336103748325e-003
6.35135135135135e+005	2.03155436251065e-001,3.89367099305346e-001	1.59368912749787e-002,-7.78734198610692e-003
6.45045045045045e+005	2.08585746985118e-001,3.93486261375733e-001	1.58282850602976e-002,-7.86972522751466e-003
6.54954954954955e+005	2.14066205132721e-001,3.97524985858079e-001	1.57186758973456e-002,-7.95049971716157e-003
6.64864864864865e+005	2.19595532381608e-001,4.01482744144833e-001	1.56080893523678e-002,-8.02965488289665e-003
6.74774774774775e+005	2.25172449522397e-001,4.05359031063552e-001	1.54965510095521e-002,-8.10718062127104e-003
6.84684684684685e+005	2.30795677005862e-001,4.09153364677301e-001	1.53840864598828e-002,-8.18306729354602e-003
6.94594594594594e+005	2.36463935492723e-001,4.12865286070289e-001	1.52707212901455e-002,-8.25730572140577e-003
7.04504504504504e+005	2.42175946395717e-001,4.16494359119016e-001	1.51564810720857e-002,-8.32988718238032e-003
7.14414414414414e+005	2.47930432413766e-001,4.20040170249181e-001	1.50413913517247e-002,-8.40080340498362e-003
7.24324324324324e+005	2.53726118058058e-001,4.23502328178599e-001	1.49254776388388e-002,-8.47004656357199e-003
7.34234234234234e+005	2.59561730169893e-001,4.26880463646389e-001	1.48087653966021e-002,-8.53760927292778e-003
7.44144144144144e+005	2.65435998430173e-001,4.30174229128648e-001	1.46912800313965e-002,-8.60348458257297e-003
7.54054054054054e+005	2.71347655860432e-001,4.33383298540876e-001	1.45730468827914e-002,-8.66766597081751e-003
7.63963963963964e+005	2.77295439315330e-001,4.36507366927330e-001	1.44540912136934e-002,-8.73014733854661e-003
7.73873873873874e+005	2.83278089966575e-001,4.39546150137556e-001	1.43344382006685e-002,-8.79092300275111e-003
7.83783783783784e+005	2.89294353778245e-001,4.42499384490250e-001	1.42141129244351e-002,-8.84998768980500e-003
7.93693693693694e+005	2.95342981973525e-001,4.45366826424661e-001	1.40931403605295e-002,-8.90733652849321e-003
8.03603603603604e+005	3.01422731492906e-001,4.48148252139659e-001	1.39715453701419e-002,-8.96296504279317e-003
8.13513513513514e+005	3.07532365443921e-001,4.50843457220625e-001	1.38493526911216e-002,-9.01686914441249e-003
8.23423423423424e+005	3.13670653542512e-001,4.53452256254258e-001	1.37265869291498e-002,-9.06904512508516e-003
8.33333333333334e+005	3.19836372546202e-001,4.55974482431390e-001	1.36032725490760e-002,-9.11948964862780e-003
8.43243243243244e+005	3.26028306679225e-001,4.58409987137852e-001	1.34794338664155e-002,-9.16819974275705e-003
8.53153153153153e+005	3.32245248049859e-001,4.60758639533416e-001	1.33550950390028e-002,-9.21517279066832e-003
8.63063063063063e+005	3.38485997060211e-001,4.63020326118785e-001	1.32302800587958e-002,-9.26040652237571e-003
8.72972972972973e+005	3.44749362808779e-001,4.65194950290578e-001	1.31050127438244e-002,-9.30389900581156e-003
8.82882882882883e+005	3.51034163486148e-001,4.67282431884184e-001	1.29793167302770e-002,-9.34564863768367e-003
8.92792792792793e+005	3.57339226764230e-001,4.69282706704338e-001	1.28532154647154e-002,-9.38565413408675e-003
9.02702702702703e+005	3.63663390179525e-001,4.71195726043191e-001	1.27267321964095e-002,-9.42391452086382e-003
9.12612612612613e+005	3.70005501510940e-001,4.73021456185592e-001	1.25998899697812e-002,-9.46042912371185e-003
9.22522522522523e+005	3.76364419152766e-001,4.74759877901216e-001	1.24727116169447e-002,-9.49519755802431e-003
9.32432432432433e+005	3.82739012483496e-001,4.76410985923108e-001	1.23452197503301e-002,-9.52821971846217e-003
9.42342342342343e+005	3.89128162231249e-001,4.77974788412122e-001	1.22174367553750e-002,-9.55949576824244e-003
9.52252252252253e+005	3.95530760836653e-001,4.79451306406599e-001	1.20893847832669e-002,-9.58902612813198e-003
9.62162162162163e+005	4.01945712814146e-001,4.80840573256573e-001	1.19610857437171e-002,-9.61681146513145e-003
9.72072072072073e+005	4.08371935112773e-001,4.82142634041611e-001	1.18325612977445e-002,-9.64285268083223e-003
9.81981981981983e+005	4.14808357477681e-001,4.83357544971292e-001	1.17038328504464e-002,-9.66715089942583e-003
9.91891891891893e+005	4.21253922813645e-001,4.84485372767127e-001	1.15749215437271e-002,-9.68970745534254e-003
1.00180180180180e+006	4.27707587552157e-001,4.85526194024591e-001	1.14458482489569e-002,-9.71052388049181e-003
1.01171171171171e+006	4.34168322023746e-001,4.86480094553671e-001	1.13166335595251e-002,-9.72960189107341e-003
1.02162162162162e+006	4.40635110837446e-001,4.87347168696148e-001	1.11872977832511e-002,-9.74694337392296e-003
1.03153153153153e+006	4.47106953269539e-001,4.88127518617535e-001	1.10578609346092e-002,-9.76255037235071e-003
1.04144144144144e+006	4.53582863663989e-001,4.88821253571280e-001	1.09283427267202e-002,-9.77642507142560e-003
1.05135135135135e+006	4.60061871847273e-001,4.89428489132517e-001	1.07987625630545e-002,-9.78856978265034e-003
1.06126126126126e+006	4.66543023560690e-001,4.89949346398219e-001	1.06691395287862e-002,-9.79898692796438e-003
1.07117117117117e+006	4.73025380913630e-001,4.90383951150137e-001	1.05394923817274e-002,-9.80767902300273e-003
1.08108108108108e+006	4.79508022861742e-001,4.90732432976389e-001	1.04098395427652e-002,-9.81464865952777e-003
1.09099099099099e+006	4.85990045714516e-001,4.90994924346915e-001	1.02801990857097e-002,-9.81989848693831e-003
1.10090090090090e+006	4.92470563677411e-001,4.91171559637296e-001	1.01505887264518e-002,-9.82343119274593e-003
1.11081081081081e+006	4.98948709434386e-001,4.91262474094565e-001	1.00210258113123e-002,-9.82524948189129e-003
1.12072072072072e+006	5.05423634777607e-001,4.91267802737671e-001	9.89152730444786e-003,-9.82535605475343e-003
1.13063063063063e+006	5.11894511292037e-001,4.91187679184057e-001	9.76210977415925e-003,-9.82375358368114e-003
1.14054054054054e+006	5.18360531103894e-001,4.91022234392428e-001	9.63278937792213e-003,-9.82044468784856e-003
1.15045045045045e+006	5.24820907703288e-001,4.90771595310183e-001	9.50358184593423e-003,-9.81543190620366e-003
1.16036036036036e+006	5.31274876853083e-001,4.90435883411994e-001	9.37450246293833e-003,-9.80871766823989e-003
1.17027027027027e+006	5.37721697597923e-001,4.90015213113743e-001	9.24556604804153e-003,-9.80030426227485e-003
1.18018018018018e+006	5.44160653389804e-001,4.89509690043213e-001	9.11678693220391e-003,-9.79019380086426e-003
1.19009009009009e+006	5.50591053349310e-001,4.88919409145643e-001	8.98817893301381e-003,-9.77838818291286e-003
1.20000000000000e+006	5.57012233685056e-001,4.88244452598182e-001	8.85975532629888e-003,-9.76488905196364e-003
1.20990990990991e+006	5.63423559297944e-001,4.87484887502445e-001	8.73152881404113e-003,-9.74969775004891e-003
1.21981981981982e+006	5.69824425601746e-001,4.86640763318404e-001	8.60351148796507e-003,-9.73281526636808e-003
1.22972972972973e+006	5.76214260597565e-001,4.85712108995591e-001	8.47571478804871e-003,-9.71424217991181e-003
1.23963963963964e+006	5.82592527246986e-001,4.84698929748646e-001	8.34814945506028e-003,-9.69397859497293e-003
1.24954954954955e+006	5.88958726197766e-001,4.83601203413183e-001	8.22082547604469e-003,-9.67202406826365e-003
1.25945945945946e+006	5.95312398926913e-001,4.82418876304186e-001	8.09375202146175e-003,-9.64837752608371e-003
1.26936936936937e+006	6.01653131379784e-001,4.81151858481994e-001	7.96693737240432e-003,-9.62303716963989e-003
1.27927927927928e+006	6.07980558200858e-001,4.79800018309252e-001	7.84038883598284e-003,-9.59600036618503e-003
1.28918918918919e+006	6.14294367673271e-001,4.78363176154837e-001	7.71411264653459e-003,-9.56726352309674e-003
1.29909909909910e+006	6.20594307511190e-001,4.76841097065868e-001	7.58811384977619e-003,-9.53682194131737e-003
1.30900900900901e+006	6.26880191683286e-001,4.75233482184018e-001	7.46239616633428e-003,-9.50466964368035e-003
1.31891891891892e+006	6.33151908489283e-001,4.73539958624382e-001	7.33696183021434e-003,-9.47079917248764e-003
1.32882882882883e+006	6.39409430167730e-001,4.71760067459487e-001	7.21181139664540e-003,-9.43520134918973e-003
1.33873873873874e+006	6.45652824385894e-001,4.69893249351494e-001	7.08694351228212e-003,-9.39786498702989e-003
1.34864864864865e+006	6.51882268057691e-001,4.67938827243604e-001	6.96235463884619e-003,-9.35877654487209e-003
1.35855855855856e+006	6.58098064060615e-001,4.65895985344585e-001	6.83803871878771e-003,-9.31791970689170e-003
1.36846846846847e+006	6.64300661588765e-001,4.63763743400643e-001	6.71398676822471e-003,-9.27527486801285e-003
1.37837837837838e+006	6.70490681101781e-001,4.61540924920491e-001	6.59018637796439e-003,-9.23081849840983e-003
1.38828828828829e+006	6.76668945131171e-001,4.59226117564417e-001	6.46662109737658e-003,-9.18452235128833e-003
1.39819819819820e+006	6.82836516618503e-001,4.56817623269187e-001	6.34326966762994e-003,-9.13635246538374e-003
1.40810810810811e+006	6.88994747031847e-001,4.54313394770854e-001	6.22010505936306e-003,-9.08626789541708e-003
1.41801801801802e+006	6.95145337308724e-001,4.51710953872097e-001	6.09709325382552e-003,-9.03421907744194e-003
1.42792792792793e+006	7.01290415812904e-001,4.49007284867013e-001	5.97419168374193e-003,-8.98014569734025e-003
1.43783783783784e+006	7.07432639133716e-001,4.46198693641222e-001	5.85134721732568e-003,-8.92397387282444e-003
1.44774774774775e+006	7.13575323957404e-001,4.43280618542981e-001	5.72849352085193e-003,-8.86561237085963e-003
1.45765765765766e+006	7.19722621809303e-001,4.40247372214430e-001	5.60554756381393e-003,-8.80494744428861e-003
1.46756756756756e+006	7.25879753863684e-001,4.37091782515700e-001	5.48240492272632e-003,-8.74183565031400e-003
1.47747747747747e+006	7.32053331330406e-001,4.33804682478626e-001	5.35893337339189e-003,-8.67609364957251e-003
1.48738738738738e+006	7.38251799967181e-001,4.30374168333846e-001	5.23496400065637e-003,-8.60748336667692e-003
1.49729729729729e+006	7.44486068097637e-001,4.26784490318271e-001	5.11027863804726e-003,-8.53568980636542e-003
1.50720720720720e+006	7.50770411334896e-001,4.23014341454272e-001	4.98459177330208e-003,-8.46028682908544e-003
1.51711711711711e+006	7.57123802656260e-001,4.19034118520265e-001	4.85752394687480e-003,-8.38068237040530e-003
1.52702702702702e+006	7.63571906740412e-001,4.14801342441060e-001	4.72856186519176e-003,-8.29602684882121e-003
1.53693693693693e+006	7.70150116472786e-001,4.10252589089072e-001	4.59699767054429e-003,-8.20505178178145e-003
1.54684684684684e+006	7.76908176358507e-001,4.05288330562776e-001	4.46183647282985e-003,-8.10576661125553e-003
1.55675675675675e+006	7.83916861852050e-001,3.99742094670787e-001	4.32166276295899e-003,-7.99484189341574e-003
1.56666666666666e+006	7.91275068330061e-001,3.93311057489755e-001	4.17449863339878e-003,-7.86622114979509e-003
1.57657657657657e+006	7.99099700514891e-001,3.85378383034447e-001	4.01800598970218e-003,-7.70756766068895e-003
1.58648648648648e+006	8.07360071705360e-001,3.74481246558653e-001	3.85279856589280e-003,-7.48962493117305e-003
1.59639639639639e+006	8.14281185654347e-001,3.56547880210434e-001	3.71437628691306e-003,-7.13095760420867e-003
1.60630630630630e+006	8.01172878388806e-001,3.26945001883306e-001	3.97654243222388e-003,-6.53890003766612e-003
1.61621621621621e+006	7.74396055693018e-001,3.50277248882234e-001	4.51207888613963e-003,-7.00554497764468e-003
1.62612612612612e+006	8.00595752313099e-001,3.52478792218157e-001	3.98808495373802e-003,-7.04957584436313e-003
1.63603603603603e+006	8.07466562067354e-001,3.18822317664954e-001	3.85066875865293e-003,-6.37644635329908e-003
1.64594594594594e+006	7.43100074412984e-001,3.02768008365645e-001	5.13799851174032e-003,-6.05536016731290e-003
1.65585585585585e+006	7.46673554169946e-001,3.72032126354170e-001	5.06652891660108e-003,-7.44064252708339e-003
1.66576576576576e+006	7.81803144018422e-001,3.81155065198720e-001	4.36393711963157e-003,-7.62310130397441e-003
1.67567567567567e+006	8.02545323223367e-001,3.75390777425782e-001	3.94909353553265e-003,-7.50781554851564e-003
1.68558558558558e+006	8.16707113349504e-001,3.66800783336843e-001	3.66585773300993e-003,-7.33601566673686e-003
1.69549549549549e+006	8.27734316411582e-001,3.55974679847447e-001	3.44531367176836e-003,-7.11949359694893e-003
1.70540540540540e+006	8.34928563745702e-001,3.39822813528139e-001	3.30142872508596e-003,-6.79645627056278e-003
1.71531531531531e+006	8.20067874955845e-001,3.18771303855052e-001	3.59864250088310e-003,-6.37542607710104e-003
1.72522522522522e+006	8.08033324361713e-001,3.46423629941622e-001	3.83933351276573e-003,-6.92847259883244e-003
1.73513513513513e+006	8.29765862158427e-001,3.51486076087278e-001	3.40468275683145e-003,-7.02972152174556e-003
1.74504504504504e+006	8.43255441484019e-001,3.45366161272160e-001	3.13489117031962e-003,-6.90732322544320e-003
1.75495495495495e+006	8.52315912236329e-001,3.37572963058027e-001	2.95368175527343e-003,-6.75145926116054e-003
1.76486486486486e+006	8.57093221309294e-001,3.30547365069939e-001	2.85813557381412e-003,-6.61094730139878e-003
1.77477477477477e+006	8.64146340498637e-001,3.26769005220712e-001	2.71707319002726e-003,-6.53538010441424e-003
1.78468468468468e+006	8.71500423639501e-001,3.20352832140036e-001	2.56999152720999e-003,-6.40705664280071e-003
1.79459459459459e+006	8.77882418366816e-001,3.13479960365797e-001	2.44235163266369e-003,-6.26959920731594e-003
1.80450450450450e+006	8.83796779260384e-001,3.06471289212046e-001	2.32406441479232e-003,-6.12942578424091e-003
1.81441441441441e+006	8.89448023534950e-001,2.99298120593125e-001	2.21103952930100e-003,-5.98596241186249e-003
1.82432432432432e+006	8.94933272171401e-001,2.91891017600068e-001	2.10133455657197e-003,-5.83782035200136e-003
1.83423423423423e+006	9.00309661010038e-001,2.84160943314968e-001	1.99380677979925e-003,-5.68321886629935e-003
1.84414414414414e+006	9.05615524390723e-001,2.75987884305894e-001	1.88768951218553e-003,-5.51975768611788e-003
1.85405405405405e+006	9.10875504474065e-001,2.67194851763966e-001	1.78248991051869e-003,-5.34389703527932e-003
1.86396396396396e+006	9.16092294552868e-001,2.57495973820738e-001	1.67815410894264e-003,-5.14991947641477e-003
