Freq.	V(1|1|1|b)	I(R129)
1.00000000000000e+005	4.56982320229625e-002,1.42074563136949e-001	1.90860353595408e-002,-2.84149126273898e-003
1.09909909909910e+005	5.00212443267518e-002,1.55506119290375e-001	1.89995751134650e-002,-3.11012238580750e-003
1.19819819819820e+005	5.47154461797816e-002,1.68760155768720e-001	1.89056910764044e-002,-3.37520311537441e-003
1.29729729729730e+005	5.97713646679777e-002,1.81823279410471e-001	1.88045727066405e-002,-3.63646558820941e-003
1.39639639639640e+005	6.51789280388837e-002,1.94682718958884e-001	1.86964214392223e-002,-3.89365437917769e-003
1.49549549549550e+005	7.09275136611827e-002,2.07326355516670e-001	1.85814497267763e-002,-4.14652711033341e-003
1.59459459459459e+005	7.70059975288864e-002,2.19742748806153e-001	1.84598800494223e-002,-4.39485497612305e-003
1.69369369369369e+005	8.34028049056393e-002,2.31921159181287e-001	1.83319439018872e-002,-4.63842318362574e-003
1.79279279279279e+005	9.01059617083482e-002,2.43851565380912e-001	1.81978807658330e-002,-4.87703130761823e-003
1.89189189189189e+005	9.71031462382612e-002,2.55524678053661e-001	1.80579370752348e-002,-5.11049356107322e-003
1.99099099099099e+005	1.04381740881070e-001,2.66931949123641e-001	1.79123651823786e-002,-5.33863898247282e-003
2.09009009009009e+005	1.11928883415037e-001,2.78065577101772e-001	1.77614223316993e-002,-5.56131154203544e-003
2.18918918918919e+005	1.19731517587033e-001,2.88918508480367e-001	1.76053696482593e-002,-5.77837016960733e-003
2.28828828828829e+005	1.27776442640165e-001,2.99484435377723e-001	1.74444711471967e-002,-5.98968870755446e-003
2.38738738738739e+005	1.36050361502814e-001,3.09757789625051e-001	1.72789927699437e-002,-6.19515579250102e-003
2.48648648648649e+005	1.44539927376904e-001,3.19733733509820e-001	1.71092014524619e-002,-6.39467467019640e-003
2.58558558558559e+005	1.53231788492484e-001,3.29408147407532e-001	1.69353642301503e-002,-6.58816294815065e-003
2.68468468468468e+005	1.62112630825743e-001,3.38777614548040e-001	1.67577473834851e-002,-6.77555229096080e-003
2.78378378378378e+005	1.71169218607932e-001,3.47839403172853e-001	1.65766156278414e-002,-6.95678806345707e-003
2.88288288288288e+005	1.80388432482867e-001,3.56591446346655e-001	1.63922313503427e-002,-7.13182892693310e-003
2.98198198198198e+005	1.89757305200270e-001,3.65032319689548e-001	1.62048538959946e-002,-7.30064639379097e-003
3.08108108108108e+005	1.99263054760938e-001,3.73161217296697e-001	1.60147389047812e-002,-7.46322434593393e-003
3.18018018018018e+005	2.08893114957135e-001,3.80977926109222e-001	1.58221377008573e-002,-7.61955852218444e-003
3.27927927927928e+005	2.18635163277573e-001,3.88482798994783e-001	1.56272967344485e-002,-7.76965597989565e-003
3.37837837837838e+005	2.28477146170503e-001,3.95676726788452e-001	1.54304570765899e-002,-7.91353453576904e-003
3.47747747747748e+005	2.38407301680789e-001,4.02561109534728e-001	1.52318539663842e-002,-8.05122219069456e-003
3.57657657657657e+005	2.48414179497084e-001,4.09137827159943e-001	1.50317164100583e-002,-8.18275654319885e-003
3.67567567567567e+005	2.58486658463434e-001,4.15409209791412e-001	1.48302668307313e-002,-8.30818419582824e-003
3.77477477477477e+005	2.68613961625705e-001,4.21378007925613e-001	1.46277207674859e-002,-8.42756015851226e-003
3.87387387387387e+005	2.78785668897127e-001,4.27047362632792e-001	1.44242866220575e-002,-8.54094725265584e-003
3.97297297297297e+005	2.88991727439122e-001,4.32420775969996e-001	1.42201654512176e-002,-8.64841551939991e-003
4.07207207207207e+005	2.99222459863345e-001,4.37502081758752e-001	1.40155508027331e-002,-8.75004163517504e-003
4.17117117117117e+005	3.09468570368741e-001,4.42295416867835e-001	1.38106285926252e-002,-8.84590833735670e-003
4.27027027027027e+005	3.19721148933423e-001,4.46805193125826e-001	1.36055770213316e-002,-8.93610386251651e-003
4.36936936936936e+005	3.29971673685447e-001,4.51036069972773e-001	1.34005665262911e-002,-9.02072139945546e-003
4.46846846846846e+005	3.40212011579282e-001,4.54992927945311e-001	1.31957597684144e-002,-9.09985855890622e-003
4.56756756756756e+005	3.50434417505974e-001,4.58680843075173e-001	1.29913116498805e-002,-9.17361686150347e-003
4.66666666666666e+005	3.60631531964960e-001,4.62105062267359e-001	1.27873693607008e-002,-9.24210124534718e-003
4.76576576576576e+005	3.70796377424250e-001,4.65270979711234e-001	1.25840724515150e-002,-9.30541959422468e-003
4.86486486486486e+005	3.80922353493424e-001,4.68184114365734e-001	1.23815529301315e-002,-9.36368228731469e-003
4.96396396396396e+005	3.91003231030763e-001,4.70850088548573e-001	1.21799353793847e-002,-9.41700177097146e-003
5.06306306306306e+005	4.01033145301945e-001,4.73274607648975e-001	1.19793370939611e-002,-9.46549215297951e-003
5.16216216216216e+005	4.11006588303213e-001,4.75463440974011e-001	1.17798682339357e-002,-9.50926881948023e-003
5.26126126126125e+005	4.20918400356945e-001,4.77422403730025e-001	1.15816319928611e-002,-9.54844807460049e-003
5.36036036036035e+005	4.30763761082116e-001,4.79157340132971e-001	1.13847247783577e-002,-9.58314680265941e-003
5.45945945945945e+005	4.40538179836501e-001,4.80674107634680e-001	1.11892364032700e-002,-9.61348215269361e-003
5.55855855855855e+005	4.50237485721546e-001,4.81978562246069e-001	1.09952502855691e-002,-9.63957124492139e-003
5.65765765765765e+005	4.59857817234881e-001,4.83076544933137e-001	1.08028436553024e-002,-9.66153089866274e-003
5.75675675675675e+005	4.69395611649385e-001,4.83973869057166e-001	1.06120877670123e-002,-9.67947738114333e-003
5.85585585585585e+005	4.78847594191746e-001,4.84676308826810e-001	1.04230481161651e-002,-9.69352617653619e-003
5.95495495495495e+005	4.88210767087498e-001,4.85189588726672e-001	1.02357846582500e-002,-9.70379177453344e-003
6.05405405405405e+005	4.97482398533781e-001,4.85519373884564e-001	1.00503520293244e-002,-9.71038747769128e-003
6.15315315315315e+005	5.06660011655384e-001,4.85671261337664e-001	9.86679976689232e-003,-9.71342522675329e-003
6.25225225225225e+005	5.15741373494285e-001,4.85650772156472e-001	9.68517253011430e-003,-9.71301544312945e-003
6.35135135135135e+005	5.24724484077644e-001,4.85463344384457e-001	9.50551031844712e-003,-9.70926688768915e-003
6.45045045045045e+005	5.33607565604323e-001,4.85114326750821e-001	9.32784868791355e-003,-9.70228653501643e-003
6.54954954954955e+005	5.42389051785272e-001,4.84608973113594e-001	9.15221896429456e-003,-9.69217946227187e-003
6.64864864864865e+005	5.51067577368766e-001,4.83952437590461e-001	8.97864845262468e-003,-9.67904875180921e-003
6.74774774774775e+005	5.59641967877292e-001,4.83149770335148e-001	8.80716064245415e-003,-9.66299540670297e-003
6.84684684684685e+005	5.68111229579080e-001,4.82205913917858e-001	8.63777540841841e-003,-9.64411827835717e-003
6.94594594594594e+005	5.76474539713652e-001,4.81125700269137e-001	8.47050920572696e-003,-9.62251400538274e-003
7.04504504504504e+005	5.84731236987509e-001,4.79913848147594e-001	8.30537526024982e-003,-9.59827696295188e-003
7.14414414414414e+005	5.92880812352984e-001,4.78574961093091e-001	8.14238375294031e-003,-9.57149922186181e-003
7.24324324324324e+005	6.00922900080560e-001,4.77113525828291e-001	7.98154199838881e-003,-9.54227051656583e-003
7.34234234234234e+005	6.08857269132379e-001,4.75533911072885e-001	7.82285461735241e-003,-9.51067822145770e-003
7.44144144144144e+005	6.16683814842429e-001,4.73840366736203e-001	7.66632370315141e-003,-9.47680733472405e-003
7.54054054054054e+005	6.24402550906761e-001,4.72037023455465e-001	7.51194898186478e-003,-9.44074046910931e-003
7.63963963963964e+005	6.32013601685302e-001,4.70127892448409e-001	7.35972796629396e-003,-9.40255784896818e-003
7.73873873873874e+005	6.39517194815142e-001,4.68116865650547e-001	7.20965610369717e-003,-9.36233731301093e-003
7.83783783783784e+005	6.46913654133712e-001,4.66007716108864e-001	7.06172691732575e-003,-9.32015432217729e-003
7.93693693693694e+005	6.54203392909023e-001,4.63804098605232e-001	6.91593214181953e-003,-9.27608197210465e-003
8.03603603603604e+005	6.61386907372938e-001,4.61509550484301e-001	6.77226185254123e-003,-9.23019100968603e-003
8.13513513513514e+005	6.68464770552579e-001,4.59127492662083e-001	6.63070458894842e-003,-9.18254985324167e-003
8.23423423423424e+005	6.75437626394044e-001,4.56661230792814e-001	6.49124747211912e-003,-9.13322461585629e-003
8.33333333333334e+005	6.82306184171981e-001,4.54113956573038e-001	6.35387631656039e-003,-9.08227913146077e-003
8.43243243243244e+005	6.89071213177920e-001,4.51488749163142e-001	6.21857573644161e-003,-9.02977498326284e-003
8.53153153153153e+005	6.95733537679840e-001,4.48788576707790e-001	6.08532924640319e-003,-8.97577153415581e-003
8.63063063063063e+005	7.02294032145020e-001,4.46016297937894e-001	5.95411935709961e-003,-8.92032595875788e-003
8.72972972972973e+005	7.08753616717937e-001,4.43174663837811e-001	5.82492766564125e-003,-8.86349327675623e-003
8.82882882882883e+005	7.15113252944796e-001,4.40266319362541e-001	5.69773494110408e-003,-8.80532638725082e-003
8.92792792792793e+005	7.21373939736052e-001,4.37293805190601e-001	5.57252120527895e-003,-8.74587610381202e-003
9.02702702702703e+005	7.27536709558278e-001,4.34259559499194e-001	5.44926580883445e-003,-8.68519118998387e-003
9.12612612612613e+005	7.33602624846642e-001,4.31165919749035e-001	5.32794750306715e-003,-8.62331839498070e-003
9.22522522522523e+005	7.39572774629322e-001,4.28015124467011e-001	5.20854450741357e-003,-8.56030248934022e-003
9.32432432432433e+005	7.45448271355193e-001,4.24809315015433e-001	5.09103457289614e-003,-8.49618630030867e-003
9.42342342342343e+005	7.51230247916284e-001,4.21550537337287e-001	4.97539504167433e-003,-8.43101074674575e-003
9.52252252252253e+005	7.56919854856573e-001,4.18240743667351e-001	4.86160290286853e-003,-8.36481487334701e-003
9.62162162162163e+005	7.62518257758882e-001,4.14881794199484e-001	4.74963484482237e-003,-8.29763588398967e-003
9.72072072072073e+005	7.68026634801791e-001,4.11475458700746e-001	4.63946730396418e-003,-8.22950917401492e-003
9.81981981981983e+005	7.73446174478718e-001,4.08023418063228e-001	4.53107651042564e-003,-8.16046836126456e-003
9.91891891891893e+005	7.78778073471483e-001,4.04527265784672e-001	4.42443853057034e-003,-8.09054531569343e-003
1.00180180180180e+006	7.84023534670952e-001,4.00988509369009e-001	4.31952930658096e-003,-8.01977018738018e-003
1.01171171171171e+006	7.89183765337551e-001,3.97408571637934e-001	4.21632469324898e-003,-7.94817143275867e-003
1.02162162162162e+006	7.94259975394713e-001,3.93788791944480e-001	4.11480049210575e-003,-7.87577583888961e-003
1.03153153153153e+006	7.99253375848557e-001,3.90130427279344e-001	4.01493248302885e-003,-7.80260854558687e-003
1.04144144144144e+006	8.04165177327366e-001,3.86434653260305e-001	3.91669645345269e-003,-7.72869306520611e-003
1.05135135135135e+006	8.08996588734647e-001,3.82702564994628e-001	3.82006822530706e-003,-7.65405129989257e-003
1.06126126126126e+006	8.13748816009880e-001,3.78935177803636e-001	3.72502367980240e-003,-7.57870355607271e-003
1.07117117117117e+006	8.18423060991227e-001,3.75133427797862e-001	3.63153878017545e-003,-7.50266855595724e-003
1.08108108108108e+006	8.23020520374795e-001,3.71298172290188e-001	3.53958959250409e-003,-7.42596344580377e-003
1.09099099099099e+006	8.27542384765243e-001,3.67430190033123e-001	3.44915230469515e-003,-7.34860380066245e-003
1.10090090090090e+006	8.31989837812776e-001,3.63530181264973e-001	3.36020324374449e-003,-7.27060362529946e-003
1.11081081081081e+006	8.36364055431800e-001,3.59598767547898e-001	3.27271889136400e-003,-7.19197535095797e-003
1.12072072072072e+006	8.40666205096710e-001,3.55636491378792e-001	3.18667589806581e-003,-7.11272982757585e-003
1.13063063063063e+006	8.44897445210502e-001,3.51643815551526e-001	3.10205109578995e-003,-7.03287631103052e-003
1.14054054054054e+006	8.49058924542094e-001,3.47621122246206e-001	3.01882150915813e-003,-6.95242244492413e-003
1.15045045045045e+006	8.53151781728372e-001,3.43568711817757e-001	2.93696436543255e-003,-6.87137423635514e-003
1.16036036036036e+006	8.57177144837196e-001,3.39486801252121e-001	2.85645710325609e-003,-6.78973602504242e-003
1.17027027027027e+006	8.61136130987623e-001,3.35375522253698e-001	2.77727738024754e-003,-6.70751044507396e-003
1.18018018018018e+006	8.65029846023788e-001,3.31234918922060e-001	2.69940307952423e-003,-6.62469837844119e-003
1.19009009009009e+006	8.68859384238847e-001,3.27064944969367e-001	2.62281231522306e-003,-6.54129889938734e-003
1.20000000000000e+006	8.72625828145402e-001,3.22865460422073e-001	2.54748343709197e-003,-6.45730920844146e-003
1.20990990990991e+006	8.76330248288753e-001,3.18636227741090e-001	2.47339503422493e-003,-6.37272455482180e-003
1.21981981981982e+006	8.79973703099116e-001,3.14376907283392e-001	2.40052593801768e-003,-6.28753814566784e-003
1.22972972972973e+006	8.83557238778654e-001,3.10087052014493e-001	2.32885522442692e-003,-6.20174104028986e-003
1.23963963963964e+006	8.87081889218727e-001,3.05766101364946e-001	2.25836221562546e-003,-6.11532202729891e-003
1.24954954954955e+006	8.90548675942084e-001,3.01413374104238e-001	2.18902648115832e-003,-6.02826748208476e-003
1.25945945945946e+006	8.93958608063777e-001,2.97028060081356e-001	2.12082783872446e-003,-5.94056120162712e-003
1.26936936936937e+006	8.97312682263272e-001,2.92609210651783e-001	2.05374635473456e-003,-5.85218421303566e-003
1.27927927927928e+006	9.00611882758411e-001,2.88155727574382e-001	1.98776234483178e-003,-5.76311455148764e-003
1.28918918918919e+006	9.03857181269371e-001,2.83666350116593e-001	1.92285637461257e-003,-5.67332700233186e-003
1.29909909909910e+006	9.07049536957345e-001,2.79139640050324e-001	1.85900926085309e-003,-5.58279280100649e-003
1.30900900900901e+006	9.10189896317939e-001,2.74573964150611e-001	1.79620207364122e-003,-5.49147928301221e-003
1.31891891891892e+006	9.13279193002782e-001,2.69967473720306e-001	1.73441613994435e-003,-5.39934947440611e-003
1.32882882882883e+006	9.16318347533821e-001,2.65318080551151e-001	1.67363304932358e-003,-5.30636161102302e-003
1.33873873873874e+006	9.19308266862218e-001,2.60623428586754e-001	1.61383466275564e-003,-5.21246857173508e-003
1.34864864864865e+006	9.22249843706181e-001,2.55880860365835e-001	1.55500312587638e-003,-5.11761720731670e-003
1.35855855855856e+006	9.25143955577131e-001,2.51087377079983e-001	1.49712088845739e-003,-5.02174754159965e-003
1.36846846846847e+006	9.27991463368154e-001,2.46239590758711e-001	1.44017073263691e-003,-4.92479181517421e-003
1.37837837837838e+006	9.30793209327543e-001,2.41333666667061e-001	1.38413581344913e-003,-4.82667333334121e-003
1.38828828828829e+006	9.33550014165727e-001,2.36365253425999e-001	1.32899971668546e-003,-4.72730506851998e-003
1.39819819819820e+006	9.36262672934120e-001,2.31329397583422e-001	1.27474654131760e-003,-4.62658795166845e-003
1.40810810810811e+006	9.38931949150255e-001,2.26220438285158e-001	1.22136101699490e-003,-4.52440876570316e-003
1.41801801801802e+006	9.41558566394663e-001,2.21031876188281e-001	1.16882867210673e-003,-4.42063752376562e-003
1.42792792792793e+006	9.44143196221126e-001,2.15756208620909e-001	1.11713607557747e-003,-4.31512417241817e-003
1.43783783783784e+006	9.46686440619369e-001,2.10384719908838e-001	1.06627118761261e-003,-4.20769439817675e-003
1.44774774774775e+006	9.49188806304124e-001,2.04907211260488e-001	1.01622387391751e-003,-4.09814422520976e-003
1.45765765765766e+006	9.51650666523677e-001,1.99311647816687e-001	9.66986669526466e-004,-3.98623295633375e-003
1.46756756756756e+006	9.54072203426381e-001,1.93583690080134e-001	9.18555931472376e-004,-3.87167380160269e-003
1.47747747747747e+006	9.56453319438744e-001,1.87706060627717e-001	8.70933611225126e-004,-3.75412121255435e-003
1.48738738738738e+006	9.58793497934173e-001,1.81657670690192e-001	8.24130041316547e-004,-3.63315341380385e-003
1.49729729729729e+006	9.61091578359364e-001,1.75412387381452e-001	7.78168432812727e-004,-3.50824774762905e-003
1.50720720720720e+006	9.63345381859836e-001,1.68937246850818e-001	7.33092362803287e-004,-3.37874493701635e-003
1.51711711711711e+006	9.65551064538294e-001,1.62189783139516e-001	6.88978709234118e-004,-3.24379566279032e-003
1.52702702702702e+006	9.67701949411444e-001,1.55113887952205e-001	6.45961011771115e-004,-3.10227775904410e-003
1.53693693693693e+006	9.69786299674781e-001,1.47633112241945e-001	6.04274006504380e-004,-2.95266224483890e-003
1.54684684684684e+006	9.71782780754953e-001,1.39639258693538e-001	5.64344384900939e-004,-2.79278517387077e-003
1.55675675675675e+006	9.73650403872087e-001,1.30971718432658e-001	5.26991922558260e-004,-2.61943436865317e-003
1.56666666666666e+006	9.75303713678132e-001,1.21377180346532e-001	4.93925726437363e-004,-2.42754360693064e-003
1.57657657657657e+006	9.76542310709722e-001,1.10424232319383e-001	4.69153785805569e-004,-2.20848464638766e-003
1.58648648648648e+006	9.76809088549883e-001,9.73094837969825e-002	4.63818229002349e-004,-1.94618967593965e-003
1.59639639639639e+006	9.74125433673060e-001,8.04828892791736e-002	5.17491326538795e-004,-1.60965778558347e-003
1.60630630630630e+006	9.59355078969291e-001,5.96270468249797e-002	8.12898420614174e-004,-1.19254093649959e-003
1.61621621621621e+006	9.28794497814555e-001,7.35544949197814e-002	1.42411004370891e-003,-1.47108989839563e-003
1.62612612612612e+006	9.54694535807521e-001,7.91378649378659e-002	9.06109283849581e-004,-1.58275729875732e-003
1.63603603603603e+006	9.60582205239108e-001,4.91298708730444e-002	7.88355895217832e-004,-9.82597417460888e-004
1.64594594594594e+006	9.38491264479120e-001,9.46482968909848e-003	1.23017471041760e-003,-1.89296593781970e-004
1.65585585585585e+006	8.50258589032243e-001,-5.70053105810836e-003	2.99482821935514e-003,1.14010621162167e-004
1.66576576576576e+006	8.25233667097881e-001,1.25540703055194e-001	3.49532665804238e-003,-2.51081406110387e-003
1.67567567567567e+006	9.13568599067313e-001,1.43491430795515e-001	1.72862801865373e-003,-2.86982861591029e-003
1.68558558558558e+006	9.50300046296384e-001,1.14567376980847e-001	9.93999074072314e-004,-2.29134753961693e-003
1.69549549549549e+006	9.64364844723872e-001,8.56042886898372e-002	7.12703105522567e-004,-1.71208577379674e-003
1.70540540540540e+006	9.67990664268220e-001,5.66673179883223e-002	6.40186714635600e-004,-1.13334635976645e-003
1.71531531531531e+006	9.59625849523012e-001,2.38331573673359e-002	8.07483009539764e-004,-4.76663147346717e-004
1.72522522522522e+006	9.16889223829884e-001,-6.07934809291283e-003	1.66221552340231e-003,1.21586961858257e-004
1.73513513513513e+006	8.72957939483337e-001,5.90973006407466e-002	2.54084121033326e-003,-1.18194601281493e-003
1.74504504504504e+006	9.37414643685255e-001,7.33411671396365e-002	1.25170712629490e-003,-1.46682334279273e-003
1.75495495495495e+006	9.62147153373518e-001,3.92575541702977e-002	7.57056932529645e-004,-7.85151083405955e-004
1.76486486486486e+006	9.66390490087370e-001,4.83023033717098e-003	6.72190198252598e-004,-9.66046067434195e-005
1.77477477477477e+006	9.63068132847509e-001,-2.97135232388746e-002	7.38637343049826e-004,5.94270464777493e-004
1.78468468468468e+006	9.50448067991703e-001,-7.11059797025104e-002	9.91038640165947e-004,1.42211959405021e-003
1.79459459459459e+006	9.21256105688075e-001,-1.20709716613239e-001	1.57487788623850e-003,2.41419433226478e-003
1.80450450450450e+006	8.58864471105091e-001,-1.77821535527059e-001	2.82271057789818e-003,3.55643071054118e-003
1.81441441441441e+006	7.27874272304716e-001,-2.16611559439716e-001	5.44251455390568e-003,4.33223118879432e-003
1.82432432432432e+006	5.29699930916101e-001,-1.20240172766482e-001	9.40600138167797e-003,2.40480345532965e-003
1.83423423423423e+006	5.07629503384064e-001,1.48015975121385e-001	9.84740993231873e-003,-2.96031950242771e-003
1.84414414414414e+006	6.76036489685953e-001,2.73018669726355e-001	6.47927020628095e-003,-5.46037339452710e-003
1.85405405405405e+006	8.04551071340542e-001,2.64414373343430e-001	3.90897857318915e-003,-5.28828746686860e-003
1.86396396396396e+006	8.75591500930194e-001,2.25360435085709e-001	2.48816998139612e-003,-4.50720870171419e-003
