Freq.	V(1|1|1|b)	I(R129)
1.00000000000000e+005	9.96253403237076e-002,1.26078168202781e-001	1.80074931935258e-002,-2.52156336405562e-003
1.09909909909910e+005	1.03286087331744e-001,1.38055246015783e-001	1.79342782533651e-002,-2.76110492031566e-003
1.19819819819820e+005	1.07264633431314e-001,1.49890106976544e-001	1.78547073313737e-002,-2.99780213953088e-003
1.29729729729730e+005	1.11553805873104e-001,1.61571786632172e-001	1.77689238825379e-002,-3.23143573264343e-003
1.39639639639640e+005	1.16145959709369e-001,1.73089766750139e-001	1.76770808058126e-002,-3.46179533500279e-003
1.49549549549550e+005	1.21033010576434e-001,1.84433998975317e-001	1.75793397884713e-002,-3.68867997950633e-003
1.59459459459459e+005	1.26206468704889e-001,1.95594925714190e-001	1.74758706259022e-002,-3.91189851428380e-003
1.69369369369369e+005	1.31657473900681e-001,2.06563498207043e-001	1.73668505219864e-002,-4.13126996414085e-003
1.79279279279279e+005	1.37376831243890e-001,2.17331191768818e-001	1.72524633751222e-002,-4.34662383537635e-003
1.89189189189189e+005	1.43355047256253e-001,2.27890018200640e-001	1.71328990548749e-002,-4.55780036401281e-003
1.99099099099099e+005	1.49582366294336e-001,2.38232535395533e-001	1.70083526741133e-002,-4.76465070791065e-003
2.09009009009009e+005	1.56048806933221e-001,2.48351854183048e-001	1.68790238613356e-002,-4.96703708366095e-003
2.18918918918919e+005	1.62744198115514e-001,2.58241642477742e-001	1.67451160376897e-002,-5.16483284955484e-003
2.28828828828829e+005	1.69658214852345e-001,2.67896126815242e-001	1.66068357029531e-002,-5.35792253630484e-003
2.38738738738739e+005	1.76780413276576e-001,2.77310091376804e-001	1.64643917344685e-002,-5.54620182753608e-003
2.48648648648649e+005	1.84100264863326e-001,2.86478874618567e-001	1.63179947027335e-002,-5.72957749237134e-003
2.58558558558559e+005	1.91607189648975e-001,2.95398363634985e-001	1.61678562070205e-002,-5.90796727269970e-003
2.68468468468468e+005	1.99290588296656e-001,3.04064986397157e-001	1.60141882340669e-002,-6.08129972794314e-003
2.78378378378378e+005	2.07139872873674e-001,3.12475702015916e-001	1.58572025425265e-002,-6.24951404031832e-003
2.88288288288288e+005	2.15144496223990e-001,3.20627989186597e-001	1.56971100755202e-002,-6.41255978373193e-003
2.98198198198198e+005	2.23293979836689e-001,3.28519832977450e-001	1.55341204032662e-002,-6.57039665954900e-003
3.08108108108108e+005	2.31577940128889e-001,3.36149710126780e-001	1.53684411974222e-002,-6.72299420253559e-003
3.18018018018018e+005	2.39986113078777e-001,3.43516573015128e-001	1.52002777384245e-002,-6.87033146030256e-003
3.27927927927928e+005	2.48508377161052e-001,3.50619832478391e-001	1.50298324567790e-002,-7.01239664956782e-003
3.37837837837838e+005	2.57134774552966e-001,3.57459339625713e-001	1.48573045089407e-002,-7.14918679251427e-003
3.47747747747748e+005	2.65855530594170e-001,3.64035366822568e-001	1.46828893881166e-002,-7.28070733645136e-003
3.57657657657657e+005	2.74661071497652e-001,3.70348587994681e-001	1.45067785700470e-002,-7.40697175989362e-003
3.67567567567567e+005	2.83542040322066e-001,3.76400058402658e-001	1.43291591935587e-002,-7.52800116805316e-003
3.77477477477477e+005	2.92489311227622e-001,3.82191194030390e-001	1.41502137754476e-002,-7.64382388060779e-003
3.87387387387387e+005	3.01494002048477e-001,3.87723750722754e-001	1.39701199590305e-002,-7.75447501445507e-003
3.97297297297297e+005	3.10547485224117e-001,3.92999803199957e-001	1.37890502955177e-002,-7.85999606399914e-003
4.07207207207207e+005	3.19641397140600e-001,3.98021724067213e-001	1.36071720571880e-002,-7.96043448134425e-003
4.17117117117117e+005	3.28767645939772e-001,4.02792162929442e-001	1.34246470812046e-002,-8.05584325858883e-003
4.27027027027027e+005	3.37918417860633e-001,4.07314025711502e-001	1.32416316427873e-002,-8.14628051423003e-003
4.36936936936936e+005	3.47086182182070e-001,4.11590454275158e-001	1.30582763563586e-002,-8.23180908550316e-003
4.46846846846846e+005	3.56263694840073e-001,4.15624806414766e-001	1.28747261031985e-002,-8.31249612829532e-003
4.56756756756756e+005	3.65444000795587e-001,4.19420636304483e-001	1.26911199840883e-002,-8.38841272608967e-003
4.66666666666666e+005	3.74620435231160e-001,4.22981675460917e-001	1.25075912953768e-002,-8.45963350921835e-003
4.76576576576576e+005	3.83786623655805e-001,4.26311814276451e-001	1.23242675268839e-002,-8.52623628552902e-003
4.86486486486486e+005	3.92936480997901e-001,4.29415084170190e-001	1.21412703800420e-002,-8.58830168340381e-003
4.96396396396396e+005	4.02064209765728e-001,4.32295640395548e-001	1.19587158046854e-002,-8.64591280791095e-003
5.06306306306306e+005	4.11164297354342e-001,4.34957745535998e-001	1.17767140529132e-002,-8.69915491071996e-003
5.16216216216216e+005	4.20231512576078e-001,4.37405753713508e-001	1.15953697484784e-002,-8.74811507427016e-003
5.26126126126125e+005	4.29260901490058e-001,4.39644095527589e-001	1.14147819701988e-002,-8.79288191055177e-003
5.36036036036035e+005	4.38247782603793e-001,4.41677263736882e-001	1.12350443479241e-002,-8.83354527473764e-003
5.45945945945945e+005	4.47187741517289e-001,4.43509799689614e-001	1.10562451696542e-002,-8.87019599379227e-003
5.55855855855855e+005	4.56076625077190e-001,4.45146280504207e-001	1.08784674984562e-002,-8.90292561008414e-003
5.65765765765765e+005	4.64910535105288e-001,4.46591306996775e-001	1.07017892978942e-002,-8.93182613993550e-003
5.75675675675675e+005	4.73685821762458e-001,4.47849492348118e-001	1.05262835647508e-002,-8.95698984696236e-003
5.85585585585585e+005	4.82399076605654e-001,4.48925451499236e-001	1.03520184678869e-002,-8.97850902998473e-003
5.95495495495495e+005	4.91047125392045e-001,4.49823791261180e-001	1.01790574921591e-002,-8.99647582522360e-003
6.05405405405405e+005	4.99627020680907e-001,4.50549101122308e-001	1.00074595863819e-002,-9.01098202244615e-003
6.15315315315315e+005	5.08136034280297e-001,4.51105944733657e-001	9.83727931439406e-003,-9.02211889467313e-003
6.25225225225225e+005	5.16571649582067e-001,4.51498852051161e-001	9.66856700835865e-003,-9.02997704102322e-003
6.35135135135135e+005	5.24931553825309e-001,4.51732312111801e-001	9.50136892349383e-003,-9.03464624223601e-003
6.45045045045045e+005	5.33213630324988e-001,4.51810766419466e-001	9.33572739350025e-003,-9.03621532838933e-003
6.54954954954955e+005	5.41415950699249e-001,4.51738602915305e-001	9.17168098601501e-003,-9.03477205830609e-003
6.64864864864865e+005	5.49536767125734e-001,4.51520150506559e-001	9.00926465748533e-003,-9.03040301013118e-003
6.74774774774775e+005	5.57574504654235e-001,4.51159674127428e-001	8.84850990691529e-003,-9.02319348254856e-003
6.84684684684685e+005	5.65527753600165e-001,4.50661370305172e-001	8.68944492799669e-003,-9.01322740610344e-003
6.94594594594594e+005	5.73395262040534e-001,4.50029363204622e-001	8.53209475918933e-003,-9.00058726409245e-003
7.04504504504504e+005	5.81175928431607e-001,4.49267701124329e-001	8.37648143136786e-003,-8.98535402248659e-003
7.14414414414414e+005	5.88868794364949e-001,4.48380353417822e-001	8.22262411270101e-003,-8.96760706835645e-003
7.24324324324324e+005	5.96473037476305e-001,4.47371207813832e-001	8.07053925047389e-003,-8.94742415627665e-003
7.34234234234234e+005	6.03987964519636e-001,4.46244068109802e-001	7.92024070960728e-003,-8.92488136219604e-003
7.44144144144144e+005	6.11413004616666e-001,4.45002652213590e-001	7.77173990766667e-003,-8.90005304427180e-003
7.54054054054054e+005	6.18747702690479e-001,4.43650590508924e-001	7.62504594619042e-003,-8.87301181017847e-003
7.63963963963964e+005	6.25991713089995e-001,4.42191424520884e-001	7.48016573820010e-003,-8.84382849041769e-003
7.73873873873874e+005	6.33144793410660e-001,4.40628605858460e-001	7.33710413178681e-003,-8.81257211716920e-003
7.83783783783784e+005	6.40206798515223e-001,4.38965495412016e-001	7.19586402969554e-003,-8.77930990824032e-003
7.93693693693694e+005	6.47177674757245e-001,4.37205362784362e-001	7.05644650485509e-003,-8.74410725568724e-003
8.03603603603604e+005	6.54057454408768e-001,4.35351385934922e-001	6.91885091182463e-003,-8.70702771869845e-003
8.13513513513514e+005	6.60846250292573e-001,4.33406651017393e-001	6.78307499414855e-003,-8.66813302034786e-003
8.23423423423424e+005	6.67544250618483e-001,4.31374152392087e-001	6.64911498763033e-003,-8.62748304784174e-003
8.33333333333334e+005	6.74151714022352e-001,4.29256792795028e-001	6.51696571955296e-003,-8.58513585590056e-003
8.43243243243244e+005	6.80668964805597e-001,4.27057383646661e-001	6.38662070388807e-003,-8.54114767293322e-003
8.53153153153153e+005	6.87096388372522e-001,4.24778645483847e-001	6.25807223254957e-003,-8.49557290967694e-003
8.63063063063063e+005	6.93434426862063e-001,4.22423208499589e-001	6.13131146275875e-003,-8.44846416999179e-003
8.72972972972973e+005	6.99683574970087e-001,4.19993613175659e-001	6.00632850059826e-003,-8.39987226351319e-003
8.82882882882883e+005	7.05844375957961e-001,4.17492310994012e-001	5.88311248084078e-003,-8.34984621988023e-003
8.92792792792793e+005	7.11917417842695e-001,4.14921665213514e-001	5.76165164314610e-003,-8.29843330427027e-003
9.02702702702703e+005	7.17903329763685e-001,4.12283951699161e-001	5.64193340472630e-003,-8.24567903398321e-003
9.12612612612613e+005	7.23802778520765e-001,4.09581359791487e-001	5.52394442958470e-003,-8.19162719582973e-003
9.22522522522523e+005	7.29616465278098e-001,4.06815993204426e-001	5.40767069443804e-003,-8.13631986408853e-003
9.32432432432433e+005	7.35345122428203e-001,4.03989870940325e-001	5.29309755143593e-003,-8.07979741880651e-003
9.42342342342343e+005	7.40989510610305e-001,4.01104928211222e-001	5.18020978779390e-003,-8.02209856422443e-003
9.52252252252253e+005	7.46550415877027e-001,3.98163017355858e-001	5.06899168245945e-003,-7.96326034711715e-003
9.62162162162163e+005	7.52028647003383e-001,3.95165908742168e-001	4.95942705993235e-003,-7.90331817484336e-003
9.72072072072073e+005	7.57425032931914e-001,3.92115291645206e-001	4.85149934136172e-003,-7.84230583290411e-003
9.81981981981983e+005	7.62740420347773e-001,3.89012775090612e-001	4.74519159304454e-003,-7.78025550181224e-003
9.91891891891893e+005	7.67975671377469e-001,3.85859888653793e-001	4.64048657245062e-003,-7.71719777307587e-003
1.00180180180180e+006	7.73131661404968e-001,3.82658083204964e-001	4.53736677190064e-003,-7.65316166409928e-003
1.01171171171171e+006	7.78209276998763e-001,3.79408731590087e-001	4.43581446002475e-003,-7.58817463180175e-003
1.02162162162162e+006	7.83209413943469e-001,3.76113129237554e-001	4.33581172113062e-003,-7.52226258475107e-003
1.03153153153153e+006	7.88132975369454e-001,3.72772494680114e-001	4.23734049261092e-003,-7.45544989360228e-003
1.04144144144144e+006	7.92980869973874e-001,3.69387969981143e-001	4.14038260052252e-003,-7.38775939962286e-003
1.05135135135135e+006	7.97754010326421e-001,3.65960621053753e-001	4.04491979347158e-003,-7.31921242107506e-003
1.06126126126126e+006	8.02453311252912e-001,3.62491437860544e-001	3.95093377494176e-003,-7.24982875721087e-003
1.07117117117117e+006	8.07079688289659e-001,3.58981334480901e-001	3.85840623420682e-003,-7.17962668961801e-003
1.08108108108108e+006	8.11634056201336e-001,3.55431149031671e-001	3.76731887597328e-003,-7.10862298063343e-003
1.09099099099099e+006	8.16117327554734e-001,3.51841643425748e-001	3.67765344890531e-003,-7.03683286851496e-003
1.10090090090090e+006	8.20530411340433e-001,3.48213502951549e-001	3.58939177319133e-003,-6.96427005903098e-003
1.11081081081081e+006	8.24874211633919e-001,3.44547335654552e-001	3.50251576732163e-003,-6.89094671309104e-003
1.12072072072072e+006	8.29149626287091e-001,3.40843671499849e-001	3.41700747425818e-003,-6.81687342999698e-003
1.13063063063063e+006	8.33357545640380e-001,3.37102961292150e-001	3.33284908719240e-003,-6.74205922584300e-003
1.14054054054054e+006	8.37498851244751e-001,3.33325575326611e-001	3.25002297510499e-003,-6.66651150653223e-003
1.15045045045045e+006	8.41574414581785e-001,3.29511801740318e-001	3.16851170836430e-003,-6.59023603480635e-003
1.16036036036036e+006	8.45585095768626e-001,3.25661844530016e-001	3.08829808462747e-003,-6.51323689060033e-003
1.17027027027027e+006	8.49531742232879e-001,3.21775821196734e-001	3.00936515534242e-003,-6.43551642393468e-003
1.18018018018018e+006	8.53415187340457e-001,3.17853759972004e-001	2.93169625319085e-003,-6.35707519944008e-003
1.19009009009009e+006	8.57236248956788e-001,3.13895596573449e-001	2.85527502086425e-003,-6.27791193146897e-003
1.20000000000000e+006	8.60995727918564e-001,3.09901170429117e-001	2.78008544162872e-003,-6.19802340858233e-003
1.20990990990991e+006	8.64694406389289e-001,3.05870220300075e-001	2.70611187221422e-003,-6.11740440600151e-003
1.21981981981982e+006	8.68333046066889e-001,3.01802379218851e-001	2.63333907866222e-003,-6.03604758437702e-003
1.22972972972973e+006	8.71912386205532e-001,2.97697168647039e-001	2.56175227588935e-003,-5.95394337294078e-003
1.23963963963964e+006	8.75433141406032e-001,2.93553991738193e-001	2.49133717187936e-003,-5.87107983476386e-003
1.24954954954955e+006	8.78895999119490e-001,2.89372125571236e-001	2.42208001761019e-003,-5.78744251142472e-003
1.25945945945946e+006	8.82301616796503e-001,2.85150712194305e-001	2.35396766406993e-003,-5.70301424388611e-003
1.26936936936937e+006	8.85650618598554e-001,2.80888748287944e-001	2.28698762802892e-003,-5.61777496575887e-003
1.27927927927928e+006	8.88943591568135e-001,2.76585073218539e-001	2.22112816863731e-003,-5.53170146437078e-003
1.28918918918919e+006	8.92181081128250e-001,2.72238355205987e-001	2.15637837743500e-003,-5.44476710411973e-003
1.29909909909910e+006	8.95363585748379e-001,2.67847075271348e-001	2.09272828503242e-003,-5.35694150542695e-003
1.30900900900901e+006	8.98491550570120e-001,2.63409508557701e-001	2.03016898859761e-003,-5.26819017115403e-003
1.31891891891892e+006	9.01565359727993e-001,2.58923702526295e-001	1.96869280544015e-003,-5.17847405052590e-003
1.32882882882883e+006	9.04585327024262e-001,2.54387451415174e-001	1.90829345951476e-003,-5.08774902830348e-003
1.33873873873874e+006	9.07551684514041e-001,2.49798266201482e-001	1.84896630971918e-003,-4.99596532402965e-003
1.34864864864865e+006	9.10464568418374e-001,2.45153339122006e-001	1.79070863163251e-003,-4.90306678244012e-003
1.35855855855856e+006	9.13324001593904e-001,2.40449501566380e-001	1.73351996812192e-003,-4.80899003132760e-003
1.36846846846847e+006	9.16129871527053e-001,2.35683173846194e-001	1.67740256945893e-003,-4.71366347692389e-003
1.37837837837838e+006	9.18881902457263e-001,2.30850304937207e-001	1.62236195085474e-003,-4.61700609874415e-003
1.38828828828829e+006	9.21579619721137e-001,2.25946299758386e-001	1.56840760557726e-003,-4.51892599516772e-003
1.39819819819820e+006	9.24222303676778e-001,2.20965930845726e-001	1.51555392646444e-003,-4.41931861691451e-003
1.40810810810811e+006	9.26808929506459e-001,2.15903230339072e-001	1.46382140987082e-003,-4.31806460678144e-003
1.41801801801802e+006	9.29338087635934e-001,2.10751356941730e-001	1.41323824728131e-003,-4.21502713883459e-003
1.42792792792793e+006	9.31807877179429e-001,2.05502430819965e-001	1.36384245641143e-003,-4.11004861639930e-003
1.43783783783784e+006	9.34215761281539e-001,2.00147327128261e-001	1.31568477436921e-003,-4.00294654256522e-003
1.44774774774775e+006	9.36558367755114e-001,1.94675415778163e-001	1.26883264489771e-003,-3.89350831556326e-003
1.45765765765766e+006	9.38831209782225e-001,1.89074230982582e-001	1.22337580435550e-003,-3.78148461965163e-003
1.46756756756756e+006	9.41028287540112e-001,1.83329048796760e-001	1.17943424919777e-003,-3.66658097593520e-003
1.47747747747747e+006	9.43141508706818e-001,1.77422344352267e-001	1.13716982586363e-003,-3.54844688704533e-003
1.48738738738738e+006	9.45159827164547e-001,1.71333093527028e-001	1.09680345670907e-003,-3.42666187054056e-003
1.49729729729729e+006	9.47067932451643e-001,1.65035879523157e-001	1.05864135096714e-003,-3.30071759046314e-003
1.50720720720720e+006	9.48844204351910e-001,1.58499772928515e-001	1.02311591296179e-003,-3.16999545857030e-003
1.51711711711711e+006	9.50457433448504e-001,1.51687002397992e-001	9.90851331029921e-004,-3.03374004795985e-003
1.52702702702702e+006	9.51861417496407e-001,1.44551601878182e-001	9.62771650071852e-004,-2.89103203756365e-003
1.53693693693693e+006	9.52985833627276e-001,1.37038736500279e-001	9.40283327454479e-004,-2.74077473000557e-003
1.54684684684684e+006	9.53720581621104e-001,1.29086924329896e-001	9.25588367577921e-004,-2.58173848659792e-003
1.55675675675675e+006	9.53889272486172e-001,1.20639731449219e-001	9.22214550276566e-004,-2.41279462898439e-003
1.56666666666666e+006	9.53208636053193e-001,1.11685518264039e-001	9.35827278936134e-004,-2.23371036528078e-003
1.57657657657657e+006	9.51251496634786e-001,1.02371496164912e-001	9.74970067304273e-004,-2.04742992329825e-003
1.58648648648648e+006	9.47538469235857e-001,9.32589060658422e-002	1.04923061528286e-003,-1.86517812131684e-003
1.59639639639639e+006	9.42139783780938e-001,8.55256615822998e-002	1.15720432438125e-003,-1.71051323164600e-003
1.60630630630630e+006	9.36601380324821e-001,7.98870932822381e-002	1.26797239350357e-003,-1.59774186564476e-003
1.61621621621621e+006	9.32118101584062e-001,7.45514205901616e-002	1.35763796831876e-003,-1.49102841180323e-003
1.62612612612612e+006	9.26388377859940e-001,6.80215738333086e-002	1.47223244280120e-003,-1.36043147666617e-003
1.63603603603603e+006	9.16768221836022e-001,6.30125722726864e-002	1.66463556327955e-003,-1.26025144545373e-003
1.64594594594594e+006	9.05097160998067e-001,6.46760293969666e-002	1.89805678003866e-003,-1.29352058793933e-003
1.65585585585585e+006	8.99194387031688e-001,7.41479202559438e-002	2.01611225936624e-003,-1.48295840511888e-003
1.66576576576576e+006	9.04211876065073e-001,8.30593187613724e-002	1.91576247869853e-003,-1.66118637522745e-003
1.67567567567567e+006	9.14638367137552e-001,8.36776999300356e-002	1.70723265724896e-003,-1.67355399860071e-003
1.68558558558558e+006	9.23343490497620e-001,7.66902158714936e-002	1.53313019004761e-003,-1.53380431742987e-003
1.69549549549549e+006	9.27414125043611e-001,6.57610797741627e-002	1.45171749912778e-003,-1.31522159548325e-003
1.70540540540540e+006	9.26289065435177e-001,5.41455230954608e-002	1.47421869129646e-003,-1.08291046190922e-003
1.71531531531531e+006	9.20747935010842e-001,4.51164919294575e-002	1.58504129978315e-003,-9.02329838589151e-004
1.72522522522522e+006	9.14435916367625e-001,4.13721894420230e-002	1.71128167264751e-003,-8.27443788840459e-004
1.73513513513513e+006	9.12909753143086e-001,4.06050216150652e-002	1.74180493713827e-003,-8.12100432301303e-004
1.74504504504504e+006	9.16055731672899e-001,3.60720386806300e-002	1.67888536654203e-003,-7.21440773612600e-004
1.75495495495495e+006	9.18280731795214e-001,2.53951115153817e-002	1.63438536409572e-003,-5.07902230307634e-004
1.76486486486486e+006	9.15618861449721e-001,1.07999399627104e-002	1.68762277100557e-003,-2.15998799254208e-004
1.77477477477477e+006	9.06333238443658e-001,-4.89677627291824e-003	1.87333523112683e-003,9.79355254583647e-005
1.78468468468468e+006	8.89122552870138e-001,-1.85185830599126e-002	2.21754894259725e-003,3.70371661198252e-004
1.79459459459459e+006	8.63606122524669e-001,-2.47886545716816e-002	2.72787754950661e-003,4.95773091433632e-004
1.80450450450450e+006	8.34116100822023e-001,-1.60434616973716e-002	3.31767798355954e-003,3.20869233947431e-004
1.81441441441441e+006	8.14056896484667e-001,1.11676823306052e-002	3.71886207030667e-003,-2.23353646612104e-004
1.82432432432432e+006	8.17467934723097e-001,4.44506276306222e-002	3.65064130553805e-003,-8.89012552612445e-004
1.83423423423423e+006	8.40084163463797e-001,6.39542636446619e-002	3.19831673072406e-003,-1.27908527289324e-003
1.84414414414414e+006	8.65507162181464e-001,6.40289798395309e-002	2.68985675637071e-003,-1.28057959679062e-003
1.85405405405405e+006	8.83321144653201e-001,5.11101815756940e-002	2.33357710693598e-003,-1.02220363151388e-003
1.86396396396396e+006	8.90881996875724e-001,3.26130954781569e-002	2.18236006248552e-003,-6.52261909563137e-004
