Freq.	V(1|1|1|a)	I(R129)
1.00000000000000e+005	1.68981669319726e-002,7.77421849538047e-002	1.96620366613606e-002,-1.55484369907609e-003
1.09909909909910e+005	1.81783617878516e-002,8.53608015800210e-002	1.96364327642430e-002,-1.70721603160042e-003
1.19819819819820e+005	1.95773980069277e-002,9.29553151412475e-002	1.96084520398614e-002,-1.85910630282495e-003
1.29729729729730e+005	2.10947300564540e-002,1.00523612416574e-001	1.95781053988709e-002,-2.01047224833148e-003
1.39639639639640e+005	2.27297674883793e-002,1.08063595498438e-001	1.95454046502324e-002,-2.16127190996875e-003
1.49549549549550e+005	2.44818754622954e-002,1.15573182970169e-001	1.95103624907541e-002,-2.31146365940338e-003
1.59459459459459e+005	2.63503753057837e-002,1.23050311062917e-001	1.94729924938843e-002,-2.46100622125834e-003
1.69369369369369e+005	2.83345451112505e-002,1.30492934790590e-001	1.94333090977750e-002,-2.60985869581180e-003
1.79279279279279e+005	3.04336203682810e-002,1.37899029061501e-001	1.93913275926344e-002,-2.75798058123002e-003
1.89189189189189e+005	3.26467946304965e-002,1.45266589765451e-001	1.93470641073901e-002,-2.90533179530903e-003
1.99099099099099e+005	3.49732202158430e-002,1.52593634835031e-001	1.93005355956831e-002,-3.05187269670061e-003
2.09009009009009e+005	3.74120089391987e-002,1.59878205279976e-001	1.92517598212160e-002,-3.19756410559952e-003
2.18918918918919e+005	3.99622328761388e-002,1.67118366193473e-001	1.92007553424772e-002,-3.34236732386947e-003
2.28828828828829e+005	4.26229251566598e-002,1.74312207729350e-001	1.91475414968668e-002,-3.48624415458700e-003
2.38738738738739e+005	4.53930807876230e-002,1.81457846049157e-001	1.90921383842475e-002,-3.62915692098314e-003
2.48648648648649e+005	4.82716575026460e-002,1.88553424238209e-001	1.90345668499471e-002,-3.77106848476418e-003
2.58558558558559e+005	5.12575766381353e-002,1.95597113189697e-001	1.89748484672373e-002,-3.91194226379395e-003
2.68468468468468e+005	5.43497240341290e-002,2.02587112456060e-001	1.89130055193174e-002,-4.05174224912121e-003
2.78378378378378e+005	5.75469509585873e-002,2.09521651066859e-001	1.88490609808283e-002,-4.19043302133719e-003
2.88288288288288e+005	6.08480750537530e-002,2.16398988312463e-001	1.87830384989249e-002,-4.32797976624926e-003
2.98198198198198e+005	6.42518813031786e-002,2.23217414492914e-001	1.87149623739364e-002,-4.46434828985828e-003
3.08108108108108e+005	6.77571230180061e-002,2.29975251631414e-001	1.86448575396399e-002,-4.59950503262828e-003
3.18018018018018e+005	7.13625228410694e-002,2.36670854151924e-001	1.85727495431786e-002,-4.73341708303849e-003
3.27927927927928e+005	7.50667737673822e-002,2.43302609520440e-001	1.84986645246524e-002,-4.86605219040881e-003
3.37837837837838e+005	7.88685401795670e-002,2.49868938849578e-001	1.84226291964087e-002,-4.99737877699156e-003
3.47747747747748e+005	8.27664588967772e-002,2.56368297466149e-001	1.83446708220645e-002,-5.12736594932297e-003
3.57657657657657e+005	8.67591402356666e-002,2.62799175441489e-001	1.82648171952867e-002,-5.25598350882977e-003
3.67567567567567e+005	9.08451690819613e-002,2.69160098084347e-001	1.81830966183608e-002,-5.38320196168693e-003
3.77477477477477e+005	9.50231059711958e-002,2.75449626396215e-001	1.80995378805761e-002,-5.50899252792430e-003
3.87387387387387e+005	9.92914881771859e-002,2.81666357489038e-001	1.80141702364563e-002,-5.63332714978076e-003
3.97297297297297e+005	1.03648830806819e-001,2.87808924965297e-001	1.79270233838636e-002,-5.75617849930593e-003
4.07207207207207e+005	1.08093627899761e-001,2.93875999260521e-001	1.78381274420048e-002,-5.87751998521043e-003
4.17117117117117e+005	1.12624353531697e-001,2.99866287948351e-001	1.77475129293661e-002,-5.99732575896703e-003
4.27027027027027e+005	1.17239462919732e-001,3.05778536008301e-001	1.76552107416054e-002,-6.11557072016602e-003
4.36936936936936e+005	1.21937393528618e-001,3.11611526056459e-001	1.75612521294276e-002,-6.23223052112918e-003
4.46846846846846e+005	1.26716566176486e-001,3.17364078539397e-001	1.74656686764703e-002,-6.34728157078793e-003
4.56756756756756e+005	1.31575386138785e-001,3.23035051891597e-001	1.73684922772243e-002,-6.46070103783195e-003
4.66666666666666e+005	1.36512244249177e-001,3.28623342656796e-001	1.72697551150165e-002,-6.57246685313593e-003
4.76576576576576e+005	1.41525517996143e-001,3.34127885573634e-001	1.71694896400771e-002,-6.68255771147267e-003
4.86486486486486e+005	1.46613572614115e-001,3.39547653626092e-001	1.70677285477177e-002,-6.79095307252185e-003
4.96396396396396e+005	1.51774762167956e-001,3.44881658059224e-001	1.69645047566409e-002,-6.89763316118448e-003
5.06306306306306e+005	1.57007430629670e-001,3.50128948360705e-001	1.68598513874066e-002,-7.00257896721410e-003
5.16216216216216e+005	1.62309912946248e-001,3.55288612208806e-001	1.67538017410750e-002,-7.10577224417612e-003
5.26126126126125e+005	1.67680536097602e-001,3.60359775387397e-001	1.66463892780480e-002,-7.20719550774795e-003
5.36036036036035e+005	1.73117620143569e-001,3.65341601668628e-001	1.65376475971286e-002,-7.30683203337256e-003
5.45945945945945e+005	1.78619479259026e-001,3.70233292663975e-001	1.64276104148195e-002,-7.40466585327951e-003
5.55855855855855e+005	1.84184422756187e-001,3.75034087644361e-001	1.63163115448763e-002,-7.50068175288721e-003
5.65765765765765e+005	1.89810756093187e-001,3.79743263330071e-001	1.62037848781363e-002,-7.59486526660143e-003
5.75675675675675e+005	1.95496781868143e-001,3.84360133651246e-001	1.60900643626371e-002,-7.68720267302491e-003
5.85585585585585e+005	2.01240800797865e-001,3.88884049479697e-001	1.59751839840427e-002,-7.77768098959393e-003
5.95495495495495e+005	2.07041112680501e-001,3.93314398332873e-001	1.58591777463900e-002,-7.86628796665745e-003
6.05405405405405e+005	2.12896017341387e-001,3.97650604050763e-001	1.57420796531723e-002,-7.95301208101527e-003
6.15315315315315e+005	2.18803815561470e-001,4.01892126446577e-001	1.56239236887706e-002,-8.03784252893153e-003
6.25225225225225e+005	2.24762809987683e-001,4.06038460932021e-001	1.55047438002463e-002,-8.12076921864041e-003
6.35135135135135e+005	2.30771306024719e-001,4.10089138118032e-001	1.53845738795056e-002,-8.20178276236064e-003
6.45045045045045e+005	2.36827612707680e-001,4.14043723391799e-001	1.52634477458464e-002,-8.28087446783598e-003
6.54954954954955e+005	2.42930043555143e-001,4.17901816470930e-001	1.51413991288971e-002,-8.35803632941860e-003
6.64864864864865e+005	2.49076917402230e-001,4.21663050935616e-001	1.50184616519554e-002,-8.43326101871231e-003
6.74774774774775e+005	2.55266559213287e-001,4.25327093739634e-001	1.48946688157343e-002,-8.50654187479269e-003
6.84684684684685e+005	2.61497300873875e-001,4.28893644701050e-001	1.47700539825225e-002,-8.57787289402099e-003
6.94594594594594e+005	2.67767481961769e-001,4.32362435973425e-001	1.46446503607646e-002,-8.64724871946850e-003
7.04504504504504e+005	2.74075450496756e-001,4.35733231498397e-001	1.45184909900649e-002,-8.71466462996795e-003
7.14414414414414e+005	2.80419563669026e-001,4.39005826440409e-001	1.43916087266195e-002,-8.78011652880817e-003
7.24324324324324e+005	2.86798188546029e-001,4.42180046604411e-001	1.42640362290794e-002,-8.84360093208822e-003
7.34234234234234e+005	2.93209702757702e-001,4.45255747837316e-001	1.41358059448459e-002,-8.90511495674632e-003
7.44144144144144e+005	2.99652495160016e-001,4.48232815413964e-001	1.40069500967997e-002,-8.96465630827928e-003
7.54054054054054e+005	3.06124966476833e-001,4.51111163408338e-001	1.38775006704633e-002,-9.02222326816676e-003
7.63963963963964e+005	3.12625529920140e-001,4.53890734050760e-001	1.37474894015972e-002,-9.07781468101521e-003
7.73873873873874e+005	3.19152611788706e-001,4.56571497071742e-001	1.36169477642259e-002,-9.13142994143485e-003
7.83783783783784e+005	3.25704652045341e-001,4.59153449033158e-001	1.34859069590932e-002,-9.18306898066315e-003
7.93693693693694e+005	3.32280104872898e-001,4.61636612647358e-001	1.33543979025420e-002,-9.23273225294715e-003
8.03603603603604e+005	3.38877439209254e-001,4.64021036084829e-001	1.32224512158149e-002,-9.28042072169659e-003
8.13513513513514e+005	3.45495139261542e-001,4.66306792270935e-001	1.30900972147692e-002,-9.32613584541869e-003
8.23423423423424e+005	3.52131704999944e-001,4.68493978172248e-001	1.29573659000011e-002,-9.36987956344497e-003
8.33333333333334e+005	3.58785652631394e-001,4.70582714072957e-001	1.28242869473721e-002,-9.41165428145914e-003
8.43243243243244e+005	3.65455515053621e-001,4.72573142841728e-001	1.26908896989276e-002,-9.45146285683456e-003
8.53153153153153e+005	3.72139842289966e-001,4.74465429189416e-001	1.25572031542007e-002,-9.48930858378833e-003
8.63063063063063e+005	3.78837201905491e-001,4.76259758917906e-001	1.24232559618902e-002,-9.52519517835813e-003
8.72972972972973e+005	3.85546179404933e-001,4.77956338160330e-001	1.22890764119013e-002,-9.55912676320660e-003
8.82882882882883e+005	3.92265378613111e-001,4.79555392612840e-001	1.21546924277378e-002,-9.59110785225679e-003
8.92792792792793e+005	3.98993422038458e-001,4.81057166758025e-001	1.20201315592308e-002,-9.62114333516049e-003
9.02702702702703e+005	4.05728951220400e-001,4.82461923080010e-001	1.18854209755920e-002,-9.64923846160019e-003
9.12612612612613e+005	4.12470627061372e-001,4.83769941271147e-001	1.17505874587726e-002,-9.67539882542294e-003
9.22522522522523e+005	4.19217130144322e-001,4.84981517430164e-001	1.16156573971136e-002,-9.69963034860328e-003
9.32432432432433e+005	4.25967161036639e-001,4.86096963251483e-001	1.14806567792672e-002,-9.72193926502967e-003
9.42342342342343e+005	4.32719440581504e-001,4.87116605205357e-001	1.13456111883699e-002,-9.74233210410715e-003
9.52252252252253e+005	4.39472710177756e-001,4.88040783708298e-001	1.12105457964449e-002,-9.76081567416597e-003
9.62162162162163e+005	4.46225732049465e-001,4.88869852283180e-001	1.10754853590107e-002,-9.77739704566360e-003
9.72072072072073e+005	4.52977289506484e-001,4.89604176708208e-001	1.09404542098703e-002,-9.79208353416417e-003
9.81981981981983e+005	4.59726187197407e-001,4.90244134153809e-001	1.08054762560519e-002,-9.80488268307619e-003
9.91891891891893e+005	4.66471251356431e-001,4.90790112306278e-001	1.06705749728714e-002,-9.81580224612557e-003
1.00180180180180e+006	4.73211330045826e-001,4.91242508476835e-001	1.05357733990835e-002,-9.82485016953671e-003
1.01171171171171e+006	4.79945293395827e-001,4.91601728694484e-001	1.04010941320835e-002,-9.83203457388968e-003
1.02162162162162e+006	4.86672033843967e-001,4.91868186780814e-001	1.02665593231207e-002,-9.83736373561627e-003
1.03153153153153e+006	4.93390466376077e-001,4.92042303404575e-001	1.01321906724785e-002,-9.84084606809151e-003
1.04144144144144e+006	5.00099528771410e-001,4.92124505113519e-001	9.99800942457180e-003,-9.84249010227039e-003
1.05135135135135e+006	5.06798181854602e-001,4.92115223340596e-001	9.86403636290796e-003,-9.84230446681192e-003
1.06126126126126e+006	5.13485409757524e-001,4.92014893381173e-001	9.73029180484952e-003,-9.84029786762345e-003
1.07117117117117e+006	5.20160220194390e-001,4.91823953337406e-001	9.59679559611220e-003,-9.83647906674813e-003
1.08108108108108e+006	5.26821644753930e-001,4.91542843025319e-001	9.46356710492140e-003,-9.83085686050638e-003
1.09099099099099e+006	5.33468739212895e-001,4.91172002839455e-001	9.33062521574209e-003,-9.82344005678910e-003
1.10090090090090e+006	5.40100583875707e-001,4.90711872569193e-001	9.19798832248586e-003,-9.81423745138385e-003
1.11081081081081e+006	5.46716283945717e-001,4.90162890159877e-001	9.06567432108565e-003,-9.80325780319754e-003
1.12072072072072e+006	5.53314969934274e-001,4.89525490410866e-001	8.93370060131451e-003,-9.79050980821732e-003
1.13063063063063e+006	5.59895798114684e-001,4.88800103601325e-001	8.80208403770633e-003,-9.77600207202650e-003
1.14054054054054e+006	5.66457951029165e-001,4.87987154033125e-001	8.67084097941671e-003,-9.75974308066250e-003
1.15045045045045e+006	5.73000638058133e-001,4.87087058478469e-001	8.53998723883733e-003,-9.74174116956937e-003
1.16036036036036e+006	5.79523096062556e-001,4.86100224517781e-001	8.40953807874888e-003,-9.72200449035562e-003
1.17027027027027e+006	5.86024590111839e-001,4.85027048750972e-001	8.27950819776321e-003,-9.70054097501943e-003
1.18018018018018e+006	5.92504414311738e-001,4.83867914862211e-001	8.14991171376524e-003,-9.67735829724422e-003
1.19009009009009e+006	5.98961892749178e-001,4.82623191514865e-001	8.02076214501644e-003,-9.65246383029731e-003
1.20000000000000e+006	6.05396380573808e-001,4.81293230048973e-001	7.89207238852383e-003,-9.62586460097946e-003
1.20990990990991e+006	6.11807265239582e-001,4.79878361948533e-001	7.76385469520837e-003,-9.59756723897067e-003
1.21981981981982e+006	6.18193967933882e-001,4.78378896039622e-001	7.63612064132237e-003,-9.56757792079244e-003
1.22972972972973e+006	6.24555945226852e-001,4.76795115372732e-001	7.50888109546295e-003,-9.53590230745464e-003
1.23963963963964e+006	6.30892690979825e-001,4.75127273733390e-001	7.38214618040351e-003,-9.50254547466780e-003
1.24954954954955e+006	6.37203738559385e-001,4.73375591713553e-001	7.25592522881229e-003,-9.46751183427106e-003
1.25945945945946e+006	6.43488663413048e-001,4.71540252261962e-001	7.13022673173904e-003,-9.43080504523923e-003
1.26936936936937e+006	6.49747086074116e-001,4.69621395613774e-001	7.00505827851768e-003,-9.39242791227548e-003
1.27927927927928e+006	6.55978675677799e-001,4.67619113477358e-001	6.88042648644402e-003,-9.35238226954717e-003
1.28918918918919e+006	6.62183154088711e-001,4.65533442327803e-001	6.75633691822577e-003,-9.31066884655606e-003
1.29909909909910e+006	6.68360300762607e-001,4.63364355620648e-001	6.63279398474785e-003,-9.26728711241295e-003
1.30900900900901e+006	6.74509958493948e-001,4.61111754693232e-001	6.50980083012104e-003,-9.22223509386463e-003
1.31891891891892e+006	6.80632040237470e-001,4.58775458061470e-001	6.38735919525060e-003,-9.17550916122940e-003
1.32882882882883e+006	6.86726537238816e-001,4.56355188742483e-001	6.26546925522367e-003,-9.12710377484967e-003
1.33873873873874e+006	6.92793528769804e-001,4.53850559131939e-001	6.14412942460391e-003,-9.07701118263879e-003
1.34864864864865e+006	6.98833193842636e-001,4.51261052830614e-001	6.02333612314728e-003,-9.02522105661228e-003
1.35855855855856e+006	7.04845825380568e-001,4.48586002635180e-001	5.90308349238863e-003,-8.97172005270359e-003
1.36846846846847e+006	7.10831847459109e-001,4.45824563665977e-001	5.78336305081782e-003,-8.91649127331953e-003
1.37837837837838e+006	7.16791836413995e-001,4.42975680273927e-001	5.66416327172011e-003,-8.85951360547854e-003
1.38828828828829e+006	7.22726546857804e-001,4.40038044912322e-001	5.54546906284392e-003,-8.80076089824644e-003
1.39819819819820e+006	7.28636943981400e-001,4.37010046520808e-001	5.42726112037200e-003,-8.74020093041617e-003
1.40810810810811e+006	7.34524243976765e-001,4.33889705063726e-001	5.30951512046470e-003,-8.67779410127452e-003
1.41801801801802e+006	7.40389965058935e-001,4.30674587561904e-001	5.19220069882131e-003,-8.61349175123808e-003
1.42792792792793e+006	7.46235992469097e-001,4.27361699050330e-001	5.07528015061807e-003,-8.54723398100661e-003
1.43783783783784e+006	7.52064662133340e-001,4.23947339053429e-001	4.95870675733320e-003,-8.47894678106858e-003
1.44774774774775e+006	7.57878869524832e-001,4.20426909852946e-001	4.84242260950335e-003,-8.40853819705893e-003
1.45765765765766e+006	7.63682213032724e-001,4.16794656118347e-001	4.72635573934551e-003,-8.33589312236694e-003
1.46756756756756e+006	7.69479185256959e-001,4.13043304798020e-001	4.61041629486082e-003,-8.26086609596039e-003
1.47747747747747e+006	7.75275431892154e-001,4.09163556715459e-001	4.49449136215692e-003,-8.18327113430918e-003
1.48738738738738e+006	7.81078107479003e-001,4.05143351877021e-001	4.37843785041995e-003,-8.10286703754043e-003
1.49729729729729e+006	7.86896372299361e-001,4.00966779088704e-001	4.26207255401277e-003,-8.01933558177408e-003
1.50720720720720e+006	7.92742098254775e-001,3.96612407049065e-001	4.14515803490450e-003,-7.93224814098131e-003
1.51711711711711e+006	7.98630888355191e-001,3.92050636293724e-001	4.02738223289618e-003,-7.84101272587448e-003
1.52702702702702e+006	8.04583569505399e-001,3.87239314411953e-001	3.90832860989202e-003,-7.74478628823905e-003
1.53693693693693e+006	8.10628388406415e-001,3.82116093588784e-001	3.78743223187169e-003,-7.64232187177568e-003
1.54684684684684e+006	8.16804168672401e-001,3.76584249525429e-001	3.66391662655198e-003,-7.53168499050859e-003
1.55675675675675e+006	8.23164334406011e-001,3.70484238410746e-001	3.53671331187978e-003,-7.40968476821491e-003
1.56666666666666e+006	8.29779119346679e-001,3.63530755268037e-001	3.40441761306641e-003,-7.27061510536074e-003
1.57657657657657e+006	8.36717474941032e-001,3.55154865535904e-001	3.26565050117936e-003,-7.10309731071808e-003
1.58648648648648e+006	8.43882505579274e-001,3.44042387249125e-001	3.12234988841451e-003,-6.88084774498250e-003
1.59639639639639e+006	8.49627512418782e-001,3.26623691575113e-001	3.00744975162436e-003,-6.53247383150225e-003
1.60630630630630e+006	8.37640800167938e-001,2.97798345049858e-001	3.24718399664124e-003,-5.95596690099716e-003
1.61621621621621e+006	8.06952581696865e-001,3.20640095587186e-001	3.86094836606269e-003,-6.41280191174372e-003
1.62612612612612e+006	8.34726257340098e-001,3.26406853404908e-001	3.30547485319803e-003,-6.52813706809816e-003
1.63603603603603e+006	8.46543494162553e-001,2.98859409061212e-001	3.06913011674895e-003,-5.97718818122424e-003
1.64594594594594e+006	8.11739901568209e-001,2.59208084280890e-001	3.76520196863583e-003,-5.18416168561781e-003
1.65585585585585e+006	7.60483410226105e-001,3.22380994569923e-001	4.79033179547789e-003,-6.44761989139845e-003
1.66576576576576e+006	8.04856224632950e-001,3.52477969043047e-001	3.90287550734099e-003,-7.04955938086095e-003
1.67567567567567e+006	8.31791758124511e-001,3.47252744940184e-001	3.36416483750977e-003,-6.94505489880367e-003
1.68558558558558e+006	8.47846672944087e-001,3.37429774364429e-001	3.04306654111826e-003,-6.74859548728858e-003
1.69549549549549e+006	8.59210969525621e-001,3.25698977394364e-001	2.81578060948757e-003,-6.51397954788729e-003
1.70540540540540e+006	8.66517313035089e-001,3.09619244226757e-001	2.66965373929821e-003,-6.19238488453515e-003
1.71531531531531e+006	8.55601689267801e-001,2.86808425741268e-001	2.88796621464397e-003,-5.73616851482536e-003
1.72522522522522e+006	8.35097511229651e-001,3.11849600116580e-001	3.29804977540698e-003,-6.23699200233161e-003
1.73513513513513e+006	8.59168041661813e-001,3.20397292607960e-001	2.81663916676374e-003,-6.40794585215919e-003
1.74504504504504e+006	8.73550783615764e-001,3.13641576518736e-001	2.52898432768472e-003,-6.27283153037473e-003
1.75495495495495e+006	8.82794816130989e-001,3.05611765077627e-001	2.34410367738021e-003,-6.11223530155254e-003
1.76486486486486e+006	8.89381237441979e-001,2.97527048133206e-001	2.21237525116041e-003,-5.95054096266412e-003
1.77477477477477e+006	8.94448351639779e-001,2.91164008549109e-001	2.11103296720442e-003,-5.82328017098217e-003
1.78468468468468e+006	9.00823437245611e-001,2.84670264758095e-001	1.98353125508778e-003,-5.69340529516190e-003
1.79459459459459e+006	9.06505615977176e-001,2.77338662465025e-001	1.86988768045648e-003,-5.54677324930049e-003
1.80450450450450e+006	9.11693206453262e-001,2.69864467741913e-001	1.76613587093476e-003,-5.39728935483825e-003
1.81441441441441e+006	9.16607748437903e-001,2.62239032315947e-001	1.66784503124194e-003,-5.24478064631894e-003
1.82432432432432e+006	9.21343283623419e-001,2.54380736500487e-001	1.57313432753161e-003,-5.08761473000974e-003
1.83423423423423e+006	9.25949461255375e-001,2.46184636602540e-001	1.48101077489250e-003,-4.92369273205080e-003
1.84414414414414e+006	9.30453787492571e-001,2.37508187569907e-001	1.39092425014859e-003,-4.75016375139814e-003
1.85405405405405e+006	9.34862560316334e-001,2.28136958815863e-001	1.30274879367332e-003,-4.56273917631726e-003
1.86396396396396e+006	9.39140362772339e-001,2.17714178854615e-001	1.21719274455322e-003,-4.35428357709229e-003
