Freq.	V(1|1|1|b)	I(R129)
1.00000000000000e+005	4.62021247541489e-002,1.43694265123152e-001	1.90759575049170e-002,-2.87388530246304e-003
1.09909909909910e+005	5.06233437708962e-002,1.57261877084158e-001	1.89875331245821e-002,-3.14523754168316e-003
1.19819819819820e+005	5.54230887602475e-002,1.70645529585905e-001	1.88915382247951e-002,-3.41291059171811e-003
1.29729729729730e+005	6.05914122166227e-002,1.83831417299431e-001	1.87881717556675e-002,-3.67662834598863e-003
1.39639639639640e+005	6.61177434816891e-002,1.96806397348332e-001	1.86776451303662e-002,-3.93612794696664e-003
1.49549549549550e+005	7.19909406558752e-002,2.09558020791471e-001	1.85601811868825e-002,-4.19116041582942e-003
1.59459459459459e+005	7.81993439869771e-002,2.22074559627950e-001	1.84360131202605e-002,-4.44149119255900e-003
1.69369369369369e+005	8.47308303409371e-002,2.34345029243492e-001	1.83053833931813e-002,-4.68690058486984e-003
1.79279279279279e+005	9.15728683420641e-002,2.46359206276757e-001	1.81685426331587e-002,-4.92718412553515e-003
1.89189189189189e+005	9.87125737691997e-002,2.58107641936600e-001	1.80257485246160e-002,-5.16215283873200e-003
1.99099099099099e+005	1.06136764804115e-001,2.69581670848180e-001	1.78772647039177e-002,-5.39163341696360e-003
2.09009009009009e+005	1.13832016745411e-001,2.80773415547778e-001	1.77233596650918e-002,-5.61546831095557e-003
2.18918918918919e+005	1.21784715823460e-001,2.91675786783404e-001	1.75643056835308e-002,-5.83351573566807e-003
2.28828828828829e+005	1.29981111778083e-001,3.02282479810907e-001	1.74003777644383e-002,-6.04564959621813e-003
2.38738738738739e+005	1.38407368889888e-001,3.12587966903383e-001	1.72318526222022e-002,-6.25175933806766e-003
2.48648648648649e+005	1.47049615187470e-001,3.22587486315107e-001	1.70590076962506e-002,-6.45174972630215e-003
2.58558558558559e+005	1.55893989585452e-001,3.32277027960230e-001	1.68821202082910e-002,-6.64554055920459e-003
2.68468468468468e+005	1.64926686741919e-001,3.41653316081006e-001	1.67014662651616e-002,-6.83306632162012e-003
2.78378378378378e+005	1.74133999457538e-001,3.50713789190625e-001	1.65173200108492e-002,-7.01427578381250e-003
2.88288288288288e+005	1.83502358472154e-001,3.59456577581903e-001	1.63299528305569e-002,-7.18913155163806e-003
2.98198198198198e+005	1.93018369547307e-001,3.67880478695532e-001	1.61396326090539e-002,-7.35760957391064e-003
3.08108108108108e+005	2.02668847754628e-001,3.75984930640426e-001	1.59466230449074e-002,-7.51969861280853e-003
3.18018018018018e+005	2.12440848920037e-001,3.83769984154379e-001	1.57511830215993e-002,-7.67539968308758e-003
3.27927927927928e+005	2.22321698201835e-001,3.91236273286038e-001	1.55535660359633e-002,-7.82472546572076e-003
3.37837837837838e+005	2.32299015806862e-001,3.98384985069493e-001	1.53540196838628e-002,-7.96769970138985e-003
3.47747747747748e+005	2.42360739872812e-001,4.05217828450892e-001	1.51527852025438e-002,-8.10435656901785e-003
3.57657657657657e+005	2.52495146566349e-001,4.11737002712875e-001	1.49500970686730e-002,-8.23474005425751e-003
3.67567567567567e+005	2.62690867465839e-001,4.17945165627490e-001	1.47461826506832e-002,-8.35890331254980e-003
3.77477477477477e+005	2.72936904314239e-001,4.23845401552109e-001	1.45412619137152e-002,-8.47690803104218e-003
3.87387387387387e+005	2.83222641242074e-001,4.29441189665870e-001	1.43355471751585e-002,-8.58882379331740e-003
3.97297297297297e+005	2.93537854572388e-001,4.34736372526732e-001	1.41292429085522e-002,-8.69472745053465e-003
4.07207207207207e+005	3.03872720329354e-001,4.39735125111584e-001	1.39225455934129e-002,-8.79470250223168e-003
4.17117117117117e+005	3.14217819579802e-001,4.44441924484203e-001	1.37156436084040e-002,-8.88883848968407e-003
4.27027027027027e+005	3.24564141742522e-001,4.48861520218519e-001	1.35087171651496e-002,-8.97723040437038e-003
4.36936936936936e+005	3.34903086003940e-001,4.52998905687661e-001	1.33019382799212e-002,-9.05997811375323e-003
4.46846846846846e+005	3.45226460980742e-001,4.56859290312962e-001	1.30954707803852e-002,-9.13718580625925e-003
4.56756756756756e+005	3.55526482770533e-001,4.60448072851440e-001	1.28894703445893e-002,-9.20896145702880e-003
4.66666666666666e+005	3.65795771530648e-001,4.63770815785510e-001	1.26840845693870e-002,-9.27541631571021e-003
4.76576576576576e+005	3.76027346723145e-001,4.66833220864802e-001	1.24794530655371e-002,-9.33666441729604e-003
4.86486486486486e+005	3.86214621160777e-001,4.69641105837015e-001	1.22757075767845e-002,-9.39282211674030e-003
4.96396396396396e+005	3.96351393984695e-001,4.72200382392883e-001	1.20729721203061e-002,-9.44400764785766e-003
5.06306306306306e+005	4.06431842699763e-001,4.74517035339379e-001	1.18713631460047e-002,-9.49034070678758e-003
5.16216216216216e+005	4.16450514387940e-001,4.76597103005470e-001	1.16709897122412e-002,-9.53194206010940e-003
5.26126126126125e+005	4.26402316214269e-001,4.78446658875853e-001	1.14719536757146e-002,-9.56893317751705e-003
5.36036036036035e+005	4.36282505333718e-001,4.80071794440247e-001	1.12743498933256e-002,-9.60143588880494e-003
5.45945945945945e+005	4.46086678300616e-001,4.81478603238915e-001	1.10782664339877e-002,-9.62957206477831e-003
5.55855855855855e+005	4.55810760075744e-001,4.82673166079070e-001	1.08837847984851e-002,-9.65346332158140e-003
5.65765765765765e+005	4.65450992719406e-001,4.83661537391711e-001	1.06909801456119e-002,-9.67323074783422e-003
5.75675675675675e+005	4.75003923852103e-001,4.84449732694108e-001	1.04999215229579e-002,-9.68899465388215e-003
5.85585585585585e+005	4.84466394957774e-001,4.85043717119577e-001	1.03106721008445e-002,-9.70087434239154e-003
5.95495495495495e+005	4.93835529598101e-001,4.85449394973356e-001	1.01232894080380e-002,-9.70898789946713e-003
6.05405405405405e+005	5.03108721600033e-001,4.85672600271136e-001	9.93782556799933e-003,-9.71345200542273e-003
6.15315315315315e+005	5.12283623272618e-001,4.85719088215196e-001	9.75432753454764e-003,-9.71438176430392e-003
6.25225225225225e+005	5.21358133703381e-001,4.85594527561961e-001	9.57283732593237e-003,-9.71189055123922e-003
6.35135135135135e+005	5.30330387178952e-001,4.85304493834178e-001	9.39339225642096e-003,-9.70608987668357e-003
6.45045045045045e+005	5.39198741769360e-001,4.84854463330674e-001	9.21602516461280e-003,-9.69708926661347e-003
6.54954954954955e+005	5.47961768110486e-001,4.84249807886809e-001	9.04076463779029e-003,-9.68499615773619e-003
6.64864864864865e+005	5.56618238414498e-001,4.83495790339229e-001	8.86763523171004e-003,-9.66991580678459e-003
6.74774774774775e+005	5.65167115733802e-001,4.82597560649213e-001	8.69665768532395e-003,-9.65195121298426e-003
6.84684684684685e+005	5.73607543499988e-001,4.81560152639948e-001	8.52784913000023e-003,-9.63120305279896e-003
6.94594594594594e+005	5.81938835355599e-001,4.80388481304190e-001	8.36122329288802e-003,-9.60776962608381e-003
7.04504504504504e+005	5.90160465293115e-001,4.79087340640111e-001	8.19679069413771e-003,-9.58174681280223e-003
7.14414414414414e+005	5.98272058112462e-001,4.77661401974597e-001	8.03455883775077e-003,-9.55322803949195e-003
7.24324324324324e+005	6.06273380205515e-001,4.76115212734809e-001	7.87453239588970e-003,-9.52230425469619e-003
7.34234234234234e+005	6.14164330673530e-001,4.74453195630446e-001	7.71671338652940e-003,-9.48906391260893e-003
7.44144144144144e+005	6.21944932781115e-001,4.72679648210826e-001	7.56110134437770e-003,-9.45359296421652e-003
7.54054054054054e+005	6.29615325748330e-001,4.70798742762605e-001	7.40769348503341e-003,-9.41597485525211e-003
7.63963963963964e+005	6.37175756880638e-001,4.68814526515673e-001	7.25648486238723e-003,-9.37629053031347e-003
7.73873873873874e+005	6.44626574034850e-001,4.66730922126460e-001	7.10746851930299e-003,-9.33461844252921e-003
7.83783783783784e+005	6.51968218417754e-001,4.64551728409599e-001	6.96063563164492e-003,-9.29103456819199e-003
7.93693693693694e+005	6.59201217712918e-001,4.62280621290522e-001	6.81597564574164e-003,-9.24561242581043e-003
8.03603603603604e+005	6.66326179530074e-001,4.59921154953208e-001	6.67347640939853e-003,-9.19842309906417e-003
8.13513513513514e+005	6.73343785170580e-001,4.57476763158865e-001	6.53312429658839e-003,-9.14953526317729e-003
8.23423423423424e+005	6.80254783701715e-001,4.54950760712815e-001	6.39490432596569e-003,-9.09901521425630e-003
8.33333333333334e+005	6.87059986331896e-001,4.52346345058354e-001	6.25880027336208e-003,-9.04692690116709e-003
8.43243243243244e+005	6.93760261078419e-001,4.49666597977685e-001	6.12479477843162e-003,-8.99333195955371e-003
8.53153153153153e+005	7.00356527718907e-001,4.46914487381380e-001	5.99286944562187e-003,-8.93828974762761e-003
8.63063063063063e+005	7.06849753017328e-001,4.44092869169046e-001	5.86300493965344e-003,-8.88185738338091e-003
8.72972972972973e+005	7.13240946215240e-001,4.41204489145045e-001	5.73518107569521e-003,-8.82408978290090e-003
8.82882882882883e+005	7.19531154778749e-001,4.38251984974212e-001	5.60937690442502e-003,-8.76503969948424e-003
8.92792792792793e+005	7.25721460391609e-001,4.35237888163509e-001	5.48557079216782e-003,-8.70475776327017e-003
9.02702702702703e+005	7.31812975184859e-001,4.32164626056512e-001	5.36374049630283e-003,-8.64329252113024e-003
9.12612612612613e+005	7.37806838193426e-001,4.29034523828471e-001	5.24386323613149e-003,-8.58069047656941e-003
9.22522522522523e+005	7.43704212030218e-001,4.25849806470445e-001	5.12591575939565e-003,-8.51699612940891e-003
9.32432432432433e+005	7.49506279768337e-001,4.22612600751746e-001	5.00987440463325e-003,-8.45225201503493e-003
9.42342342342343e+005	7.55214242022195e-001,4.19324937150489e-001	4.89571515955610e-003,-8.38649874300978e-003
9.52252252252253e+005	7.60829314218515e-001,4.15988751742625e-001	4.78341371562969e-003,-8.31977503485251e-003
9.62162162162163e+005	7.66352724048402e-001,4.12605888040263e-001	4.67294551903196e-003,-8.25211776080526e-003
9.72072072072073e+005	7.71785709091881e-001,4.09178098770437e-001	4.56428581816238e-003,-8.18356197540875e-003
9.81981981981983e+005	7.77129514606583e-001,4.05707047585796e-001	4.45740970786835e-003,-8.11414095171591e-003
9.91891891891893e+005	7.82385391472471e-001,4.02194310698828e-001	4.35229217055059e-003,-8.04388621397656e-003
1.00180180180180e+006	7.87554594284817e-001,3.98641378431391e-001	4.24890811430366e-003,-7.97282756862783e-003
1.01171171171171e+006	7.92638379587878e-001,3.95049656671259e-001	4.14723240824244e-003,-7.90099313342518e-003
1.02162162162162e+006	7.97638004242021e-001,3.91420468227342e-001	4.04723991515958e-003,-7.82840936454683e-003
1.03153153153153e+006	8.02554723917336e-001,3.87755054074993e-001	3.94890552165329e-003,-7.75510108149985e-003
1.04144144144144e+006	8.07389791707045e-001,3.84054574482502e-001	3.85220416585911e-003,-7.68109148965004e-003
1.05135135135135e+006	8.12144456854321e-001,3.80320110009402e-001	3.75711086291358e-003,-7.60640220018804e-003
1.06126126126126e+006	8.16819963586398e-001,3.76552662366623e-001	3.66360072827205e-003,-7.53105324733245e-003
1.07117117117117e+006	8.21417550050138e-001,3.72753155127757e-001	3.57164899899724e-003,-7.45506310255515e-003
1.08108108108108e+006	8.25938447343514e-001,3.68922434279777e-001	3.48123105312973e-003,-7.37844868559555e-003
1.09099099099099e+006	8.30383878637693e-001,3.65061268600385e-001	3.39232242724614e-003,-7.30122537200770e-003
1.10090090090090e+006	8.34755058384724e-001,3.61170349847829e-001	3.30489883230551e-003,-7.22340699695657e-003
1.11081081081081e+006	8.39053191606037e-001,3.57250292747391e-001	3.21893616787927e-003,-7.14500585494781e-003
1.12072072072072e+006	8.43279473257223e-001,3.53301634756807e-001	3.13441053485553e-003,-7.06603269513614e-003
1.13063063063063e+006	8.47435087664811e-001,3.49324835590620e-001	3.05129824670377e-003,-6.98649671181241e-003
1.14054054054054e+006	8.51521208030934e-001,3.45320276480764e-001	2.96957583938131e-003,-6.90640552961528e-003
1.15045045045045e+006	8.55538996002018e-001,3.41288259147504e-001	2.88922007995965e-003,-6.82576518295008e-003
1.16036036036036e+006	8.59489601297777e-001,3.37229004451134e-001	2.81020797404446e-003,-6.74458008902268e-003
1.17027027027027e+006	8.63374161396973e-001,3.33142650690383e-001	2.73251677206053e-003,-6.66285301380765e-003
1.18018018018018e+006	8.67193801276500e-001,3.29029251508273e-001	2.65612397446999e-003,-6.58058503016547e-003
1.19009009009009e+006	8.70949633200468e-001,3.24888773359978e-001	2.58100733599063e-003,-6.49777546719957e-003
1.20000000000000e+006	8.74642756555973e-001,3.20721092489825e-001	2.50714486888054e-003,-6.41442184979649e-003
1.20990990990991e+006	8.78274257732245e-001,3.16525991355831e-001	2.43451484535510e-003,-6.33051982711662e-003
1.21981981981982e+006	8.81845210039740e-001,3.12303154429626e-001	2.36309579920520e-003,-6.24606308859253e-003
1.22972972972973e+006	8.85356673665560e-001,3.08052163286956e-001	2.29286652668880e-003,-6.16104326573913e-003
1.23963963963964e+006	8.88809695661237e-001,3.03772490888749e-001	2.22380608677525e-003,-6.07544981777499e-003
1.24954954954955e+006	8.92205309958407e-001,2.99463494934226e-001	2.15589380083187e-003,-5.98926989868451e-003
1.25945945945946e+006	8.95544537407135e-001,2.95124410145056e-001	2.08910925185730e-003,-5.90248820290112e-003
1.26936936936937e+006	8.98828385830609e-001,2.90754339312050e-001	2.02343228338783e-003,-5.81508678624099e-003
1.27927927927928e+006	9.02057850088364e-001,2.86352242902004e-001	1.95884299823272e-003,-5.72704485804009e-003
1.28918918918919e+006	9.05233912138162e-001,2.81916926980483e-001	1.89532175723677e-003,-5.63833853960967e-003
1.29909909909910e+006	9.08357541083689e-001,2.77447029154138e-001	1.83284917832623e-003,-5.54894058308275e-003
1.30900900900901e+006	9.11429693191261e-001,2.72941002170910e-001	1.77140613617478e-003,-5.45882004341820e-003
1.31891891891892e+006	9.14451311853123e-001,2.68397094734080e-001	1.71097376293754e-003,-5.36794189468160e-003
1.32882882882883e+006	9.17423327467167e-001,2.63813328981463e-001	1.65153345065666e-003,-5.27626657962926e-003
1.33873873873874e+006	9.20346657192084e-001,2.59187473947070e-001	1.59306685615831e-003,-5.18374947894140e-003
1.34864864864865e+006	9.23222204521664e-001,2.54517014149540e-001	1.53555590956671e-003,-5.09034028299079e-003
1.35855855855856e+006	9.26050858600378e-001,2.49799112226302e-001	1.47898282799245e-003,-4.99598224452604e-003
1.36846846846847e+006	9.28833493171477e-001,2.45030564236140e-001	1.42333013657046e-003,-4.90061128472281e-003
1.37837837837838e+006	9.31570965004290e-001,2.40207745859213e-001	1.36858069991419e-003,-4.80415491718425e-003
1.38828828828829e+006	9.34264111582382e-001,2.35326547195066e-001	1.31471776835236e-003,-4.70653094390133e-003
1.39819819819820e+006	9.36913747738340e-001,2.30382293140923e-001	1.26172504523320e-003,-4.60764586281846e-003
1.40810810810811e+006	9.39520660777484e-001,2.25369645344069e-001	1.20958678445032e-003,-4.50739290688138e-003
1.41801801801802e+006	9.42085603415052e-001,2.20282480342819e-001	1.15828793169897e-003,-4.40564960685638e-003
1.42792792792793e+006	9.44609283515605e-001,2.15113736556409e-001	1.10781432968789e-003,-4.30227473112819e-003
1.43783783783784e+006	9.47092349096036e-001,2.09855219969952e-001	1.05815301807927e-003,-4.19710439939903e-003
1.44774774774775e+006	9.49535366208699e-001,2.04497354233404e-001	1.00929267582602e-003,-4.08994708466808e-003
1.45765765765766e+006	9.51938785937356e-001,1.99028854719115e-001	9.61224281252888e-004,-3.98057709438229e-003
1.46756756756756e+006	9.54302894414672e-001,1.93436296638700e-001	9.13942111706558e-004,-3.86872593277401e-003
1.47747747747747e+006	9.56627735756448e-001,1.87703532515666e-001	8.67445284871031e-004,-3.75407065031333e-003
1.48738738738738e+006	9.58912990652902e-001,1.81810890453836e-001	8.21740186941959e-004,-3.63621780907672e-003
1.49729729729729e+006	9.61157780133421e-001,1.75734044986275e-001	7.76844397331569e-004,-3.51468089972549e-003
1.50720720720720e+006	9.63360338546336e-001,1.69442384012656e-001	7.32793229073272e-004,-3.38884768025311e-003
1.51711711711711e+006	9.65517448310316e-001,1.62896572970900e-001	6.89651033793690e-004,-3.25793145941800e-003
1.52702702702702e+006	9.67623418952990e-001,1.56044787796609e-001	6.47531620940209e-004,-3.12089575593219e-003
1.53693693693693e+006	9.69668141696326e-001,1.48816634080098e-001	6.06637166073489e-004,-2.97633268160197e-003
1.54684684684684e+006	9.71633130031618e-001,1.41112815295931e-001	5.67337399367645e-004,-2.82225630591861e-003
1.55675675675675e+006	9.73482768647622e-001,1.32786463179212e-001	5.30344627047559e-004,-2.65572926358423e-003
1.56666666666666e+006	9.75142827166384e-001,1.23606821822949e-001	4.97143456672315e-004,-2.47213643645898e-003
1.57657657657657e+006	9.76439949972371e-001,1.13182381725818e-001	4.71201000552575e-004,-2.26364763451636e-003
1.58648648648648e+006	9.76897012659514e-001,1.00785319317404e-001	4.62059746809718e-004,-2.01570638634808e-003
1.59639639639639e+006	9.74849710634723e-001,8.49850051127583e-002	5.03005787305544e-004,-1.69970010225517e-003
1.60630630630630e+006	9.62624265956015e-001,6.47185715652780e-002	7.47514680879708e-004,-1.29437143130556e-003
1.61621621621621e+006	9.29447380597363e-001,7.26711989236823e-002	1.41105238805274e-003,-1.45342397847365e-003
1.62612612612612e+006	9.53362630548990e-001,8.70112419411423e-002	9.32747389020205e-004,-1.74022483882285e-003
1.63603603603603e+006	9.63852817391587e-001,6.14387717636684e-002	7.22943652168269e-004,-1.22877543527337e-003
1.64594594594594e+006	9.54127869573432e-001,2.81115954682518e-002	9.17442608531360e-004,-5.62231909365036e-004
1.65585585585585e+006	9.03800334503115e-001,-9.61812817587457e-003	1.92399330993770e-003,1.92362563517491e-004
1.66576576576576e+006	8.06235456852135e-001,6.10443202952239e-002	3.87529086295731e-003,-1.22088640590448e-003
1.67567567567567e+006	8.84106012273397e-001,1.46216464156203e-001	2.31787975453207e-003,-2.92432928312406e-003
1.68558558558558e+006	9.39794991682370e-001,1.24060373305550e-001	1.20410016635260e-003,-2.48120746611101e-003
1.69549549549549e+006	9.60162344877502e-001,9.38007404775333e-002	7.96753102449959e-004,-1.87601480955067e-003
1.70540540540540e+006	9.66471672887484e-001,6.39986831712439e-002	6.70566542250313e-004,-1.27997366342488e-003
1.71531531531531e+006	9.60693308366844e-001,3.09083417765326e-002	7.86133832663116e-004,-6.18166835530651e-004
1.72522522522522e+006	9.24822306133321e-001,-3.63768432024156e-003	1.50355387733358e-003,7.27536864048312e-005
1.73513513513513e+006	8.58580629559802e-001,4.56622035926009e-002	2.82838740880396e-003,-9.13244071852018e-004
1.74504504504504e+006	9.23337119825853e-001,8.73980685332873e-002	1.53325760348294e-003,-1.74796137066575e-003
1.75495495495495e+006	9.57417542697588e-001,5.52743790767748e-002	8.51649146048246e-004,-1.10548758153550e-003
1.76486486486486e+006	9.65110675131562e-001,2.09745741989911e-002	6.97786497368755e-004,-4.19491483979822e-004
1.77477477477477e+006	9.64242296043485e-001,-1.29557375216352e-002	7.15154079130309e-004,2.59114750432704e-004
1.78468468468468e+006	9.54423313556528e-001,-5.31809443744165e-002	9.11533728869438e-004,1.06361888748833e-003
1.79459459459459e+006	9.28610877474945e-001,-1.01938032682924e-001	1.42778245050111e-003,2.03876065365848e-003
1.80450450450450e+006	8.70233329784566e-001,-1.59264979934527e-001	2.59533340430867e-003,3.18529959869054e-003
1.81441441441441e+006	7.41230359491362e-001,-1.99705628391723e-001	5.17539281017275e-003,3.99411256783446e-003
1.82432432432432e+006	5.44126402209471e-001,-9.55637363629048e-002	9.11747195581058e-003,1.91127472725810e-003
1.83423423423423e+006	5.48609538791873e-001,1.70619536484711e-001	9.02780922416255e-003,-3.41239072969423e-003
1.84414414414414e+006	7.18923471298873e-001,2.67156346933456e-001	5.62153057402254e-003,-5.34312693866913e-003
1.85405405405405e+006	8.33227468624644e-001,2.47480603438458e-001	3.33545062750713e-003,-4.94961206876917e-003
1.86396396396396e+006	8.93774160960684e-001,2.07433283853561e-001	2.12451678078632e-003,-4.14866567707122e-003
