Freq.	V(1|1|1|a)	I(R129)
1.00000000000000e+005	6.12703063366861e-002,6.51301146368099e-002	1.87745938732663e-002,-1.30260229273620e-003
1.09909909909910e+005	6.22382742072457e-002,7.15288353542357e-002	1.87552345158551e-002,-1.43057670708471e-003
1.19819819819820e+005	6.32965524787799e-002,7.79118603853701e-002	1.87340689504244e-002,-1.55823720770740e-003
1.29729729729730e+005	6.44448492846531e-002,8.42778005440136e-002	1.87111030143069e-002,-1.68555601088027e-003
1.39639639639640e+005	6.56828483531563e-002,9.06252733079817e-002	1.86863430329369e-002,-1.81250546615963e-003
1.49549549549550e+005	6.70102091973929e-002,9.69529033435705e-002	1.86597958160521e-002,-1.93905806687141e-003
1.59459459459459e+005	6.84265673192440e-002,1.03259323023775e-001	1.86314686536151e-002,-2.06518646047550e-003
1.69369369369369e+005	6.99315344271892e-002,1.09543172939824e-001	1.86013693114562e-002,-2.19086345879647e-003
1.79279279279279e+005	7.15246986677441e-002,1.15803102405606e-001	1.85695060266451e-002,-2.31606204811212e-003
1.89189189189189e+005	7.32056248702633e-002,1.22037769954573e-001	1.85358875025947e-002,-2.44075539909146e-003
1.99099099099099e+005	7.49738548048416e-002,1.28245843828708e-001	1.85005229039032e-002,-2.56491687657417e-003
2.09009009009009e+005	7.68289074530361e-002,1.34426002459170e-001	1.84634218509393e-002,-2.68852004918341e-003
2.18918918918919e+005	7.87702792911165e-002,1.40576934938223e-001	1.84245944141777e-002,-2.81153869876446e-003
2.28828828828829e+005	8.07974445855411e-002,1.46697341482083e-001	1.83840511082892e-002,-2.93394682964166e-003
2.38738738738739e+005	8.29098557003428e-002,1.52785933884317e-001	1.83418028859931e-002,-3.05571867768634e-003
2.48648648648649e+005	8.51069434160992e-002,1.58841435959446e-001	1.82978611316780e-002,-3.17682871918892e-003
2.58558558558559e+005	8.73881172601514e-002,1.64862583976415e-001	1.82522376547970e-002,-3.29725167952831e-003
2.68468468468468e+005	8.97527658477230e-002,1.70848127081608e-001	1.82049446830455e-002,-3.41696254163216e-003
2.78378378378378e+005	9.22002572335861e-002,1.76796827711093e-001	1.81559948553283e-002,-3.53593655422186e-003
2.88288288288288e+005	9.47299392739085e-002,1.82707461991809e-001	1.81054012145218e-002,-3.65414923983618e-003
2.98198198198198e+005	9.73411399979110e-002,1.88578820131402e-001	1.80531772000418e-002,-3.77157640262803e-003
3.08108108108108e+005	1.00033167988954e-001,1.94409706796442e-001	1.79993366402209e-002,-3.88819413592885e-003
3.18018018018018e+005	1.02805312774666e-001,2.00198941478780e-001	1.79438937445067e-002,-4.00397882957560e-003
3.27927927927928e+005	1.05656845225728e-001,2.05945358849778e-001	1.78868630954854e-002,-4.11890717699557e-003
3.37837837837838e+005	1.08587017962902e-001,2.11647809102214e-001	1.78282596407420e-002,-4.23295618204428e-003
3.47747747747748e+005	1.11595065771918e-001,2.17305158279627e-001	1.77680986845617e-002,-4.34610316559254e-003
3.57657657657657e+005	1.14680206025794e-001,2.22916288592925e-001	1.77063958794841e-002,-4.45832577185849e-003
3.67567567567567e+005	1.17841639114198e-001,2.28480098724049e-001	1.76431672177161e-002,-4.56960197448099e-003
3.77477477477477e+005	1.21078548879413e-001,2.33995504116558e-001	1.75784290224117e-002,-4.67991008233116e-003
3.87387387387387e+005	1.24390103058521e-001,2.39461437252943e-001	1.75121979388296e-002,-4.78922874505886e-003
3.97297297297297e+005	1.27775453731353e-001,2.44876847918564e-001	1.74444909253729e-002,-4.89753695837129e-003
4.07207207207207e+005	1.31233737773818e-001,2.50240703452071e-001	1.73753252445236e-002,-5.00481406904141e-003
4.17117117117117e+005	1.34764077316168e-001,2.55551988982191e-001	1.73047184536766e-002,-5.11103977964381e-003
4.27027027027027e+005	1.38365580205797e-001,2.60809707650808e-001	1.72326883958841e-002,-5.21619415301617e-003
4.36936936936936e+005	1.42037340474143e-001,2.66012880822232e-001	1.71592531905171e-002,-5.32025761644463e-003
4.46846846846846e+005	1.45778438807288e-001,2.71160548278592e-001	1.70844312238542e-002,-5.42321096557184e-003
4.56756756756756e+005	1.49587943019835e-001,2.76251768401319e-001	1.70082411396033e-002,-5.52503536802638e-003
4.66666666666666e+005	1.53464908531648e-001,2.81285618338643e-001	1.69307018293670e-002,-5.62571236677286e-003
4.76576576576576e+005	1.57408378847056e-001,2.86261194159108e-001	1.68518324230589e-002,-5.72522388318217e-003
4.86486486486486e+005	1.61417386036113e-001,2.91177610991069e-001	1.67716522792777e-002,-5.82355221982138e-003
4.96396396396396e+005	1.65490951217505e-001,2.96034003148170e-001	1.66901809756499e-002,-5.92068006296340e-003
5.06306306306306e+005	1.69628085042725e-001,3.00829524240823e-001	1.66074382991455e-002,-6.01659048481645e-003
5.16216216216216e+005	1.73827788181115e-001,3.05563347273686e-001	1.65234442363777e-002,-6.11126694547373e-003
5.26126126126125e+005	1.78089051805402e-001,3.10234664729199e-001	1.64382189638920e-002,-6.20469329458397e-003
5.36036036036035e+005	1.82410858077336e-001,3.14842688637183e-001	1.63517828384533e-002,-6.29685377274367e-003
5.45945945945945e+005	1.86792180633084e-001,3.19386650630593e-001	1.62641563873383e-002,-6.38773301261187e-003
5.55855855855855e+005	1.91231985067995e-001,3.23865801987449e-001	1.61753602986401e-002,-6.47731603974899e-003
5.65765765765765e+005	1.95729229420400e-001,3.28279413659038e-001	1.60854154115920e-002,-6.56558827318076e-003
5.75675675675675e+005	2.00282864654098e-001,3.32626776284455e-001	1.59943427069180e-002,-6.65253552568909e-003
5.85585585585585e+005	2.04891835139184e-001,3.36907200191570e-001	1.59021632972163e-002,-6.73814400383140e-003
5.95495495495495e+005	2.09555079130910e-001,3.41120015384514e-001	1.58088984173818e-002,-6.82240030769028e-003
6.05405405405405e+005	2.14271529246249e-001,3.45264571517780e-001	1.57145694150750e-002,-6.90529143035560e-003
6.15315315315315e+005	2.19040112937863e-001,3.49340237857043e-001	1.56191977412427e-002,-6.98680475714087e-003
6.25225225225225e+005	2.23859752965188e-001,3.53346403226817e-001	1.55228049406962e-002,-7.06692806453634e-003
6.35135135135135e+005	2.28729367862332e-001,3.57282475945044e-001	1.54254126427534e-002,-7.14564951890089e-003
6.45045045045045e+005	2.33647872402548e-001,3.61147883744753e-001	1.53270425519490e-002,-7.22295767489506e-003
6.54954954954955e+005	2.38614178058995e-001,3.64942073682886e-001	1.52277164388201e-002,-7.29884147365771e-003
6.64864864864865e+005	2.43627193461552e-001,3.68664512036430e-001	1.51274561307690e-002,-7.37329024072860e-003
6.74774774774775e+005	2.48685824849462e-001,3.72314684185963e-001	1.50262835030108e-002,-7.44629368371926e-003
6.84684684684685e+005	2.53788976519575e-001,3.75892094486736e-001	1.49242204696085e-002,-7.51784188973471e-003
6.94594594594594e+005	2.58935551269985e-001,3.79396266127412e-001	1.48212889746003e-002,-7.58792532254824e-003
7.04504504504504e+005	2.64124450838885e-001,3.82826740976580e-001	1.47175109832223e-002,-7.65653481953160e-003
7.14414414414414e+005	2.69354576338454e-001,3.86183079417143e-001	1.46129084732309e-002,-7.72366158834286e-003
7.24324324324324e+005	2.74624828683620e-001,3.89464860168701e-001	1.45075034263276e-002,-7.78929720337401e-003
7.34234234234234e+005	2.79934109015553e-001,3.92671680098017e-001	1.44013178196889e-002,-7.85343360196033e-003
7.44144144144144e+005	2.85281319119774e-001,3.95803154017664e-001	1.42943736176045e-002,-7.91606308035328e-003
7.54054054054054e+005	2.90665361838755e-001,3.98858914472929e-001	1.41866927632249e-002,-7.97717828945859e-003
7.63963963963964e+005	2.96085141478937e-001,4.01838611517046e-001	1.40782971704213e-002,-8.03677223034093e-003
7.73873873873874e+005	3.01539564212073e-001,4.04741912474814e-001	1.39692087157585e-002,-8.09483824949629e-003
7.83783783783784e+005	3.07027538470871e-001,4.07568501694641e-001	1.38594492305826e-002,-8.15137003389282e-003
7.93693693693694e+005	3.12547975338880e-001,4.10318080289036e-001	1.37490404932224e-002,-8.20636160578071e-003
8.03603603603604e+005	3.18099788934627e-001,4.12990365863553e-001	1.36380042213075e-002,-8.25980731727106e-003
8.13513513513514e+005	3.23681896790006e-001,4.15585092234170e-001	1.35263620641999e-002,-8.31170184468340e-003
8.23423423423424e+005	3.29293220222960e-001,4.18102009133052e-001	1.34141355955408e-002,-8.36204018266104e-003
8.33333333333334e+005	3.34932684704523e-001,4.20540881902630e-001	1.33013463059095e-002,-8.41081763805260e-003
8.43243243243244e+005	3.40599220220291e-001,4.22901491177892e-001	1.31880155955942e-002,-8.45802982355784e-003
8.53153153153153e+005	3.46291761626464e-001,4.25183632556738e-001	1.30741647674707e-002,-8.50367265113476e-003
8.63063063063063e+005	3.52009249000579e-001,4.27387116258223e-001	1.29598150199884e-002,-8.54774232516445e-003
8.72972972972973e+005	3.57750627987123e-001,4.29511766768460e-001	1.28449874402575e-002,-8.59023533536919e-003
8.82882882882883e+005	3.63514850138248e-001,4.31557422473906e-001	1.27297029972350e-002,-8.63114844947812e-003
8.92792792792793e+005	3.69300873249808e-001,4.33523935281699e-001	1.26139825350039e-002,-8.67047870563397e-003
9.02702702702703e+005	3.75107661693036e-001,4.35411170226645e-001	1.24978467661393e-002,-8.70822340453289e-003
9.12612612612613e+005	3.80934186742179e-001,4.37219005064396e-001	1.23813162651564e-002,-8.74438010128792e-003
9.22522522522523e+005	3.86779426898458e-001,4.38947329850268e-001	1.22644114620308e-002,-8.77894659700536e-003
9.32432432432433e+005	3.92642368210810e-001,4.40596046503059e-001	1.21471526357838e-002,-8.81192093006117e-003
9.42342342342343e+005	3.98522004593868e-001,4.42165068353144e-001	1.20295599081226e-002,-8.84330136706287e-003
9.52252252252253e+005	4.04417338143746e-001,4.43654319673985e-001	1.19116532371251e-002,-8.87308639347971e-003
9.62162162162163e+005	4.10327379452236e-001,4.45063735196095e-001	1.17934524109553e-002,-8.90127470392190e-003
9.72072072072073e+005	4.16251147920098e-001,4.46393259602313e-001	1.16749770415980e-002,-8.92786519204625e-003
9.81981981981983e+005	4.22187672070238e-001,4.47642847003139e-001	1.15562465585952e-002,-8.95285694006278e-003
9.91891891891893e+005	4.28135989861613e-001,4.48812460390637e-001	1.14372802027677e-002,-8.97624920781273e-003
1.00180180180180e+006	4.34095149004842e-001,4.49902071069234e-001	1.13180970199032e-002,-8.99804142138468e-003
1.01171171171171e+006	4.40064207280609e-001,4.50911658061508e-001	1.11987158543878e-002,-9.01823316123017e-003
1.02162162162162e+006	4.46042232862063e-001,4.51841207486760e-001	1.10791553427587e-002,-9.03682414973520e-003
1.03153153153153e+006	4.52028304642565e-001,4.52690711909874e-001	1.09594339071487e-002,-9.05381423819748e-003
1.04144144144144e+006	4.58021512570312e-001,4.53460169657603e-001	1.08395697485938e-002,-9.06920339315207e-003
1.05135135135135e+006	4.64020957991529e-001,4.54149584099000e-001	1.07195808401694e-002,-9.08299168198001e-003
1.06126126126126e+006	4.70025754004144e-001,4.54758962886239e-001	1.05994849199171e-002,-9.09517925772477e-003
1.07117117117117e+006	4.76035025824081e-001,4.55288317151524e-001	1.04792994835184e-002,-9.10576634303047e-003
1.08108108108108e+006	4.82047911166601e-001,4.55737660655142e-001	1.03590417766680e-002,-9.11475321310284e-003
1.09099099099099e+006	4.88063560645373e-001,4.56107008878965e-001	1.02387287870925e-002,-9.12214017757929e-003
1.10090090090090e+006	4.94081138192376e-001,4.56396378058842e-001	1.01183772361525e-002,-9.12792756117683e-003
1.11081081081081e+006	5.00099821502047e-001,4.56605784148318e-001	9.99800356995905e-003,-9.13211568296635e-003
1.12072072072072e+006	5.06118802503621e-001,4.56735241704903e-001	9.87762394992758e-003,-9.13470483409806e-003
1.13063063063063e+006	5.12137287866052e-001,4.56784762688729e-001	9.75725424267897e-003,-9.13569525377458e-003
1.14054054054054e+006	5.18154499540563e-001,4.56754355161764e-001	9.63691000918873e-003,-9.13508710323529e-003
1.15045045045045e+006	5.24169675346517e-001,4.56644021873798e-001	9.51660649306965e-003,-9.13288043747596e-003
1.16036036036036e+006	5.30182069607084e-001,4.56453758719062e-001	9.39635860785832e-003,-9.12907517438124e-003
1.17027027027027e+006	5.36190953842113e-001,4.56183553044578e-001	9.27618092315774e-003,-9.12367106089157e-003
1.18018018018018e+006	5.42195617526628e-001,4.55833381787963e-001	9.15608764946744e-003,-9.11666763575925e-003
1.19009009009009e+006	5.48195368924582e-001,4.55403209418410e-001	9.03609262150836e-003,-9.10806418836819e-003
1.20000000000000e+006	5.54189536008886e-001,4.54892985649719e-001	8.91620927982228e-003,-9.09785971299438e-003
1.20990990990991e+006	5.60177467480322e-001,4.54302642888330e-001	8.79645065039357e-003,-9.08605285776659e-003
1.21981981981982e+006	5.66158533899796e-001,4.53632093372167e-001	8.67682932200409e-003,-9.07264186744334e-003
1.22972972972973e+006	5.72132128950490e-001,4.52881225947311e-001	8.55735742099021e-003,-9.05762451894621e-003
1.23963963963964e+006	5.78097670848907e-001,4.52049902418713e-001	8.43804658302186e-003,-9.04099804837427e-003
1.24954954954955e+006	5.84054603926575e-001,4.51137953397853e-001	8.31890792146849e-003,-9.02275906795706e-003
1.25945945945946e+006	5.90002400407325e-001,4.50145173553655e-001	8.19995199185350e-003,-9.00290347107310e-003
1.26936936936937e+006	5.95940562408606e-001,4.49071316152333e-001	8.08118875182788e-003,-8.98142632304665e-003
1.27927927927928e+006	6.01868624199269e-001,4.47916086745855e-001	7.96262751601462e-003,-8.95832173491711e-003
1.28918918918919e+006	6.07786154750547e-001,4.46679135835976e-001	7.84427690498907e-003,-8.93358271671952e-003
1.29909909909910e+006	6.13692760621567e-001,4.45360050299111e-001	7.72614478756866e-003,-8.90720100598222e-003
1.30900900900901e+006	6.19588089225384e-001,4.43958343304143e-001	7.60823821549232e-003,-8.87916686608286e-003
1.31891891891892e+006	6.25471832525834e-001,4.42473442386676e-001	7.49056334948332e-003,-8.84946884773351e-003
1.32882882882883e+006	6.31343731218887e-001,4.40904675254458e-001	7.37312537562225e-003,-8.81809350508916e-003
1.33873873873874e+006	6.37203579453337e-001,4.39251252782692e-001	7.25592841093326e-003,-8.78502505565384e-003
1.34864864864865e+006	6.43051230142804e-001,4.37512248505289e-001	7.13897539714392e-003,-8.75024497010578e-003
1.35855855855856e+006	6.48886600910901e-001,4.35686573705607e-001	7.02226798178199e-003,-8.71373147411214e-003
1.36846846846847e+006	6.54709680688671e-001,4.33772946939200e-001	6.90580638622658e-003,-8.67545893878400e-003
1.37837837837838e+006	6.60520536939506e-001,4.31769856455206e-001	6.78958926120987e-003,-8.63539712910411e-003
1.38828828828829e+006	6.66319323407022e-001,4.29675513484333e-001	6.67361353185957e-003,-8.59351026968665e-003
1.39819819819820e+006	6.72106288141949e-001,4.27487793675130e-001	6.55787423716102e-003,-8.54975587350259e-003
1.40810810810811e+006	6.77881781324403e-001,4.25204163005986e-001	6.44236437351195e-003,-8.50408326011972e-003
1.41801801801802e+006	6.83646261989318e-001,4.22821583159538e-001	6.32707476021364e-003,-8.45643166319076e-003
1.42792792792793e+006	6.89400302067509e-001,4.20336389441630e-001	6.21199395864983e-003,-8.40672778883259e-003
1.43783783783784e+006	6.95144584967099e-001,4.17744131591947e-001	6.09710830065802e-003,-8.35488263183894e-003
1.44774774774775e+006	7.00879893876315e-001,4.15039363863248e-001	5.98240212247370e-003,-8.30078727726496e-003
1.45765765765766e+006	7.06607081413194e-001,4.12215364924171e-001	5.86785837173612e-003,-8.24430729848343e-003
1.46756756756756e+006	7.12327005976545e-001,4.09263759529284e-001	5.75345988046909e-003,-8.18527519058567e-003
1.47747747747747e+006	7.18040408906464e-001,4.06174001090672e-001	5.63919182187072e-003,-8.12348002181344e-003
1.48738738738738e+006	7.23747686008727e-001,4.02932655235532e-001	5.52504627982547e-003,-8.05865310471063e-003
1.49729729729729e+006	7.29448468630120e-001,3.99522396439891e-001	5.41103062739760e-003,-7.99044792879782e-003
1.50720720720720e+006	7.35140856212387e-001,3.95920590200398e-001	5.29718287575226e-003,-7.91841180400795e-003
1.51711711711711e+006	7.40819999107373e-001,3.92097282598239e-001	5.18360001785253e-003,-7.84194565196477e-003
1.52702702702702e+006	7.46475444764586e-001,3.88012373963298e-001	5.07049110470829e-003,-7.76024747926596e-003
1.53693693693693e+006	7.52086082133876e-001,3.83611788619273e-001	4.95827835732247e-003,-7.67223577238547e-003
1.54684684684684e+006	7.57610353649352e-001,3.78822843524371e-001	4.84779292701297e-003,-7.57645687048741e-003
1.55675675675675e+006	7.62967179940844e-001,3.73550695051806e-001	4.74065640118313e-003,-7.47101390103613e-003
1.56666666666666e+006	7.67999656070789e-001,3.67683632919996e-001	4.64000687858421e-003,-7.35367265839993e-003
1.57657657657657e+006	7.72413445731761e-001,3.61132934228933e-001	4.55173108536478e-003,-7.22265868457866e-003
1.58648648648648e+006	7.75713242800747e-001,3.53973399593176e-001	4.48573514398506e-003,-7.07946799186353e-003
1.59639639639639e+006	7.77314928768039e-001,3.46755688761002e-001	4.45370142463923e-003,-6.93511377522004e-003
1.60630630630630e+006	7.77220013779238e-001,3.40646899623927e-001	4.45559972441524e-003,-6.81293799247854e-003
1.61621621621621e+006	7.76605883180034e-001,3.36305808835173e-001	4.46788233639932e-003,-6.72611617670345e-003
1.62612612612612e+006	7.76120046454745e-001,3.32900591100491e-001	4.47759907090510e-003,-6.65801182200983e-003
1.63603603603603e+006	7.74828573383648e-001,3.30520322449001e-001	4.50342853232704e-003,-6.61040644898002e-003
1.64594594594594e+006	7.73401627689151e-001,3.31088694594461e-001	4.53196744621699e-003,-6.62177389188923e-003
1.65585585585585e+006	7.74969578713812e-001,3.34337692573720e-001	4.50060842572377e-003,-6.68675385147439e-003
1.66576576576576e+006	7.80499889030428e-001,3.36957549357473e-001	4.39000221939144e-003,-6.73915098714946e-003
1.67567567567567e+006	7.87961112098554e-001,3.36912382856309e-001	4.24077775802892e-003,-6.73824765712617e-003
1.68558558558558e+006	7.95332806077030e-001,3.34350502574706e-001	4.09334387845941e-003,-6.68701005149412e-003
1.69549549549549e+006	8.01491375416805e-001,3.30185391210862e-001	3.97017249166391e-003,-6.60370782421723e-003
1.70540540540540e+006	8.05919455043706e-001,3.25650172190592e-001	3.88161089912587e-003,-6.51300344381185e-003
1.71531531531531e+006	8.09089232094770e-001,3.22269258990080e-001	3.81821535810460e-003,-6.44538517980160e-003
1.72522522522522e+006	8.12830999396928e-001,3.20547020923396e-001	3.74338001206143e-003,-6.41094041846792e-003
1.73513513513513e+006	8.18313392234434e-001,3.18993528837343e-001	3.63373215531133e-003,-6.37987057674687e-003
1.74504504504504e+006	8.24795862479885e-001,3.16296739045671e-001	3.50408275040231e-003,-6.32593478091342e-003
1.75495495495495e+006	8.31284498669513e-001,3.12461082518195e-001	3.37431002660973e-003,-6.24922165036389e-003
1.76486486486486e+006	8.37439905102987e-001,3.07959669551347e-001	3.25120189794026e-003,-6.15919339102695e-003
1.77477477477477e+006	8.43354698663990e-001,3.03056848696189e-001	3.13290602672020e-003,-6.06113697392378e-003
1.78468468468468e+006	8.49093772062585e-001,2.97750733479702e-001	3.01812455874830e-003,-5.95501466959404e-003
1.79459459459459e+006	8.54604490228723e-001,2.92044288979691e-001	2.90791019542554e-003,-5.84088577959382e-003
1.80450450450450e+006	8.59852991777960e-001,2.85988879941287e-001	2.80294016444080e-003,-5.71977759882574e-003
1.81441441441441e+006	8.64840279355259e-001,2.79619259718818e-001	2.70319441289483e-003,-5.59238519437636e-003
1.82432432432432e+006	8.69570596791365e-001,2.72937451891991e-001	2.60858806417270e-003,-5.45874903783981e-003
1.83423423423423e+006	8.74031943842164e-001,2.65919072076075e-001	2.51936112315671e-003,-5.31838144152150e-003
1.84414414414414e+006	8.78183537760989e-001,2.58520188042093e-001	2.43632924478022e-003,-5.17040376084186e-003
1.85405405405405e+006	8.81939911124128e-001,2.50684036131373e-001	2.36120177751744e-003,-5.01368072262747e-003
1.86396396396396e+006	8.85144559747411e-001,2.42355615500766e-001	2.29710880505178e-003,-4.84711231001531e-003
