Freq.	V(1|1|1|a)	I(R129)
1.00000000000000e+005	6.12703063664997e-002,6.51301141440160e-002	1.87745938726700e-002,-1.30260228288032e-003
1.09909909909910e+005	6.22382742994979e-002,7.15288346899560e-002	1.87552345140100e-002,-1.43057669379912e-003
1.19819819819820e+005	6.32965526611328e-002,7.79118595106006e-002	1.87340689467773e-002,-1.55823719021201e-003
1.29729729729730e+005	6.44448495904158e-002,8.42777994143321e-002	1.87111030081917e-002,-1.68555598828664e-003
1.39639639639640e+005	6.56828488216691e-002,9.06252718730678e-002	1.86863430235666e-002,-1.81250543746136e-003
1.49549549549550e+005	6.70102098743863e-002,9.69529015466904e-002	1.86597958025123e-002,-1.93905803093381e-003
1.59459459459459e+005	6.84265682571720e-002,1.03259320801233e-001	1.86314686348566e-002,-2.06518641602466e-003
1.69369369369369e+005	6.99315356855336e-002,1.09543170220382e-001	1.86013692862893e-002,-2.19086340440763e-003
1.79279279279279e+005	7.15247003132889e-002,1.15803099109870e-001	1.85695059937342e-002,-2.31606198219740e-003
1.89189189189189e+005	7.32056269773379e-002,1.22037765994351e-001	1.85358874604532e-002,-2.44075531988703e-003
1.99099099099099e+005	7.49738574555306e-002,1.28245839106341e-001	1.85005228508894e-002,-2.56491678212682e-003
2.09009009009009e+005	7.68289107373551e-002,1.34425996866832e-001	1.84634217852529e-002,-2.68851993733663e-003
2.18918918918919e+005	7.87702833071516e-002,1.40576928357198e-001	1.84245943338570e-002,-2.81153856714396e-003
2.28828828828829e+005	8.07974494395517e-002,1.46697333782021e-001	1.83840510112090e-002,-2.93394667564041e-003
2.38738738738739e+005	8.29098615068254e-002,1.52785924922460e-001	1.83418027698635e-002,-3.05571849844921e-003
2.48648648648649e+005	8.51069502978132e-002,1.58841425579842e-001	1.82978609940437e-002,-3.17682851159685e-003
2.58558558558559e+005	8.73881253481020e-002,1.64862572009108e-001	1.82522374930380e-002,-3.29725144018216e-003
2.68468468468468e+005	8.97527752811048e-002,1.70848113341809e-001	1.82049444943779e-002,-3.41696226683619e-003
2.78378378378378e+005	9.22002681596823e-002,1.76796811998344e-001	1.81559946368064e-002,-3.53593623996689e-003
2.88288288288288e+005	9.47299518479485e-002,1.82707444089125e-001	1.81054009630410e-002,-3.65414888178250e-003
2.98198198198198e+005	9.73411543828824e-002,1.88578799804403e-001	1.80531769123424e-002,-3.77157599608806e-003
3.08108108108108e+005	1.00033184355370e-001,1.94409683792481e-001	1.79993363128926e-002,-3.88819367584963e-003
3.18018018018018e+005	1.02805331300290e-001,2.00198915526055e-001	1.79438933739942e-002,-4.00397831052110e-003
3.27927927927928e+005	1.05656866095246e-001,2.05945329656443e-001	1.78868626780951e-002,-4.11890659312887e-003
3.37837837837838e+005	1.08587041367558e-001,2.11647776355486e-001	1.78282591726488e-002,-4.23295552710972e-003
3.47747747747748e+005	1.11595091909093e-001,2.17305121644889e-001	1.77680981618181e-002,-4.34610243289777e-003
3.57657657657657e+005	1.14680235098544e-001,2.22916247712826e-001	1.77063952980291e-002,-4.45832495425653e-003
3.67567567567567e+005	1.17841671330743e-001,2.28480053217617e-001	1.76431665733851e-002,-4.56960106435235e-003
3.77477477477477e+005	1.21078584452581e-001,2.33995453578300e-001	1.75784283109484e-002,-4.67990907156601e-003
3.87387387387387e+005	1.24390142205139e-001,2.39461381251965e-001	1.75121971558972e-002,-4.78922762503930e-003
3.97297297297297e+005	1.27775496671598e-001,2.44876785997691e-001	1.74444900665680e-002,-4.89753571995381e-003
4.07207207207207e+005	1.31233784730515e-001,2.50240635126976e-001	1.73753243053897e-002,-5.00481270253951e-003
4.17117117117117e+005	1.34764128514043e-001,2.55551913740541e-001	1.73047174297191e-002,-5.11103827481083e-003
4.27027027027027e+005	1.38365635870685e-001,2.60809624951419e-001	1.72326872825863e-002,-5.21619249902839e-003
4.36936936936936e+005	1.42037400832149e-001,2.66012790094235e-001	1.71592519833570e-002,-5.32025580188470e-003
4.46846846846846e+005	1.45778504083900e-001,2.71160448920626e-001	1.70844299183220e-002,-5.42320897841252e-003
4.56756756756756e+005	1.49588013438991e-001,2.76251659780730e-001	1.70082397312202e-002,-5.52503319561460e-003
4.66666666666666e+005	1.53464984314763e-001,2.81285499790714e-001	1.69307003137047e-002,-5.62570999581427e-003
4.76576576576576e+005	1.57408460212002e-001,2.86261064986304e-001	1.68518307957600e-002,-5.72522129972608e-003
4.86486486486486e+005	1.61417473196153e-001,2.91177470462307e-001	1.67716505360769e-002,-5.82354940924614e-003
4.96396396396396e+005	1.65491044380187e-001,2.96033850498117e-001	1.66901791123963e-002,-5.92067700996234e-003
5.06306306306306e+005	1.69628184408732e-001,3.00829358669215e-001	1.66074363118254e-002,-6.01658717338430e-003
5.16216216216216e+005	1.73827893943077e-001,3.05563167944681e-001	1.65234421211385e-002,-6.11126335889361e-003
5.26126126126125e+005	1.78089164146663e-001,3.10234470770751e-001	1.64382167170667e-002,-6.20468941541503e-003
5.36036036036035e+005	1.82410977170687e-001,3.14842479140461e-001	1.63517804565863e-002,-6.29684958280921e-003
5.45945945945945e+005	1.86792306639449e-001,3.19386424649413e-001	1.62641538672110e-002,-6.38772849298826e-003
5.55855855855855e+005	1.91232118135088e-001,3.23865558537757e-001	1.61753576372982e-002,-6.47731117075513e-003
5.65765765765765e+005	1.95729369681343e-001,3.28279151718415e-001	1.60854126063731e-002,-6.56558303436831e-003
5.75675675675675e+005	2.00283012226000e-001,3.32626494791668e-001	1.59943397554800e-002,-6.65252989583336e-003
5.85585585585585e+005	2.04891990121688e-001,3.36906898046149e-001	1.59021601975662e-002,-6.73813796092299e-003
5.95495495495495e+005	2.09555241604710e-001,3.41119691446376e-001	1.58088951679058e-002,-6.82239382892751e-003
6.05405405405405e+005	2.14271699271566e-001,3.45264224606882e-001	1.57145660145687e-002,-6.90528449213764e-003
6.15315315315315e+005	2.19040290552902e-001,3.49339866753086e-001	1.56191941889420e-002,-6.98679733506172e-003
6.25225225225225e+005	2.23859938184551e-001,3.53346006668980e-001	1.55228012363090e-002,-7.06692013337960e-003
6.35135135135135e+005	2.28729560675415e-001,3.57282052631765e-001	1.54254087864917e-002,-7.14564105263529e-003
6.45045045045045e+005	2.33648072771904e-001,3.61147432333545e-001	1.53270385445619e-002,-7.22294864667091e-003
6.54954954954955e+005	2.38614385918667e-001,3.64941592790206e-001	1.52277122816267e-002,-7.29883185580412e-003
6.64864864864865e+005	2.43627408715389e-001,3.68664000237578e-001	1.51274518256922e-002,-7.37328000475155e-003
6.74774774774775e+005	2.48686047369405e-001,3.72314140015030e-001	1.50262790526119e-002,-7.44628280030061e-003
6.84684684684685e+005	2.53789206143917e-001,3.75891516436598e-001	1.49242158771217e-002,-7.51783032873195e-003
6.94594594594594e+005	2.58935787801617e-001,3.79395652649759e-001	1.48212842439677e-002,-7.58791305299519e-003
7.04504504504504e+005	2.64124694043515e-001,3.82826090481998e-001	1.47175061191297e-002,-7.65652180963996e-003
7.14414414414414e+005	2.69354825942803e-001,3.86182390275231e-001	1.46129034811439e-002,-7.72364780550461e-003
7.24324324324324e+005	2.74625084373604e-001,3.89464130708236e-001	1.45074983125279e-002,-7.78928261416472e-003
7.34234234234234e+005	2.79934370434445e-001,3.92670908607164e-001	1.44013125913111e-002,-7.85341817214329e-003
7.44144144144144e+005	2.85281585866345e-001,3.95802338744225e-001	1.42943682826731e-002,-7.91604677488450e-003
7.54054054054054e+005	2.90665633465402e-001,3.98858053624636e-001	1.41866873306920e-002,-7.97716107249273e-003
7.63963963963964e+005	2.96085417489791e-001,4.01837703261899e-001	1.40782916502042e-002,-8.03675406523798e-003
7.73873873873874e+005	3.01539844061092e-001,4.04740954941456e-001	1.39692031187782e-002,-8.09481909882913e-003
7.83783783783784e+005	3.07027821559918e-001,4.07567492972782e-001	1.38594435688016e-002,-8.15134985945565e-003
7.93693693693694e+005	3.12548261015788e-001,4.10317018429911e-001	1.37490347796842e-002,-8.20634036859822e-003
8.03603603603604e+005	3.18100076491241e-001,4.12989248880424e-001	1.36379984701752e-002,-8.25978497760847e-003
8.13513513513514e+005	3.23682185460220e-001,4.15583918102862e-001	1.35263562907956e-002,-8.31167836205725e-003
8.23423423423424e+005	3.29293509180734e-001,4.18100775792538e-001	1.34141298163853e-002,-8.36201551585075e-003
8.33333333333334e+005	3.34932973061883e-001,4.20539587255640e-001	1.33013405387623e-002,-8.41079174511280e-003
8.43243243243244e+005	3.40599507025319e-001,4.22900133091568e-001	1.31880098594936e-002,-8.45800266183137e-003
8.53153153153153e+005	3.46292045861270e-001,4.25182208863320e-001	1.30741590827746e-002,-8.50364417726641e-003
8.63063063063063e+005	3.52009529579250e-001,4.27385624755769e-001	1.29598094084150e-002,-8.54771249511538e-003
8.72972972972973e+005	3.57750903753667e-001,4.29510205221595e-001	1.28449819249267e-002,-8.59020410443191e-003
8.82882882882883e+005	3.63515119864508e-001,4.31555788614609e-001	1.27296976027098e-002,-8.63111577229219e-003
8.92792792792793e+005	3.69301135633360e-001,4.33522226810109e-001	1.26139772873328e-002,-8.67044453620219e-003
9.02702702702703e+005	3.75107915355069e-001,4.35409384811901e-001	1.24978416928986e-002,-8.70818769623801e-003
9.12612612612613e+005	3.80934430225341e-001,4.37217140345495e-001	1.23813113954932e-002,-8.74434280690991e-003
9.22522522522523e+005	3.86779658664690e-001,4.38945383436952e-001	1.22644068267062e-002,-8.77890766873904e-003
9.32432432432433e+005	3.92642586639136e-001,4.40594015976716e-001	1.21471482672173e-002,-8.81188031953432e-003
9.42342342342343e+005	3.98522207978165e-001,4.42162951267729e-001	1.20295558404367e-002,-8.84325902535458e-003
9.52252252252253e+005	4.04417524690471e-001,4.43652113556955e-001	1.19116495061906e-002,-8.87304227113909e-003
9.62162162162163e+005	4.10327547278114e-001,4.45061437549349e-001	1.17934490544377e-002,-8.90122875098697e-003
9.72072072072073e+005	4.16251295049770e-001,4.46390867903149e-001	1.16749740990046e-002,-8.92781735806298e-003
9.81981981981983e+005	4.22187796433853e-001,4.47640358705210e-001	1.15562440713229e-002,-8.95280717410419e-003
9.91891891891893e+005	4.28136089292363e-001,4.48809872924901e-001	1.14372782141527e-002,-8.97619745849802e-003
1.00180180180180e+006	4.34095221236441e-001,4.49899381844908e-001	1.13180955752712e-002,-8.99798763689817e-003
1.01171171171171e+006	4.40064249944694e-001,4.50908864467006e-001	1.11987150011061e-002,-9.01817728934013e-003
1.02162162162162e+006	4.46042243485514e-001,4.51838306890617e-001	1.10791551302897e-002,-9.03676613781234e-003
1.03153153153153e+006	4.52028280644737e-001,4.52687701661647e-001	1.09594343871053e-002,-9.05375403323294e-003
1.04144144144144e+006	4.58021451260165e-001,4.53457047088747e-001	1.08395709747967e-002,-9.06914094177494e-003
1.05135135135135e+006	4.64020856564638e-001,4.54146346523704e-001	1.07195828687072e-002,-9.08292693047408e-003
1.06126126126126e+006	4.70025609539578e-001,4.54755607602220e-001	1.05994878092084e-002,-9.09511215204439e-003
1.07117117117117e+006	4.76034835281141e-001,4.55284841440768e-001	1.04793032943772e-002,-9.10569682881536e-003
1.08108108108108e+006	4.82047671381373e-001,4.55734061784581e-001	1.03590465723725e-002,-9.11468123569162e-003
1.09099099099099e+006	4.88063268327108e-001,4.56103284101078e-001	1.02387346334578e-002,-9.12206568202156e-003
1.10090090090090e+006	4.94080789919634e-001,4.56392524612169e-001	1.01183842016073e-002,-9.12785049224339e-003
1.11081081081081e+006	5.00099413718609e-001,4.56601799257873e-001	9.99801172562781e-003,-9.13203598515746e-003
1.12072072072072e+006	5.06118331514104e-001,4.56731122582465e-001	9.87763336971792e-003,-9.13462245164930e-003
1.13063063063063e+006	5.12136749831207e-001,4.56780506532997e-001	9.75726500337586e-003,-9.13561013065994e-003
1.14054054054054e+006	5.18153890472205e-001,4.56749959158355e-001	9.63692219055591e-003,-9.13499918316710e-003
1.15045045045045e+006	5.24168991102020e-001,4.56639483195060e-001	9.51662017795961e-003,-9.13278966390120e-003
1.16036036036036e+006	5.30181305883397e-001,4.56449074523682e-001	9.39637388233205e-003,-9.12898149047364e-003
1.17027027027027e+006	5.36190106169209e-001,4.56178720476944e-001	9.27619787661583e-003,-9.12357440953888e-003
1.18018018018018e+006	5.42194681260296e-001,4.55828397977253e-001	9.15610637479407e-003,-9.11656795954506e-003
1.19009009009009e+006	5.48194339238472e-001,4.55398071477366e-001	9.03611321523056e-003,-9.10796142954733e-003
1.20000000000000e+006	5.54188407885668e-001,4.54887690673056e-001	8.91623184228664e-003,-9.09775381346111e-003
1.20990990990991e+006	5.60176235701827e-001,4.54297187950725e-001	8.79647528596346e-003,-9.08594375901450e-003
1.21981981981982e+006	5.66157193035952e-001,4.53626475525780e-001	8.67685613928095e-003,-9.07252951051559e-003
1.22972972972973e+006	5.72130673346853e-001,4.52875442218741e-001	8.55738653306294e-003,-9.05750884437483e-003
1.23963963963964e+006	5.78096094612526e-001,4.52043949805341e-001	8.43807810774948e-003,-9.04087899610682e-003
1.24954954954955e+006	5.84052900909893e-001,4.51131828863443e-001	8.31894198180215e-003,-9.02263657726885e-003
1.25945945945946e+006	5.90000564189734e-001,4.50138874023131e-001	8.19998871620531e-003,-9.00277748046262e-003
1.26936936936937e+006	5.95938586275214e-001,4.49064838505596e-001	8.08122827449573e-003,-8.98129677011191e-003
1.27927927927928e+006	6.01866501116295e-001,4.47909427810492e-001	7.96266997767409e-003,-8.95818855620985e-003
1.28918918918919e+006	6.07783877336678e-001,4.46672292378706e-001	7.84432245326644e-003,-8.93344584757413e-003
1.29909909909910e+006	6.13690321114388e-001,4.45353019015779e-001	7.72619357771225e-003,-8.90706038031558e-003
1.30900900900901e+006	6.19585479441811e-001,4.43951120808043e-001	7.60829041116378e-003,-8.87902241616087e-003
1.31891891891892e+006	6.25469043815187e-001,4.42466025194983e-001	7.49061912369626e-003,-8.84932050389966e-003
1.32882882882883e+006	6.31340754406863e-001,4.40897059772501e-001	7.37318491186274e-003,-8.81794119545002e-003
1.33873873873874e+006	6.37200404774676e-001,4.39243435285805e-001	7.25599190450648e-003,-8.78486870571610e-003
1.34864864864865e+006	6.43047847159794e-001,4.37504225117975e-001	7.13904305680412e-003,-8.75008450235951e-003
1.35855855855856e+006	6.48882998414017e-001,4.35678340377771e-001	7.02234003171966e-003,-8.71356680755542e-003
1.36846846846847e+006	6.54705846574505e-001,4.33764499419292e-001	6.90588306850989e-003,-8.67528998838583e-003
1.37837837837838e+006	6.60516458059583e-001,4.31761190260285e-001	6.78967083880834e-003,-8.63522380520571e-003
1.38828828828829e+006	6.66314985378967e-001,4.29666623867383e-001	6.67370029242067e-003,-8.59333247734765e-003
1.39819819819820e+006	6.72101675111520e-001,4.27478675590505e-001	6.55796649776961e-003,-8.54957351181011e-003
1.40810810810811e+006	6.77876875662761e-001,4.25194811074920e-001	6.44246248674478e-003,-8.50389622149840e-003
1.41801801801802e+006	6.83641043904068e-001,4.22811991639356e-001	6.32717912191864e-003,-8.45623983278712e-003
1.42792792792793e+006	6.89394749097655e-001,4.20326552205381e-001	6.21210501804689e-003,-8.40653104410762e-003
1.43783783783784e+006	6.95138671319979e-001,4.17734042130437e-001	6.09722657360042e-003,-8.35468084260874e-003
1.44774774774775e+006	7.00873589546827e-001,4.15029015330677e-001	5.98252820906346e-003,-8.30058030661354e-003
1.45765765765766e+006	7.06600350999504e-001,4.12204750264886e-001	5.86799298000991e-003,-8.24409500529771e-003
1.46756756756756e+006	7.12319807067484e-001,4.09252871752320e-001	5.75360385865032e-003,-8.18505743504641e-003
1.47747747747747e+006	7.18032689857558e-001,4.06162833811889e-001	5.63934620284885e-003,-8.12325667623779e-003
1.48738738738738e+006	7.23739382836898e-001,4.02921203705694e-001	5.52521234326203e-003,-8.05842407411388e-003
1.49729729729729e+006	7.29439500629785e-001,3.99510659463964e-001	5.41120998740430e-003,-7.99021318927928e-003
1.50720720720720e+006	7.35131119718559e-001,3.95908573715726e-001	5.29737760562882e-003,-7.91817147431452e-003
1.51711711711711e+006	7.40809358618840e-001,3.92085006398117e-001	5.18381282762320e-003,-7.84170012796235e-003
1.52702702702702e+006	7.46463720508069e-001,3.87999884505836e-001	5.07072558983861e-003,-7.75999769011671e-003
1.53693693693693e+006	7.52073033581289e-001,3.83599183827240e-001	4.95853932837422e-003,-7.67198367654480e-003
1.54684684684684e+006	7.57595661224412e-001,3.78810321430005e-001	4.84808677551176e-003,-7.57620642860011e-003
1.55675675675675e+006	7.62950437934701e-001,3.73538649012139e-001	4.74099124130599e-003,-7.47077298024277e-003
1.56666666666666e+006	7.67980426223464e-001,3.67672829293339e-001	4.64039147553072e-003,-7.35345658586678e-003
1.57657657657657e+006	7.72391524815525e-001,3.61124784983778e-001	4.55216950368950e-003,-7.22249569967555e-003
1.58648648648648e+006	7.75689477720129e-001,3.53970082587787e-001	4.48621044559742e-003,-7.07940165175574e-003
1.59639639639639e+006	7.77292558048655e-001,3.46758951859606e-001	4.45414883902690e-003,-6.93517903719212e-003
1.60630630630630e+006	7.77203537412913e-001,3.40654550375494e-001	4.45592925174174e-003,-6.81309100750988e-003
1.61621621621621e+006	7.76594640633368e-001,3.36312875822608e-001	4.46810718733263e-003,-6.72625751645215e-003
1.62612612612612e+006	7.76110697650531e-001,3.32908622821870e-001	4.47778604698939e-003,-6.65817245643739e-003
1.63603603603603e+006	7.74826546616857e-001,3.30532281093951e-001	4.50346906766285e-003,-6.61064562187903e-003
1.64594594594594e+006	7.73413232150047e-001,3.31095231355995e-001	4.53173535699906e-003,-6.62190462711990e-003
1.65585585585585e+006	7.74985609972497e-001,3.34327633289402e-001	4.50028780055005e-003,-6.68655266578804e-003
1.66576576576576e+006	7.80507403851210e-001,3.36934757650070e-001	4.38985192297580e-003,-6.73869515300141e-003
1.67567567567567e+006	7.87957185874548e-001,3.36886351584544e-001	4.24085628250905e-003,-6.73772703169088e-003
1.68558558558558e+006	7.95320181834719e-001,3.34327389873153e-001	4.09359636330561e-003,-6.68654779746307e-003
1.69549549549549e+006	8.01474294297674e-001,3.30168548520846e-001	3.97051411404653e-003,-6.60337097041691e-003
1.70540540540540e+006	8.05903965839586e-001,3.25640387783261e-001	3.88192068320827e-003,-6.51280775566522e-003
1.71531531531531e+006	8.09081207435303e-001,3.22261225879943e-001	3.81837585129394e-003,-6.44522451759886e-003
1.72522522522522e+006	8.12827757789259e-001,3.20532071916898e-001	3.74344484421482e-003,-6.41064143833796e-003
1.73513513513513e+006	8.18306810171726e-001,3.18971297650629e-001	3.63386379656548e-003,-6.37942595301258e-003
1.74504504504504e+006	8.24783323314486e-001,3.16272319698111e-001	3.50433353371027e-003,-6.32544639396221e-003
1.75495495495495e+006	8.31267711574865e-001,3.12437509667741e-001	3.37464576850271e-003,-6.24875019335482e-003
1.76486486486486e+006	8.37420765979550e-001,3.07937153822430e-001	3.25158468040900e-003,-6.15874307644861e-003
1.77477477477477e+006	8.43333582106008e-001,3.03034755460896e-001	3.13332835787984e-003,-6.06069510921792e-003
1.78468468468468e+006	8.49070477069973e-001,2.97729131235551e-001	3.01859045860054e-003,-5.95458262471101e-003
1.79459459459459e+006	8.54579136925620e-001,2.92023444168629e-001	2.90841726148760e-003,-5.84046888337259e-003
1.80450450450450e+006	8.59825753597269e-001,2.85968864055270e-001	2.80348492805462e-003,-5.71937728110540e-003
1.81441441441441e+006	8.64811189874546e-001,2.79600066244001e-001	2.70377620250908e-003,-5.59200132488002e-003
1.82432432432432e+006	8.69539550588813e-001,2.72919117802833e-001	2.60920898822374e-003,-5.45838235605667e-003
1.83423423423423e+006	8.73998727466400e-001,2.65901745738965e-001	2.52002545067199e-003,-5.31803491477930e-003
1.84414414414414e+006	8.78147854865871e-001,2.58504196016961e-001	2.43704290268257e-003,-5.17008392033922e-003
1.85405405405405e+006	8.81901423069402e-001,2.50669989110027e-001	2.36197153861196e-003,-5.01339978220054e-003
1.86396396396396e+006	8.85103004080811e-001,2.42344583996817e-001	2.29793991838378e-003,-4.84689167993634e-003
