Freq.	V(1|1|1|b)	I(R129)
1.00000000000000e+005	4.56982313768874e-002,1.42074563601231e-001	1.90860353724623e-002,-2.84149127202462e-003
1.09909909909910e+005	5.00212433914646e-002,1.55506119962514e-001	1.89995751321707e-002,-3.11012239925029e-003
1.19819819819820e+005	5.47154448726616e-002,1.68760156717253e-001	1.89056911025468e-002,-3.37520313434505e-003
1.29729729729730e+005	5.97713628945411e-002,1.81823280719597e-001	1.88045727421092e-002,-3.63646561439194e-003
1.39639639639640e+005	6.51789256929837e-002,1.94682720730504e-001	1.86964214861403e-002,-3.89365441461008e-003
1.49549549549550e+005	7.09275106254522e-002,2.07326357872426e-001	1.85814497874910e-002,-4.14652715744851e-003
1.59459459459459e+005	7.70059936754228e-002,2.19742751889455e-001	1.84598801264915e-002,-4.39485503778911e-003
1.69369369369369e+005	8.34028000969243e-002,2.31921163159304e-001	1.83319439980615e-002,-4.63842326318608e-003
1.79279279279279e+005	9.01059557983966e-002,2.43851570446477e-001	1.81978808840321e-002,-4.87703140892955e-003
1.89189189189189e+005	9.71031390739866e-002,2.55524684427099e-001	1.80579372185203e-002,-5.11049368854197e-003
1.99099099099099e+005	1.04381732303853e-001,2.66931957054467e-001	1.79123653539229e-002,-5.33863914108933e-003
2.09009009009009e+005	1.11928873262484e-001,2.78065586870259e-001	1.77614225347503e-002,-5.56131173740518e-003
2.18918918918919e+005	1.19731505694901e-001,2.88918520398959e-001	1.76053698861020e-002,-5.77837040797917e-003
2.28828828828829e+005	1.27776428844437e-001,2.99484449792274e-001	1.74444714231113e-002,-5.98968899584549e-003
2.38738738738739e+005	1.36050345641908e-001,3.09757806915885e-001	1.72789930871618e-002,-6.19515613831769e-003
2.48648648648649e+005	1.44539909293990e-001,3.19733754092590e-001	1.71092018141202e-002,-6.39467508185180e-003
2.58558558558559e+005	1.53231768037881e-001,3.29408171733890e-001	1.69353646392424e-002,-6.58816343467779e-003
2.68468468468468e+005	1.62112607859386e-001,3.38777643106087e-001	1.67577478428123e-002,-6.77555286212175e-003
2.78378378378378e+005	1.71169193001884e-001,3.47839436487397e-001	1.65766161399623e-002,-6.95678872974794e-003
2.88288288288288e+005	1.80388404123843e-001,3.56591484979247e-001	1.63922319175231e-002,-7.13182969958494e-003
2.98198198198198e+005	1.89757273992171e-001,3.65032364238322e-001	1.62048545201566e-002,-7.30064728476643e-003
3.08108108108108e+005	1.99263020627357e-001,3.73161268396005e-001	1.60147395874529e-002,-7.46322536792010e-003
3.18018018018018e+005	2.08893077843831e-001,3.80977984429084e-001	1.58221384431234e-002,-7.61955968858167e-003
3.27927927927928e+005	2.18635123154884e-001,3.88482865240137e-001	1.56272975369023e-002,-7.76965730480274e-003
3.37837837837838e+005	2.28477103035695e-001,3.95676801698246e-001	1.54304579392861e-002,-7.91353603396492e-003
3.47747747747748e+005	2.38407255560312e-001,4.02561193880834e-001	1.52318548887938e-002,-8.05122387761669e-003
3.57657657657657e+005	2.48414130448733e-001,4.09137921745929e-001	1.50317173910253e-002,-8.18275843491859e-003
3.67567567567567e+005	2.58486606578403e-001,4.15409315451171e-001	1.48302678684319e-002,-8.30818630902342e-003
3.77477477477477e+005	2.68613907030518e-001,4.21378125521865e-001	1.46277218593896e-002,-8.42756251043731e-003
3.87387387387387e+005	2.78785611755451e-001,4.27047493055484e-001	1.44242877648910e-002,-8.54094986110968e-003
3.97297297297297e+005	2.88991667953439e-001,4.32420920134594e-001	1.42201666409312e-002,-8.64841840269188e-003
4.07207207207207e+005	2.99222398276497e-001,4.37502240604462e-001	1.40155520344701e-002,-8.75004481208924e-003
4.17117117117117e+005	3.09468506965331e-001,4.42295591355749e-001	1.38106298606934e-002,-8.84591182711497e-003
4.27027027027027e+005	3.19721084041078e-001,4.46805384237014e-001	1.36055783191784e-002,-8.93610768474029e-003
4.36936936936936e+005	3.29971607675946e-001,4.51036278706345e-001	1.34005678464811e-002,-9.02072557412689e-003
4.46846846846846e+005	3.40211944869539e-001,4.54993155316433e-001	1.31957611026092e-002,-9.09986310632867e-003
4.56756756756756e+005	3.50434350558889e-001,4.58681090113089e-001	1.29913129888222e-002,-9.17362180226178e-003
4.66666666666666e+005	3.60631465290136e-001,4.62105330013393e-001	1.27873706941973e-002,-9.24210660026786e-003
4.76576576576576e+005	3.70796311578589e-001,4.65271269216810e-001	1.25840737684282e-002,-9.30542538433620e-003
4.86486486486486e+005	3.80922289081590e-001,4.68184426690411e-001	1.23815542183682e-002,-9.36368853380821e-003
4.96396396396396e+005	3.91003168705540e-001,4.70850424758104e-001	1.21799366258892e-002,-9.41700849516207e-003
5.06306306306306e+005	4.01033085764474e-001,4.73274968813408e-001	1.19793382847105e-002,-9.46549937626815e-003
5.16216216216216e+005	4.11006532303136e-001,4.75463828165828e-001	1.17798693539373e-002,-9.50927656331656e-003
5.26126126126125e+005	4.20918348692445e-001,4.77422818022334e-001	1.15816330261511e-002,-9.54845636044668e-003
5.36036036036035e+005	4.30763714599874e-001,4.79157782597756e-001	1.13847257080025e-002,-9.58315565195512e-003
5.45945945945945e+005	4.40538139431575e-001,4.80674579341108e-001	1.11892372113685e-002,-9.61349158682217e-003
5.55855855855855e+005	4.50237452337169e-001,4.81979064258864e-001	1.09952509532566e-002,-9.63958128517728e-003
5.65765765765765e+005	4.59857791862203e-001,4.83077078311026e-001	1.08028441627559e-002,-9.66154156622051e-003
5.75675675675675e+005	4.69395595327155e-001,4.83974434851395e-001	1.06120880934569e-002,-9.67948869702790e-003
5.85585585585585e+005	4.78847588005948e-001,4.84676908079733e-001	1.04230482398810e-002,-9.69353816159467e-003
5.95495495495495e+005	4.88210772170943e-001,4.85190222470425e-001	1.02357845565811e-002,-9.70380444940849e-003
6.05405405405405e+005	4.97482416065669e-001,4.85520043139800e-001	1.00503516786866e-002,-9.71040086279600e-003
6.15315315315315e+005	5.06660042860841e-001,4.85671967112383e-001	9.86679914278318e-003,-9.71343934224767e-003
6.25225225225225e+005	5.15741419643880e-001,4.85651515444917e-001	9.68517160712241e-003,-9.71303030889834e-003
6.35135135135135e+005	5.24724546486896e-001,4.85464126166093e-001	9.50550907026209e-003,-9.70928252332186e-003
6.45045045045045e+005	5.33607645633204e-001,4.85115147989388e-001	9.32784708733592e-003,-9.70230295978776e-003
6.54954954954955e+005	5.42389150837716e-001,4.84609834756236e-001	9.15221698324567e-003,-9.69219669512472e-003
6.64864864864865e+005	5.51067696892181e-001,4.83953340566932e-001	8.97864606215637e-003,-9.67906681133864e-003
6.74774774774775e+005	5.59642109362093e-001,4.83150715557085e-001	8.80715781275815e-003,-9.66301431114171e-003
6.84684684684685e+005	5.68111394558235e-001,4.82206902278128e-001	8.63777210883529e-003,-9.64413804556255e-003
6.94594594594594e+005	5.76474729762269e-001,4.81126732641248e-001	8.47050540475462e-003,-9.62253465282496e-003
7.04504504504504e+005	5.84731453722440e-001,4.79914925385181e-001	8.30537092555119e-003,-9.59829850770362e-003
7.14414414414414e+005	5.92881057432478e-001,4.78576084029453e-001	8.14237885135044e-003,-9.57152168058907e-003
7.24324324324324e+005	6.00923175203949e-001,4.77114695276002e-001	7.98153649592102e-003,-9.54229390552003e-003
7.34234234234234e+005	6.08857576039824e-001,4.75535127823448e-001	7.82284847920352e-003,-9.51070255646895e-003
7.44144144144144e+005	6.16684155314706e-001,4.73841631559774e-001	7.66631689370588e-003,-9.47683263119548e-003
7.54054054054054e+005	6.24402926765112e-001,4.72038337100627e-001	7.51194146469776e-003,-9.44076674201253e-003
7.63963963963964e+005	6.32014014791346e-001,4.70129255641985e-001	7.35971970417308e-003,-9.40258511283969e-003
7.73873873873874e+005	6.39517647070850e-001,4.68118279097476e-001	7.20964705858299e-003,-9.36236558194953e-003
7.83783783783784e+005	6.46914147481462e-001,4.66009180492117e-001	7.06171705037076e-003,-9.32018360984234e-003
7.93693693693694e+005	6.54203929331714e-001,4.63805614585763e-001	6.91592141336571e-003,-9.27611229171526e-003
8.03603603603604e+005	6.61387488894203e-001,4.61511118701048e-001	6.77225022211595e-003,-9.23022237402096e-003
8.13513513513514e+005	6.68465399237068e-001,4.59129113732002e-001	6.63069201525864e-003,-9.18258227464005e-003
8.23423423423424e+005	6.75438304347807e-001,4.56662905310951e-001	6.49123391304385e-003,-9.13325810621901e-003
8.33333333333334e+005	6.82306913542940e-001,4.54115685112628e-001	6.35386172914120e-003,-9.08231370225257e-003
8.43243243243244e+005	6.89071996156444e-001,4.51490532275746e-001	6.21856007687111e-003,-9.02981064551492e-003
8.53153153153153e+005	6.95734376499426e-001,4.48790414923458e-001	6.08531247001148e-003,-8.97580829846916e-003
8.63063063063063e+005	7.02294929083079e-001,4.46018191765350e-001	5.95410141833842e-003,-8.92036383530701e-003
8.72972972972973e+005	7.08754574096710e-001,4.43176613764672e-001	5.82490851806580e-003,-8.86353227529345e-003
8.82882882882883e+005	7.15114273132382e-001,4.40268325855550e-001	5.69771453735237e-003,-8.80536651711099e-003
8.92792792792793e+005	7.21375025147575e-001,4.37295868695887e-001	5.57249949704849e-003,-8.74591737391775e-003
9.02702702702703e+005	7.27537862657192e-001,4.34261680442550e-001	5.44924274685616e-003,-8.68523360885099e-003
9.12612612612613e+005	7.33603848146184e-001,4.31168098536214e-001	5.32792303707631e-003,-8.62336197072429e-003
9.22522522522523e+005	7.39574070694119e-001,4.28017361484040e-001	5.20851858611763e-003,-8.56034722968081e-003
9.32432432432433e+005	7.45449642803038e-001,4.24811610628942e-001	5.09100714393923e-003,-8.49623221257884e-003
9.42342342342343e+005	7.51231697420095e-001,4.21552891894851e-001	4.97536605159809e-003,-8.43105783789703e-003
9.52252252252253e+005	7.56921385146535e-001,4.18243157497850e-001	4.86157229706931e-003,-8.36486314995701e-003
9.62162162162163e+005	7.62519871624793e-001,4.14884267613474e-001	4.74960256750414e-003,-8.29768535226949e-003
9.72072072072073e+005	7.68028335095635e-001,4.11477991990839e-001	4.63943329808731e-003,-8.22955983981679e-003
9.81981981981983e+005	7.73447964117462e-001,4.08026011504488e-001	4.53104071765076e-003,-8.16052023008975e-003
9.91891891891893e+005	7.78779955440135e-001,4.04529919635017e-001	4.42440089119731e-003,-8.09059839270033e-003
1.00180180180180e+006	7.84025512025886e-001,4.00991223869630e-001	4.31948975948229e-003,-8.01982447739260e-003
1.01171171171171e+006	7.89185841210132e-001,3.97411347013718e-001	4.21628317579737e-003,-7.94822694027437e-003
1.02162162162162e+006	7.94262152995238e-001,3.93791628404449e-001	4.11475694009524e-003,-7.87583256808898e-003
1.03153153153153e+006	7.99255658470550e-001,3.90133325017095e-001	4.01488683058900e-003,-7.80266650034190e-003
1.04144144144144e+006	8.04167568352243e-001,3.86437612454472e-001	3.91664863295515e-003,-7.72875224908944e-003
1.05135135135135e+006	8.08999091636804e-001,3.82705585809343e-001	3.82001816726393e-003,-7.65411171618686e-003
1.06126126126126e+006	8.13751434362226e-001,3.78938260389007e-001	3.72497131275549e-003,-7.57876520778013e-003
1.07117117117117e+006	8.18425798471218e-001,3.75136572290461e-001	3.63148403057563e-003,-7.50273144580923e-003
1.08108108108108e+006	8.23023380771013e-001,3.71301378813549e-001	3.53953238457974e-003,-7.42602757627098e-003
1.09099099099099e+006	8.27545371984572e-001,3.67433458698251e-001	3.44909256030856e-003,-7.34866917396502e-003
1.10090090090090e+006	8.31992955888250e-001,3.63533512170869e-001	3.36014088223499e-003,-7.27067024341738e-003
1.11081081081081e+006	8.36367308531179e-001,3.59602160782093e-001	3.27265382937641e-003,-7.19204321564187e-003
1.12072072072072e+006	8.40669597531874e-001,3.55639947017900e-001	3.18660804936251e-003,-7.11279894035800e-003
1.13063063063063e+006	8.44900981447756e-001,3.51647333661807e-001	3.10198037104488e-003,-7.03294667323613e-003
1.14054054054054e+006	8.49062609213477e-001,3.47624702884149e-001	3.01874781573046e-003,-6.95249405768298e-003
1.15045045045045e+006	8.53155619644114e-001,3.43572355030677e-001	2.93688760711772e-003,-6.87144710061354e-003
1.16036036036036e+006	8.57181140999428e-001,3.39490507078775e-001	2.85637718001144e-003,-6.78981014157551e-003
1.17027027027027e+006	8.61140290605530e-001,3.35379290724921e-001	2.77719418788940e-003,-6.70758581449842e-003
1.18018018018018e+006	8.65034174530366e-001,3.31238750061414e-001	2.69931650939267e-003,-6.62477500122828e-003
1.19009009009009e+006	8.68863887309484e-001,3.27068838793816e-001	2.62272225381032e-003,-6.54137677587632e-003
1.20000000000000e+006	8.72630511718530e-001,3.22869416942669e-001	2.54738976562940e-003,-6.45738833885337e-003
1.20990990990991e+006	8.76335118588855e-001,3.18640246963681e-001	2.47329762822291e-003,-6.37280493927362e-003
1.21981981981982e+006	8.79978766662417e-001,3.14380989209343e-001	2.40042466675167e-003,-6.28761978418686e-003
1.22972972972973e+006	8.83562502481903e-001,3.10091196641416e-001	2.32874995036193e-003,-6.20182393282831e-003
1.23963963963964e+006	8.87087360311523e-001,3.05770308687437e-001	2.25825279376955e-003,-6.11540617374873e-003
1.24954954954955e+006	8.90554362083289e-001,3.01417644114608e-001	2.18891275833422e-003,-6.02835288229216e-003
1.25945945945946e+006	8.93964517362689e-001,2.97032392770344e-001	2.12070965274621e-003,-5.94064785540687e-003
1.26936936936937e+006	8.97318823326319e-001,2.92613606009235e-001	2.05362353347363e-003,-5.85227212018471e-003
1.27927927927928e+006	9.00618264742306e-001,2.88160185589871e-001	1.98763470515387e-003,-5.76320371179743e-003
1.28918918918919e+006	9.03863813941870e-001,2.83670870779937e-001	1.92272372116259e-003,-5.67341741559874e-003
1.29909909909910e+006	9.07056430766967e-001,2.79144223351962e-001	1.85887138466066e-003,-5.58288446703924e-003
1.30900900900901e+006	9.10197062474334e-001,2.74578610081761e-001	1.79605875051332e-003,-5.49157220163522e-003
1.31891891891892e+006	9.13286643569809e-001,2.69972182272820e-001	1.73426712860382e-003,-5.39944364545640e-003
1.32882882882883e+006	9.16326095537886e-001,2.65322851716921e-001	1.67347808924228e-003,-5.30645703433842e-003
1.33873873873874e+006	9.19316326419060e-001,2.60628262356496e-001	1.61367347161881e-003,-5.21256524712993e-003
1.34864864864865e+006	9.22258230170094e-001,2.55885756726995e-001	1.55483539659812e-003,-5.11771513453990e-003
1.35855855855856e+006	9.25152685717705e-001,2.51092336013395e-001	1.49694628564590e-003,-5.02184672026790e-003
1.36846846846847e+006	9.28000555580998e-001,2.46244612233511e-001	1.43998888838003e-003,-4.92489224467023e-003
1.37837837837838e+006	9.30802683887351e-001,2.41338750633117e-001	1.38394632225298e-003,-4.82677501266234e-003
1.38828828828829e+006	9.33559893532582e-001,2.36370399802818e-001	1.32880212934837e-003,-4.72740799605637e-003
1.39819819819820e+006	9.36272982127403e-001,2.31334606244011e-001	1.27454035745193e-003,-4.62669212488022e-003
1.40810810810811e+006	9.38942716209331e-001,2.26225709032597e-001	1.22114567581338e-003,-4.52451418065195e-003
1.41801801801802e+006	9.41569822952247e-001,2.21037208721679e-001	1.16860354095506e-003,-4.42074417443357e-003
1.42792792792793e+006	9.44154978224898e-001,2.15761602485679e-001	1.11690043550204e-003,-4.31523204971358e-003
1.43783783783784e+006	9.46698789251361e-001,2.10390174423546e-001	1.06602421497277e-003,-4.20780348847092e-003
1.44774774774775e+006	9.49201769168106e-001,2.04912725408083e-001	1.01596461663787e-003,-4.09825450816167e-003
1.45765765765766e+006	9.51664299202023e-001,1.99317220080652e-001	9.66714015959547e-004,-3.98634440161303e-003
1.46756756756756e+006	9.54086571556241e-001,1.93589318193623e-001	9.18268568875189e-004,-3.87178636387246e-003
1.47747747747747e+006	9.56468501534031e-001,1.87711741181947e-001	8.70629969319383e-004,-3.75423482363895e-003
1.48738738738738e+006	9.58809589305176e-001,1.81663398508768e-001	8.23808213896489e-004,-3.63326797017537e-003
1.49729729729729e+006	9.61108696693236e-001,1.75418154492758e-001	7.77826066135274e-004,-3.50836308985517e-003
1.50720720720720e+006	9.63363675395716e-001,1.68943040743814e-001	7.32726492085685e-004,-3.37886081487627e-003
1.51711711711711e+006	9.65570724448106e-001,1.62195583684013e-001	6.88585511037871e-004,-3.24391167368026e-003
1.52702702702702e+006	9.67723229297763e-001,1.55119661694857e-001	6.45535414044742e-004,-3.10239323389714e-003
1.53693693693693e+006	9.69809547738331e-001,1.47638801204891e-001	6.03809045233377e-004,-2.95277602409781e-003
1.54684684684684e+006	9.71808495907468e-001,1.39644756717390e-001	5.63830081850649e-004,-2.79289513434781e-003
1.55675675675675e+006	9.73679340406601e-001,1.30976816398180e-001	5.26413191867987e-004,-2.61953632796360e-003
1.56666666666666e+006	9.75337092625097e-001,1.21381423348047e-001	4.93258147498055e-004,-2.42762846696095e-003
1.57657657657657e+006	9.76582284712302e-001,1.10426484188232e-001	4.68354305753953e-004,-2.20852968376464e-003
1.58648648648648e+006	9.76859810005385e-001,9.73062898420712e-002	4.62803799892288e-004,-1.94612579684142e-003
1.59639639639639e+006	9.74194441031520e-001,8.04604335341505e-002	5.16111179369594e-004,-1.60920867068301e-003
1.60630630630630e+006	9.59419726158100e-001,5.95195802519191e-002	8.11605476837993e-004,-1.19039160503838e-003
1.61621621621621e+006	9.28635460843961e-001,7.35714844933641e-002	1.42729078312077e-003,-1.47142968986728e-003
1.62612612612612e+006	9.54780274083519e-001,7.92095294594162e-002	9.04394518329625e-004,-1.58419058918832e-003
1.63603603603603e+006	9.60717260594356e-001,4.91048750752565e-002	7.85654788112871e-004,-9.82097501505130e-004
1.64594594594594e+006	9.38656905002572e-001,9.28684443612046e-003	1.22686189994857e-003,-1.85736888722409e-004
1.65585585585585e+006	8.50035998269882e-001,-6.20436754987005e-003	2.99928003460236e-003,1.24087350997401e-004
1.66576576576576e+006	8.24839260585255e-001,1.25933079071426e-001	3.50321478829491e-003,-2.51866158142852e-003
1.67567567567567e+006	9.13664570205007e-001,1.43725833630695e-001	1.72670859589986e-003,-2.87451667261389e-003
1.68558558558558e+006	9.50422495195034e-001,1.14654904364884e-001	9.91550096099321e-004,-2.29309808729768e-003
1.69549549549549e+006	9.64482994002489e-001,8.56365678510458e-002	7.10340119950212e-004,-1.71273135702092e-003
1.70540540540540e+006	9.68119010817775e-001,5.66609074674525e-002	6.37619783644503e-004,-1.13321814934905e-003
1.71531531531531e+006	9.59780301345327e-001,2.37491641437868e-002	8.04393973093454e-004,-4.74983282875737e-004
1.72522522522522e+006	9.16917767080051e-001,-6.41101472357036e-003	1.66164465839897e-003,1.28220294471407e-004
1.73513513513513e+006	8.72569241167631e-001,5.93109843649652e-002	2.54861517664737e-003,-1.18621968729930e-003
1.74504504504504e+006	9.37540046140262e-001,7.35346589994853e-002	1.24919907719476e-003,-1.47069317998971e-003
1.75495495495495e+006	9.62303793848435e-001,3.93066418931650e-002	7.53924123031293e-004,-7.86132837863300e-004
1.76486486486486e+006	9.66540313725985e-001,4.82294484623336e-003	6.69193725480302e-004,-9.64588969246671e-005
1.77477477477477e+006	9.63240723186833e-001,-2.97464174346239e-002	7.35185536263332e-004,5.94928348692478e-004
1.78468468468468e+006	9.50657107553511e-001,-7.11976740096933e-002	9.86857848929774e-004,1.42395348019387e-003
1.79459459459459e+006	9.21510909501205e-001,-1.20907626260423e-001	1.56978180997589e-003,2.41815252520846e-003
1.80450450450450e+006	8.59135135154014e-001,-1.78248671738677e-001	2.81729729691973e-003,3.56497343477355e-003
1.81441441441441e+006	7.27880500155249e-001,-2.17471465470046e-001	5.44238999689503e-003,4.34942930940092e-003
1.82432432432432e+006	5.28638985829578e-001,-1.21058383004816e-001	9.42722028340844e-003,2.42116766009632e-003
1.83423423423423e+006	5.06483983577430e-001,1.48632904368580e-001	9.87032032845141e-003,-2.97265808737160e-003
1.84414414414414e+006	6.75874761418203e-001,2.73824174868556e-001	6.48250477163594e-003,-5.47648349737111e-003
1.85405405405405e+006	8.04713688217378e-001,2.64881917483192e-001	3.90572623565243e-003,-5.29763834966383e-003
1.86396396396396e+006	8.75797048175002e-001,2.25617215960065e-001	2.48405903649996e-003,-4.51234431920129e-003
