Freq.	V(1|1|1|a)	I(R129)
1.00000000000000e+005	1.68981672651872e-002,7.77421848017084e-002	1.96620366546963e-002,-1.55484369603417e-003
1.09909909909910e+005	1.81783622741913e-002,8.53608013629490e-002	1.96364327545162e-002,-1.70721602725898e-003
1.19819819819820e+005	1.95773986931896e-002,9.29553148386228e-002	1.96084520261362e-002,-1.85910629677246e-003
1.29729729729730e+005	2.10947309977691e-002,1.00523612003102e-001	1.95781053800446e-002,-2.01047224006204e-003
1.39639639639640e+005	2.27297687487553e-002,1.08063594943389e-001	1.95454046250249e-002,-2.16127189886779e-003
1.49549549549550e+005	2.44818771151178e-002,1.15573182236617e-001	1.95103624576976e-002,-2.31146364473235e-003
1.59459459459459e+005	2.63503774342723e-002,1.23050310106923e-001	1.94729924513146e-002,-2.46100620213846e-003
1.69369369369369e+005	2.83345478088680e-002,1.30492933560347e-001	1.94333090438226e-002,-2.60985867120694e-003
1.79279279279279e+005	3.04336237390924e-002,1.37899027496436e-001	1.93913275252182e-002,-2.75798054992873e-003
1.89189189189189e+005	3.26467987894755e-002,1.45266587795288e-001	1.93470640242105e-002,-2.90533175590576e-003
1.99099099099099e+005	3.49732252891248e-002,1.52593632378814e-001	1.93005354942175e-002,-3.05187264757628e-003
2.09009009009009e+005	3.74120150642759e-002,1.59878202245065e-001	1.92517596987145e-002,-3.19756404490130e-003
2.18918918918919e+005	3.99622402019991e-002,1.67118362474504e-001	1.92007551959600e-002,-3.34236724949007e-003
2.28828828828829e+005	4.26229338438641e-002,1.74312203207166e-001	1.91475413231227e-002,-3.48624406414332e-003
2.38738738738739e+005	4.53930910083215e-002,1.81457840589725e-001	1.90921381798336e-002,-3.62915681179449e-003
2.48648648648649e+005	4.82716694405318e-002,1.88553417691502e-001	1.90345666111894e-002,-3.77106835383003e-003
2.58558558558559e+005	5.12575904883340e-002,1.95597105388568e-001	1.89748481902333e-002,-3.91194210777136e-003
2.68468468468468e+005	5.43497400030232e-002,2.02587103215097e-001	1.89130051999395e-002,-4.05174206430193e-003
2.78378378378378e+005	5.75469692635751e-002,2.09521640181229e-001	1.88490606147285e-002,-4.19043280362458e-003
2.88288288288288e+005	6.08480959229403e-002,2.16398975556750e-001	1.87830380815412e-002,-4.32797951113501e-003
2.98198198198198e+005	6.42519049750041e-002,2.23217399619952e-001	1.87149619004999e-002,-4.46434799239904e-003
3.08108108108108e+005	6.77571497407989e-002,2.29975234371116e-001	1.86448570051840e-002,-4.59950468742232e-003
3.18018018018018e+005	7.13625528725398e-002,2.36670834210115e-001	1.85727489425492e-002,-4.73341668420229e-003
3.27927927927928e+005	7.50668073740442e-002,2.43302586577695e-001	1.84986638525191e-002,-4.86605173155389e-003
3.37837837837838e+005	7.88685776360945e-002,2.49868912560069e-001	1.84226284472781e-002,-4.99737825120139e-003
3.47747747747748e+005	8.27665004852924e-002,2.56368267456508e-001	1.83446699902942e-002,-5.12736534913015e-003
3.57657657657657e+005	8.67591862449633e-002,2.62799141309677e-001	1.82648162751007e-002,-5.25598282619353e-003
3.67567567567567e+005	9.08452198066614e-002,2.69160059398549e-001	1.81830956038668e-002,-5.38320118797098e-003
3.77477477477477e+005	9.50231617108420e-002,2.75449582693755e-001	1.80995367657832e-002,-5.50899165387510e-003
3.87387387387387e+005	9.92915492352698e-002,2.81666308275316e-001	1.80141690152946e-002,-5.63332616550632e-003
3.97297297297297e+005	1.03648897489747e-001,2.87808869712757e-001	1.79270220502050e-002,-5.75617739425513e-003
4.07207207207207e+005	1.08093700515761e-001,2.93875937407648e-001	1.78381259896848e-002,-5.87751874815295e-003
4.17117117117117e+005	1.12624432389660e-001,2.99866218898698e-001	1.77475113522068e-002,-5.99732437797395e-003
4.27027027027027e+005	1.17239548328000e-001,3.05778459129557e-001	1.76552090334400e-002,-6.11556918259114e-003
4.36936936936936e+005	1.21937485793714e-001,3.11611440679556e-001	1.75612502841257e-002,-6.23222881359112e-003
4.46846846846846e+005	1.26716665601787e-001,3.17363983957650e-001	1.74656666879643e-002,-6.34727967915301e-003
4.56756756756756e+005	1.31575493023147e-001,3.23034947359898e-001	1.73684901395371e-002,-6.46069894719797e-003
4.66666666666666e+005	1.36512358885501e-001,3.28623227390843e-001	1.72697528222900e-002,-6.57246454781685e-003
4.76576576576576e+005	1.41525640669900e-001,3.34127758749214e-001	1.71694871866020e-002,-6.68255517498428e-003
4.86486486486486e+005	1.46613703601819e-001,3.39547514378417e-001	1.70677259279636e-002,-6.79095028756835e-003
4.96396396396396e+005	1.51774901735593e-001,3.44881505482308e-001	1.69645019652881e-002,-6.89763010964616e-003
5.06306306306306e+005	1.57007579031087e-001,3.50128781506803e-001	1.68598484193783e-002,-7.00257563013605e-003
5.16216216216216e+005	1.62310070421500e-001,3.55288430087904e-001	1.67537985915700e-002,-7.10576860175808e-003
5.26126126126125e+005	1.67680702871259e-001,3.60359576966759e-001	1.66463859425748e-002,-7.20719153933519e-003
5.36036036036035e+005	1.73117796422993e-001,3.65341385872401e-001	1.65376440715401e-002,-7.30682771744802e-003
5.45945945945945e+005	1.78619665232611e-001,3.70233058372852e-001	1.64276066953478e-002,-7.40466116745704e-003
5.55855855855855e+005	1.84184618591566e-001,3.75033833695302e-001	1.63163076281687e-002,-7.50067667390604e-003
5.65765765765765e+005	1.89810961935423e-001,3.79742988516090e-001	1.62037807612915e-002,-7.59485977032179e-003
5.75675675675675e+005	1.95496997837878e-001,3.84359836721250e-001	1.60900600432424e-002,-7.68719673442500e-003
5.85585585585585e+005	2.01241026989459e-001,3.88883729138397e-001	1.59751794602108e-002,-7.77767458276795e-003
5.95495495495495e+005	2.07041349160142e-001,3.93314053240751e-001	1.58591730167972e-002,-7.86628106481503e-003
6.05405405405405e+005	2.12896264145190e-001,3.97650232824103e-001	1.57420747170962e-002,-7.95300465648205e-003
6.15315315315315e+005	2.18804072693553e-001,4.01891727657554e-001	1.56239185461289e-002,-8.03783455315109e-003
6.25225225225225e+005	2.24763077418238e-001,4.06038033108865e-001	1.55047384516352e-002,-8.12076066217731e-003
6.35135135135135e+005	2.30771583688064e-001,4.10088679745242e-001	1.53845683262387e-002,-8.20177359490484e-003
6.45045045045045e+005	2.36827900500303e-001,4.14043232910423e-001	1.52634419899939e-002,-8.28086465820846e-003
6.54954954954955e+005	2.42930341333750e-001,4.17901292278909e-001	1.51413931733250e-002,-8.35802584557818e-003
6.64864864864865e+005	2.49077224981773e-001,4.21662491388188e-001	1.50184555003645e-002,-8.43324982776376e-003
6.74774774774775e+005	2.55266876365002e-001,4.25326497149799e-001	1.48946624727000e-002,-8.50652994299599e-003
6.84684684684685e+005	2.61497627323312e-001,4.28893009340092e-001	1.47700474535338e-002,-8.57786018680184e-003
6.94594594594594e+005	2.67767817386830e-001,4.32361760071499e-001	1.46446436522634e-002,-8.64723520142997e-003
7.04504504504504e+005	2.74075794525731e-001,4.35732513245165e-001	1.45184841094854e-002,-8.71465026490331e-003
7.14414414414414e+005	2.80419915878636e-001,4.39005063985741e-001	1.43916016824273e-002,-8.78010127971483e-003
7.24324324324324e+005	2.86798548459478e-001,4.42179238059139e-001	1.42640290308104e-002,-8.84358476118278e-003
7.34234234234234e+005	2.93210069842733e-001,4.45254891274039e-001	1.41357986031453e-002,-8.90509782548079e-003
7.44144144144144e+005	2.99652868826980e-001,4.48231908867907e-001	1.40069426234604e-002,-8.96463817735815e-003
7.54054054054054e+005	3.06125346076769e-001,4.51110204878267e-001	1.38774930784646e-002,-9.02220409756534e-003
7.63963963963964e+005	3.12625914742860e-001,4.53889721499937e-001	1.37474817051428e-002,-9.07779442999873e-003
7.73873873873874e+005	3.19153001060904e-001,4.56570428428934e-001	1.36169399787819e-002,-9.13140856857868e-003
7.83783783783784e+005	3.25705044928708e-001,4.59152322193690e-001	1.34858991014258e-002,-9.18304644387380e-003
7.93693693693694e+005	3.32280500462249e-001,4.61635425474212e-001	1.33543899907550e-002,-9.23270850948424e-003
8.03603603603604e+005	3.38877836530679e-001,4.64019786409778e-001	1.32224432693864e-002,-9.28039572819557e-003
8.13513513513514e+005	3.45495537270563e-001,4.66305477895720e-001	1.30900892545887e-002,-9.32610955791441e-003
8.23423423423424e+005	3.52132102579689e-001,4.68492596869796e-001	1.29573579484062e-002,-9.36985193739592e-003
8.33333333333334e+005	3.58786048590790e-001,4.70581263588623e-001	1.28242790281842e-002,-9.41162527177245e-003
8.43243243243244e+005	3.65455908125597e-001,4.72571620894578e-001	1.26908818374881e-002,-9.45143241789157e-003
8.53153153153153e+005	3.72140231129670e-001,4.74463833473539e-001	1.25571953774066e-002,-9.48927666947079e-003
8.63063063063063e+005	3.78837585088523e-001,4.76258087103745e-001	1.24232482982295e-002,-9.52516174207489e-003
8.72972972972973e+005	3.85546555425586e-001,4.77954587896041e-001	1.22890688914883e-002,-9.55909175792083e-003
8.82882882882883e+005	3.92265745882625e-001,4.79553561525676e-001	1.21546850823475e-002,-9.59107123051351e-003
8.92792792792793e+005	3.98993778883286e-001,4.81055252455730e-001	1.20201244223343e-002,-9.62110504911460e-003
9.02702702702703e+005	4.05729295880474e-001,4.82459923152230e-001	1.18854140823905e-002,-9.64919846304460e-003
9.12612612612613e+005	4.12470957688379e-001,4.83767853290854e-001	1.17505808462324e-002,-9.67535706581707e-003
9.22522522522523e+005	4.19217444799981e-001,4.84979338955080e-001	1.16156511040004e-002,-9.69958677910160e-003
9.32432432432433e+005	4.25967457690975e-001,4.86094691825516e-001	1.14806508461805e-002,-9.72189383651033e-003
9.42342342342343e+005	4.32719717111123e-001,4.87114238360030e-001	1.13456056577775e-002,-9.74228476720060e-003
9.52252252252253e+005	4.39472964364104e-001,4.88038318964174e-001	1.12105407127179e-002,-9.76076637928349e-003
9.62162162162163e+005	4.46225961577080e-001,4.88867287151278e-001	1.10754807684584e-002,-9.77734574302555e-003
9.72072072072073e+005	4.52977491961231e-001,4.89601508691402e-001	1.09404501607754e-002,-9.79203017382804e-003
9.81981981981983e+005	4.59726360064682e-001,4.90241360748209e-001	1.08054727987064e-002,-9.80482721496419e-003
9.91891891891893e+005	4.66471392019345e-001,4.90787231002585e-001	1.06705721596131e-002,-9.81574462005169e-003
1.00180180180180e+006	4.73211435783346e-001,4.91239516761660e-001	1.05357712843331e-002,-9.82479033523319e-003
1.01171171171171e+006	4.79945361380872e-001,4.91598624051633e-001	1.04010927723826e-002,-9.83197248103265e-003
1.02162162162162e+006	4.86672061141453e-001,4.91864966692525e-001	1.02665587771709e-002,-9.83729933385050e-003
1.03153153153153e+006	4.93390449940898e-001,4.92038965352701e-001	1.01321910011820e-002,-9.84077930705402e-003
1.04144144144144e+006	5.00099465446338e-001,4.92121046580643e-001	9.99801069107325e-003,-9.84242093161286e-003
1.05135135135135e+006	5.06798068368106e-001,4.92111641811080e-001	9.86403863263788e-003,-9.84223283622160e-003
1.06126126126126e+006	5.13485242721483e-001,4.92011186342119e-001	9.73029514557034e-003,-9.84022372684239e-003
1.07117117117117e+006	5.20159996101685e-001,4.91820118279522e-001	9.59680007796631e-003,-9.83640236559044e-003
1.08108108108108e+006	5.26821359975901e-001,4.91538877443670e-001	9.46357280048198e-003,-9.83077754887340e-003
1.09099099099099e+006	5.33468389996638e-001,4.91167904234095e-001	9.33063220006724e-003,-9.82335808468190e-003
1.10090090090090e+006	5.40100166341188e-001,4.90707638445649e-001	9.19799667317624e-003,-9.81415276891298e-003
1.11081081081081e+006	5.46715794082675e-001,4.90158518029471e-001	9.06568411834649e-003,-9.80317036058942e-003
1.12072072072072e+006	5.53314403598885e-001,4.89520977790849e-001	8.93371192802229e-003,-9.79041955581697e-003
1.13063063063063e+006	5.59895151025941e-001,4.88795448014799e-001	8.80209697948118e-003,-9.77590896029597e-003
1.14054054054054e+006	5.66457218764946e-001,4.87982353008724e-001	8.67085562470108e-003,-9.75964706017448e-003
1.15045045045045e+006	5.72999816050894e-001,4.87082109549759e-001	8.54000367898213e-003,-9.74164219099518e-003
1.16036036036036e+006	5.79522179594601e-001,4.86095125222345e-001	8.40955640810797e-003,-9.72190250444690e-003
1.17027027027027e+006	5.86023574310107e-001,4.85021796629127e-001	8.27952851379786e-003,-9.70043593258254e-003
1.18018018018018e+006	5.92503294142014e-001,4.83862507455309e-001	8.14993411715972e-003,-9.67725014910617e-003
1.19009009009009e+006	5.98960663009656e-001,4.82617626363102e-001	8.02078673980688e-003,-9.65235252726203e-003
1.20000000000000e+006	6.05395035887890e-001,4.81287504688647e-001	7.89209928224219e-003,-9.62575009377293e-003
1.20990990990991e+006	6.11805800047790e-001,4.79872473908650e-001	7.76388399904421e-003,-9.59744947817299e-003
1.21981981981982e+006	6.18192376484732e-001,4.78372842837740e-001	7.63615247030536e-003,-9.56745685675481e-003
1.22972972972973e+006	6.24554221566518e-001,4.76788894509934e-001	7.50891556866964e-003,-9.53577789019867e-003
1.23963963963964e+006	6.30890828940367e-001,4.75120882688212e-001	7.38218342119266e-003,-9.50241765376425e-003
1.24954954954955e+006	6.37201731745297e-001,4.73369027934706e-001	7.25596536509406e-003,-9.46738055869412e-003
1.25945945945946e+006	6.43486505185797e-001,4.71533513159614e-001	7.13026989628406e-003,-9.43067026319227e-003
1.26936936936937e+006	6.49744769534298e-001,4.69614478549133e-001	7.00510460931403e-003,-9.39228957098267e-003
1.27927927927928e+006	6.55976193644440e-001,4.67612015750234e-001	6.88047612711119e-003,-9.35224031500468e-003
1.28918918918919e+006	6.62180499075126e-001,4.65526161161737e-001	6.75639001849748e-003,-9.31052322323474e-003
1.29909909909910e+006	6.68357464948098e-001,4.63356888145142e-001	6.63285070103804e-003,-9.26713776290283e-003
1.30900900900901e+006	6.74506933690436e-001,4.61104097922452e-001	6.50986132619127e-003,-9.22208195844904e-003
1.31891891891892e+006	6.80628817849923e-001,4.58767608868679e-001	6.38742364300155e-003,-9.17535217737359e-003
1.32882882882883e+006	6.86723108218011e-001,4.56347143829249e-001	6.26553783563978e-003,-9.12694287658498e-003
1.33873873873874e+006	6.92789883555587e-001,4.53842314990923e-001	6.14420232888826e-003,-9.07684629981846e-003
1.34864864864865e+006	6.98829322295267e-001,4.51252605700417e-001	6.02341355409466e-003,-9.02505211400835e-003
1.35855855855856e+006	7.04841716697046e-001,4.48577348445294e-001	5.90316566605907e-003,-8.97154696890589e-003
1.36846846846847e+006	7.10827490070356e-001,4.45815697969317e-001	5.78345019859289e-003,-8.91631395938634e-003
1.37837837837838e+006	7.16787217857450e-001,4.42966598163658e-001	5.66425564285100e-003,-8.85933196327316e-003
1.38828828828829e+006	7.22721653618084e-001,4.40028740918656e-001	5.54556692763833e-003,-8.80057481837312e-003
1.39819819819820e+006	7.28631761289033e-001,4.37000514482034e-001	5.42736477421933e-003,-8.74001028964067e-003
1.40810810810811e+006	7.34518755551229e-001,4.33879937963752e-001	5.30962488897543e-003,-8.67759875927505e-003
1.41801801801802e+006	7.40384152776714e-001,4.30664577323863e-001	5.19231694446572e-003,-8.61329154647727e-003
1.42792792792793e+006	7.46229835929381e-001,4.27351436271856e-001	5.07540328141239e-003,-8.54702872543711e-003
1.43783783783784e+006	7.52058138081753e-001,4.23936812663599e-001	4.95883723836494e-003,-8.47873625327198e-003
1.44774774774775e+006	7.57871951076839e-001,4.20416106662653e-001	4.84256097846322e-003,-8.40832213325306e-003
1.45765765765766e+006	7.63674868608883e-001,4.16783560223640e-001	4.72650262782234e-003,-8.33567120447280e-003
1.46756756756756e+006	7.69471377094653e-001,4.13031896777601e-001	4.61057245810694e-003,-8.26063793555203e-003
1.47747747747747e+006	7.75267113919612e-001,4.09151812535347e-001	4.49465772160776e-003,-8.18303625070695e-003
1.48738738738738e+006	7.81069222202261e-001,4.05131241371704e-001	4.37861555595478e-003,-8.10262482743408e-003
1.49729729729729e+006	7.86886846112579e-001,4.00954263819382e-001	4.26226307774843e-003,-8.01908527638764e-003
1.50720720720720e+006	7.92731834138647e-001,3.96599437231094e-001	4.14536331722706e-003,-7.93198874462189e-003
1.51711711711711e+006	7.98619754060125e-001,3.92037146316393e-001	4.02760491879750e-003,-7.84074292632785e-003
1.52702702702702e+006	8.04571377525560e-001,3.87225216227270e-001	3.90857244948881e-003,-7.74450432454540e-003
1.53693693693693e+006	8.10614860099062e-001,3.82101266970023e-001	3.78770279801876e-003,-7.64202533940047e-003
1.54684684684684e+006	8.16788865421791e-001,3.76568528321765e-001	3.66422269156418e-003,-7.53137056643529e-003
1.55675675675675e+006	8.23146513792506e-001,3.70467394900818e-001	3.53706972414988e-003,-7.40934789801636e-003
1.56666666666666e+006	8.29757400287102e-001,3.63512504241213e-001	3.40485199425795e-003,-7.27025008482426e-003
1.57657657657657e+006	8.36688943733588e-001,3.55135032004164e-001	3.26622112532823e-003,-7.10270064008327e-003
1.58648648648648e+006	8.43839919073036e-001,3.44022281007012e-001	3.12320161853928e-003,-6.88044562014023e-003
1.59639639639639e+006	8.49550412663146e-001,3.26618510021643e-001	3.00899174673707e-003,-6.53237020043287e-003
1.60630630630630e+006	8.37556111988595e-001,2.97940940771761e-001	3.24887776022810e-003,-5.95881881543522e-003
1.61621621621621e+006	8.07095768561977e-001,3.20575988366291e-001	3.85808462876047e-003,-6.41151976732582e-003
1.62612612612612e+006	8.34669900021490e-001,3.26328087877848e-001	3.30660199957020e-003,-6.52656175755695e-003
1.63603603603603e+006	8.46404092072349e-001,2.98873391313998e-001	3.07191815855301e-003,-5.97746782627997e-003
1.64594594594594e+006	8.11674091975482e-001,2.59526254885985e-001	3.76651816049037e-003,-5.19052509771970e-003
1.65585585585585e+006	7.60784481017611e-001,3.22257735786256e-001	4.78431037964778e-003,-6.44515471572512e-003
1.66576576576576e+006	8.04865433299569e-001,3.52340817728798e-001	3.90269133400863e-003,-7.04681635457596e-003
1.67567567567567e+006	8.31760450518915e-001,3.47178866487299e-001	3.36479098962170e-003,-6.94357732974598e-003
1.68558558558558e+006	8.47807220461501e-001,3.37381200926486e-001	3.04385559076999e-003,-6.74762401852972e-003
1.69549549549549e+006	8.59160603513226e-001,3.25663612250918e-001	2.81678792973547e-003,-6.51327224501835e-003
1.70540540540540e+006	8.66437203809223e-001,3.09609568098269e-001	2.67125592381554e-003,-6.19219136196537e-003
1.71531531531531e+006	8.55543910113892e-001,2.86958373289636e-001	2.88912179772216e-003,-5.73916746579273e-003
1.72522522522522e+006	8.35237484024403e-001,3.11766884526388e-001	3.29525031951193e-003,-6.23533769052775e-003
1.73513513513513e+006	8.59153546861464e-001,3.20319458350167e-001	2.81692906277073e-003,-6.40638916700335e-003
1.74504504504504e+006	8.73520504619355e-001,3.13597422438966e-001	2.52958990761289e-003,-6.27194844877933e-003
1.75495495495495e+006	8.82762835242069e-001,3.05580971109952e-001	2.34474329515862e-003,-6.11161942219904e-003
1.76486486486486e+006	8.89350638249710e-001,2.97506878925417e-001	2.21298723500580e-003,-5.95013757850835e-003
1.77477477477477e+006	8.94427106098993e-001,2.91140234905581e-001	2.11145787802014e-003,-5.82280469811162e-003
1.78468468468468e+006	9.00794578390989e-001,2.84645892787398e-001	1.98410843218021e-003,-5.69291785574795e-003
1.79459459459459e+006	9.06475210816184e-001,2.77316922879522e-001	1.87049578367633e-003,-5.54633845759044e-003
1.80450450450450e+006	9.11661770786670e-001,2.69843888852892e-001	1.76676458426660e-003,-5.39687777705784e-003
1.81441441441441e+006	9.16574950656232e-001,2.62219037499422e-001	1.66850098687536e-003,-5.24438074998843e-003
1.82432432432432e+006	9.21308663304894e-001,2.54361048389096e-001	1.57382673390212e-003,-5.08722096778192e-003
1.83423423423423e+006	9.25912416941275e-001,2.46165100592442e-001	1.48175166117451e-003,-4.92330201184885e-003
1.84414414414414e+006	9.30413457641702e-001,2.37488734497679e-001	1.39173084716595e-003,-4.74977468995359e-003
1.85405405405405e+006	9.34817585385191e-001,2.28117646458177e-001	1.30364829229619e-003,-4.56235292916354e-003
1.86396396396396e+006	9.39088372152716e-001,2.17695388918503e-001	1.21823255694568e-003,-4.35390777837007e-003
