Freq.	V(1|1|1|b)	I(R129)
1.00000000000000e+005	4.55532257608405e-002,1.42118822656051e-001	1.90889354847832e-002,-2.84237645312103e-003
1.09909909909910e+005	4.98781198340690e-002,1.55554382370445e-001	1.90024376033186e-002,-3.11108764740891e-003
1.19819819819820e+005	5.45743535529291e-002,1.68812319472489e-001	1.89085129289414e-002,-3.37624638944977e-003
1.29729729729730e+005	5.96324471041638e-002,1.81879233866607e-001	1.88073510579167e-002,-3.63758467733214e-003
1.39639639639640e+005	6.50423214698315e-002,1.94742347902745e-001	1.86991535706034e-002,-3.89484695805491e-003
1.49549549549550e+005	7.07933464347612e-002,2.07389536850963e-001	1.85841330713048e-002,-4.14779073701927e-003
1.59459459459459e+005	7.68743901395806e-002,2.19809355176768e-001	1.84625121972084e-002,-4.39618710353537e-003
1.69369369369369e+005	8.32738697742253e-002,2.31991058563576e-001	1.83345226045155e-002,-4.63982117127153e-003
1.79279279279279e+005	8.99798030106365e-002,2.43924621671772e-001	1.82004039397873e-002,-4.87849243343543e-003
1.89189189189189e+005	9.69798597822976e-002,2.55600751664944e-001	1.80604028043540e-002,-5.11201503329888e-003
1.99099099099099e+005	1.04261414031745e-001,2.67010897572581e-001	1.79147717193651e-002,-5.34021795145163e-003
2.09009009009009e+005	1.11811595064653e-001,2.78147255594360e-001	1.77637680987069e-002,-5.56294511188721e-003
2.18918918918919e+005	1.19617338170021e-001,2.89002770483872e-001	1.76076532365996e-002,-5.78005540967743e-003
2.28828828828829e+005	1.27665434189818e-001,2.99571133178848e-001	1.74466913162036e-002,-5.99142266357697e-003
2.38738738738739e+005	1.35942577747639e-001,3.09846774870546e-001	1.72811484450472e-002,-6.19693549741092e-003
2.48648648648649e+005	1.44435413873957e-001,3.19824857726691e-001	1.71112917225209e-002,-6.39649715453382e-003
2.58558558558559e+005	1.53130582794874e-001,3.29501262500363e-001	1.69373883441025e-002,-6.59002525000725e-003
2.68468468468468e+005	1.62014762681352e-001,3.38872573271269e-001	1.67597047463730e-002,-6.77745146542539e-003
2.78378378378378e+005	1.71074710186304e-001,3.47936059576232e-001	1.65785057962739e-002,-6.95872119152464e-003
2.88288288288288e+005	1.80297298627155e-001,3.56689656192437e-001	1.63940540274569e-002,-7.13379312384874e-003
2.98198198198198e+005	1.89669553701135e-001,3.65131940840323e-001	1.62066089259773e-002,-7.30263881680646e-003
3.08108108108108e+005	1.99178686649285e-001,3.73262110073097e-001	1.60164262670143e-002,-7.46524220146194e-003
3.18018018018018e+005	2.08812124812657e-001,3.81079953617053e-001	1.58237575037469e-002,-7.62159907234106e-003
3.27927927927928e+005	2.18557539550125e-001,3.88585827421398e-001	1.56288492089975e-002,-7.77171654842796e-003
3.37837837837838e+005	2.28402871511460e-001,3.95780625668498e-001	1.54319425697708e-002,-7.91561251336996e-003
3.47747747747748e+005	2.38336353281655e-001,4.02665751985596e-001	1.52332729343669e-002,-8.05331503971193e-003
3.57657657657657e+005	2.48346529432770e-001,4.09243090087514e-001	1.50330694113446e-002,-8.18486180175028e-003
3.67567567567567e+005	2.58422274037792e-001,4.15514974066860e-001	1.48315545192442e-002,-8.31029948133720e-003
3.77477477477477e+005	2.68552805717061e-001,4.21484158534218e-001	1.46289438856588e-002,-8.42968317068435e-003
3.87387387387387e+005	2.78727700301759e-001,4.27153788795853e-001	1.44254459939648e-002,-8.54307577591706e-003
3.97297297297297e+005	2.88936901210786e-001,4.32527371241058e-001	1.42212619757843e-002,-8.65054742482115e-003
4.07207207207207e+005	2.99170727647162e-001,4.37608744095465e-001	1.40165854470568e-002,-8.75217488190930e-003
4.17117117117117e+005	3.09419880727931e-001,4.42402048680835e-001	1.38116023854414e-002,-8.84804097361670e-003
4.27027027027027e+005	3.19675447667560e-001,4.46911701306087e-001	1.36064910466488e-002,-8.93823402612175e-003
4.36936936936936e+005	3.29928904139087e-001,4.51142365898921e-001	1.34014219172183e-002,-9.02284731797842e-003
4.46846846846846e+005	3.40172114939980e-001,4.55098927472392e-001	1.31965577012004e-002,-9.10197854944785e-003
4.56756756756756e+005	3.50397333090882e-001,4.58786466506404e-001	1.29920533381824e-002,-9.17572933012809e-003
4.66666666666666e+005	3.60597197495356e-001,4.62210234310338e-001	1.27880560500929e-002,-9.24420468620676e-003
4.76576576576576e+005	3.70764729287471e-001,4.65375629420098e-001	1.25847054142506e-002,-9.30751258840197e-003
4.86486486486486e+005	3.80893326991840e-001,4.68288175070699e-001	1.23821334601632e-002,-9.36576350141398e-003
4.96396396396396e+005	3.90976760617537e-001,4.70953497774243e-001	1.21804647876493e-002,-9.41906995548487e-003
5.06306306306306e+005	4.01009164803444e-001,4.73377307022782e-001	1.19798167039311e-002,-9.46754614045564e-003
5.16216216216216e+005	4.10985031128043e-001,4.75565376126050e-001	1.17802993774392e-002,-9.51130752252099e-003
5.26126126126125e+005	4.20899199691660e-001,4.77523524185517e-001	1.15820160061668e-002,-9.55047048371034e-003
5.36036036036035e+005	4.30746850073765e-001,4.79257599198514e-001	1.13850629985247e-002,-9.58515198397029e-003
5.45945945945945e+005	4.40523491762212e-001,4.80773462279360e-001	1.11895301647558e-002,-9.61546924558720e-003
5.55855855855855e+005	4.50224954145442e-001,4.82076972978450e-001	1.09955009170912e-002,-9.64153945956900e-003
5.65765765765765e+005	4.59847376152651e-001,4.83173975675082e-001	1.08030524769470e-002,-9.66347951350164e-003
5.75675675675675e+005	4.69387195620908e-001,4.84070287015350e-001	1.06122560875818e-002,-9.68140574030701e-003
5.85585585585585e+005	4.78841138462168e-001,4.84771684362726e-001	1.04231772307566e-002,-9.69543368725452e-003
5.95495495495495e+005	4.88206207697228e-001,4.85283895225868e-001	1.02358758460554e-002,-9.70567790451736e-003
6.05405405405405e+005	4.97479672417866e-001,4.85612587625766e-001	1.00504065516427e-002,-9.71225175251532e-003
6.15315315315315e+005	5.06659056732766e-001,4.85763361362396e-001	9.86681886534468e-003,-9.71526722724791e-003
6.25225225225225e+005	5.15742128747425e-001,4.85741740139690e-001	9.68515742505150e-003,-9.71483480279380e-003
6.35135135135135e+005	5.24726889623043e-001,4.85553164506702e-001	9.50546220753914e-003,-9.71106329013403e-003
6.45045045045045e+005	5.33611562754429e-001,4.85202985572281e-001	9.32776874491143e-003,-9.70405971144563e-003
6.54954954954955e+005	5.42394583102305e-001,4.84696459450471e-001	9.15210833795389e-003,-9.69392918900942e-003
6.64864864864865e+005	5.51074586710947e-001,4.84038742393940e-001	8.97850826578107e-003,-9.68077484787881e-003
6.74774774774775e+005	5.59650400437981e-001,4.83234886573254e-001	8.80699199124039e-003,-9.66469773146508e-003
6.84684684684685e+005	5.68121031919308e-001,4.82289836460416e-001	8.63757936161383e-003,-9.64579672920832e-003
6.94594594594594e+005	5.76485659788529e-001,4.81208425776040e-001	8.47028680422943e-003,-9.62416851552081e-003
7.04504504504504e+005	5.84743624166945e-001,4.79995374960523e-001	8.30512751666110e-003,-9.59990749921046e-003
7.14414414414414e+005	5.92894417437195e-001,4.78655289130798e-001	8.14211165125610e-003,-9.57310578261597e-003
7.24324324324324e+005	6.00937675310764e-001,4.77192656485554e-001	7.98124649378473e-003,-9.54385312971108e-003
7.34234234234234e+005	6.08873168197107e-001,4.75611847123171e-001	7.82253663605786e-003,-9.51223694246342e-003
7.44144144144144e+005	6.16700792879830e-001,4.73917112238098e-001	7.66598414240340e-003,-9.47834224476196e-003
7.54054054054054e+005	6.24420564503286e-001,4.72112583662874e-001	7.51158870993429e-003,-9.44225167325747e-003
7.63963963963964e+005	6.32032608871113e-001,4.70202273724513e-001	7.35934782257775e-003,-9.40404547449025e-003
7.73873873873874e+005	6.39537155056586e-001,4.68190075385514e-001	7.20925689886828e-003,-9.36380150771027e-003
7.83783783783784e+005	6.46934528323188e-001,4.66079762641256e-001	7.06130943353625e-003,-9.32159525282512e-003
7.93693693693694e+005	6.54225143352515e-001,4.63874991147064e-001	6.91549713294969e-003,-9.27749982294128e-003
8.03603603603604e+005	6.61409497775537e-001,4.61579299049692e-001	6.77181004448925e-003,-9.23158598099384e-003
8.13513513513514e+005	6.68488166002223e-001,4.59196107999418e-001	6.63023667995553e-003,-9.18392215998835e-003
8.23423423423424e+005	6.75461793343751e-001,4.56728724320341e-001	6.49076413312497e-003,-9.13457448640682e-003
8.33333333333334e+005	6.82331090420796e-001,4.54180340317811e-001	6.35337819158408e-003,-9.08360680635622e-003
8.43243243243244e+005	6.89096827850804e-001,4.51554035703213e-001	6.21806344298392e-003,-9.03108071406426e-003
8.53153153153153e+005	6.95759831206704e-001,4.48852779117557e-001	6.08480337586593e-003,-8.97705558235113e-003
8.63063063063063e+005	7.02320976239086e-001,4.46079429736492e-001	5.95358047521827e-003,-8.92158859472983e-003
8.72972972972973e+005	7.08781184353636e-001,4.43236738940461e-001	5.82437631292728e-003,-8.86473477880922e-003
8.82882882882883e+005	7.15141418335327e-001,4.40327352034730e-001	5.69717163329346e-003,-8.80654704069459e-003
8.92792792792793e+005	7.21402678310802e-001,4.37353810005005e-001	5.57194643378397e-003,-8.74707620010010e-003
9.02702702702703e+005	7.27565997940224e-001,4.34318551295221e-001	5.44868004119552e-003,-8.68637102590441e-003
9.12612612612613e+005	7.33632440829892e-001,4.31223913594898e-001	5.32735118340216e-003,-8.62447827189796e-003
9.22522522522523e+005	7.39603097156905e-001,4.28072135624210e-001	5.20793805686190e-003,-8.56144271248421e-003
9.32432432432433e+005	7.45479080497248e-001,4.24865358905558e-001	5.09041839005504e-003,-8.49730717811116e-003
9.42342342342343e+005	7.51261524848745e-001,4.21605629511025e-001	4.97476950302510e-003,-8.43211259022050e-003
9.52252252252253e+005	7.56951581840477e-001,4.18294899775608e-001	4.86096836319046e-003,-8.36589799551215e-003
9.62162162162163e+005	7.62550418120400e-001,4.14935029966524e-001	4.74899163759201e-003,-8.29870059933047e-003
9.72072072072073e+005	7.68059212913095e-001,4.11527789899243e-001	4.63881574173810e-003,-8.23055579798486e-003
9.81981981981983e+005	7.73479155739786e-001,4.08074860491152e-001	4.53041688520428e-003,-8.16149720982304e-003
9.91891891891893e+005	7.78811444292945e-001,4.04577835243910e-001	4.42377111414109e-003,-8.09155670487820e-003
1.00180180180180e+006	7.84057282458083e-001,4.01038221645643e-001	4.31885435083835e-003,-8.02076443291287e-003
1.01171171171171e+006	7.89217878475510e-001,3.97457442484087e-001	4.21564243048979e-003,-7.94914884968175e-003
1.02162162162162e+006	7.94294443235152e-001,3.93836837061659e-001	4.11411113529696e-003,-7.87673674123317e-003
1.03153153153153e+006	7.99288188697697e-001,3.90177662303192e-001	4.01423622604605e-003,-7.80355324606383e-003
1.04144144144144e+006	8.04200326435668e-001,3.86481093746710e-001	3.91599347128665e-003,-7.72962187493419e-003
1.05135135135135e+006	8.09032066288207e-001,3.82748226407097e-001	3.81935867423586e-003,-7.65496452814194e-003
1.06126126126126e+006	8.13784615123681e-001,3.78980075501887e-001	3.72430769752638e-003,-7.57960151003774e-003
1.07117117117117e+006	8.18459175704401e-001,3.75177577027568e-001	3.63081648591199e-003,-7.50355154055136e-003
1.08108108108108e+006	8.23056945648057e-001,3.71341588173805e-001	3.53886108703885e-003,-7.42683176347610e-003
1.09099099099099e+006	8.27579116480688e-001,3.67472887561763e-001	3.44841767038624e-003,-7.34945775123525e-003
1.10090090090090e+006	8.32026872776231e-001,3.63572175291260e-001	3.35946254447539e-003,-7.27144350582520e-003
1.11081081081081e+006	8.36401391377965e-001,3.59640072779766e-001	3.27197217244071e-003,-7.19280145559531e-003
1.12072072072072e+006	8.40703840697349e-001,3.55677122374172e-001	3.18592318605301e-003,-7.11354244748343e-003
1.13063063063063e+006	8.44935380085978e-001,3.51683786713891e-001	3.10129239828043e-003,-7.03367573427783e-003
1.14054054054054e+006	8.49097159276567e-001,3.47660447820937e-001	3.01805681446865e-003,-6.95320895641873e-003
1.15045045045045e+006	8.53190317889071e-001,3.43607405889276e-001	2.93619364221859e-003,-6.87214811778553e-003
1.16036036036036e+006	8.57215984998166e-001,3.39524877741792e-001	2.85568030003669e-003,-6.79049755483583e-003
1.17027027027027e+006	8.61175278758498e-001,3.35412994918436e-001	2.77649442483005e-003,-6.70825989836872e-003
1.18018018018018e+006	8.65069306084140e-001,3.31271801353643e-001	2.69861387831719e-003,-6.62543602707287e-003
1.19009009009009e+006	8.68899162378812e-001,3.27101250594422e-001	2.62201675242375e-003,-6.54202501188845e-003
1.20000000000000e+006	8.72665931313376e-001,3.22901202502706e-001	2.54668137373247e-003,-6.45802405005411e-003
1.20990990990991e+006	8.76370684647088e-001,3.18671419376154e-001	2.47258630705824e-003,-6.37342838752309e-003
1.21981981981982e+006	8.80014482088908e-001,3.14411561410368e-001	2.39971035822185e-003,-6.28823122820735e-003
1.22972972972973e+006	8.83598371194920e-001,3.10121181411958e-001	2.32803257610161e-003,-6.20242362823916e-003
1.23963963963964e+006	8.87123387297497e-001,3.05799718655619e-001	2.25753225405006e-003,-6.11599437311238e-003
1.24954954954955e+006	8.90590553461227e-001,3.01446491758571e-001	2.18818893077546e-003,-6.02892983517142e-003
1.25945945945946e+006	8.94000880459730e-001,2.97060690421635e-001	2.11998239080541e-003,-5.94121380843270e-003
1.26936936936937e+006	8.97355366766287e-001,2.92641365856711e-001	2.05289266467426e-003,-5.85282731713421e-003
1.27927927927928e+006	9.00654998549459e-001,2.88187419684065e-001	1.98690002901082e-003,-5.76374839368130e-003
1.28918918918919e+006	9.03900749662517e-001,2.83697591037865e-001	1.92198500674966e-003,-5.67395182075730e-003
1.29909909909910e+006	9.07093581612242e-001,2.79170441562278e-001	1.85812836775516e-003,-5.58340883124556e-003
1.30900900900901e+006	9.10234443488149e-001,2.74604337910173e-001	1.79531113023703e-003,-5.49208675820346e-003
1.31891891891892e+006	9.13324271826943e-001,2.69997431267613e-001	1.73351456346114e-003,-5.39994862535225e-003
1.32882882882883e+006	9.16363990378414e-001,2.65347633314365e-001	1.67272019243172e-003,-5.30695266628731e-003
1.33873873873874e+006	9.19354509726861e-001,2.60652587885830e-001	1.61290980546279e-003,-5.21305175771661e-003
1.34864864864865e+006	9.22296726705217e-001,2.55909637414501e-001	1.55406546589566e-003,-5.11819274829002e-003
1.35855855855856e+006	9.25191523515050e-001,2.51115782984885e-001	1.49616952969901e-003,-5.02231565969770e-003
1.36846846846847e+006	9.28039766431285e-001,2.46267636514209e-001	1.43920467137430e-003,-4.92535273028418e-003
1.37837837837838e+006	9.30842303921073e-001,2.41361363143445e-001	1.38315392157854e-003,-4.82722726286891e-003
1.38828828828829e+006	9.33599963934051e-001,2.36392611347872e-001	1.32800072131898e-003,-4.72785222695744e-003
1.39819819819820e+006	9.36313550014725e-001,2.31356427493420e-001	1.27372899970550e-003,-4.62712854986841e-003
1.40810810810811e+006	9.38983835728314e-001,2.26247150485810e-001	1.22032328543372e-003,-4.52494300971620e-003
1.41801801801802e+006	9.41611556649354e-001,2.21058280651099e-001	1.16776886701292e-003,-4.42116561302199e-003
1.42792792792793e+006	9.44197398788783e-001,2.15782314846034e-001	1.11605202422433e-003,-4.31564629692068e-003
1.43783783783784e+006	9.46741981748116e-001,2.10410536709296e-001	1.06516036503769e-003,-4.20821073418592e-003
1.44774774774775e+006	9.49245833948006e-001,2.04932746430023e-001	1.01508332103988e-003,-4.09865492860046e-003
1.45765765765766e+006	9.51709355735303e-001,1.99336907614969e-001	9.65812885293946e-004,-3.98673815229938e-003
1.46756756756756e+006	9.54132763578808e-001,1.93608678426075e-001	9.17344728423832e-004,-3.87217356852151e-003
1.47747747747747e+006	9.56516004080051e-001,1.87730777815813e-001	8.69679918398973e-004,-3.75461555631626e-003
1.48738738738738e+006	9.58858618523975e-001,1.81682111306859e-001	8.22827629520491e-004,-3.63364222613717e-003
1.49729729729729e+006	9.61159523889423e-001,1.75436536837653e-001	7.76809522211530e-004,-3.50873073675305e-003
1.50720720720720e+006	9.63416647680817e-001,1.68961075432772e-001	7.31667046383666e-004,-3.37922150865544e-003
1.51711711711711e+006	9.65626296128998e-001,1.62213235410685e-001	6.87474077420038e-004,-3.24426470821370e-003
1.52702702702702e+006	9.67782011464357e-001,1.55136862983396e-001	6.44359770712859e-004,-3.10273725966791e-003
1.53693693693693e+006	9.69872390296263e-001,1.47655424566320e-001	6.02552194074737e-004,-2.95310849132639e-003
1.54684684684684e+006	9.71876631012263e-001,1.39660555483048e-001	5.62467379754747e-004,-2.79321110966095e-003
1.55675675675675e+006	9.73754650575412e-001,1.30991287107349e-001	5.24906988491769e-004,-2.61982574214699e-003
1.56666666666666e+006	9.75422653242074e-001,1.21393445896215e-001	4.91546935158518e-004,-2.42786891792430e-003
1.57657657657657e+006	9.76683560731040e-001,1.10433222912602e-001	4.66328785379204e-004,-2.20866445825204e-003
1.58648648648648e+006	9.76987426507219e-001,9.72990587213477e-002	4.60251469855617e-004,-1.94598117442695e-003
1.59639639639639e+006	9.74368031652794e-001,8.04043418365462e-002	5.12639366944123e-004,-1.60808683673092e-003
1.60630630630630e+006	9.59585267490715e-001,5.92464710454715e-002	8.08294650185706e-004,-1.18492942090943e-003
1.61621621621621e+006	9.28226145400002e-001,7.35978177497568e-002	1.43547709199995e-003,-1.47195635499514e-003
1.62612612612612e+006	9.54968722262415e-001,7.93826106561143e-002	9.00625554751697e-004,-1.58765221312229e-003
1.63603603603603e+006	9.61019118595802e-001,4.90537424074946e-002	7.79617628083957e-004,-9.81074848149893e-004
1.64594594594594e+006	9.39030350864325e-001,8.89831274982461e-003	1.21939298271349e-003,-1.77966254996492e-004
1.65585585585585e+006	8.49580571731060e-001,-7.32168688368612e-003	3.00838856537879e-003,1.46433737673722e-004
1.66576576576576e+006	8.23977387947293e-001,1.26725117884065e-001	3.52045224105414e-003,-2.53450235768131e-003
1.67567567567567e+006	9.13827453857927e-001,1.44194578682075e-001	1.72345092284146e-003,-2.88389157364150e-003
1.68558558558558e+006	9.50634993058729e-001,1.14825787870821e-001	9.87300138825427e-004,-2.29651575741643e-003
1.69549549549549e+006	9.64680419876491e-001,8.57003055239360e-002	7.06391602470178e-004,-1.71400611047872e-003
1.70540540540540e+006	9.68327122035846e-001,5.66565195377326e-002	6.33457559283079e-004,-1.13313039075465e-003
1.71531531531531e+006	9.60027779141093e-001,2.36196792640906e-002	7.99444417178148e-004,-4.72393585281813e-004
1.72522522522522e+006	9.16975288645146e-001,-6.93546266520792e-003	1.66049422709708e-003,1.38709253304158e-004
1.73513513513513e+006	8.71957565118698e-001,5.96032341613134e-002	2.56084869762603e-003,-1.19206468322627e-003
1.74504504504504e+006	9.37692421825357e-001,7.38117279345914e-002	1.24615156349287e-003,-1.47623455869183e-003
1.75495495495495e+006	9.62498258228950e-001,3.93776747070589e-002	7.50034835420994e-004,-7.87553494141178e-004
1.76486486486486e+006	9.66722163266853e-001,4.81746322826376e-003	6.65556734662933e-004,-9.63492645652753e-005
1.77477477477477e+006	9.63447886339930e-001,-2.97855762805915e-002	7.31042273201394e-004,5.95711525611830e-004
1.78468468468468e+006	9.50908879596761e-001,-7.13115032752855e-002	9.81822408064772e-004,1.42623006550571e-003
1.79459459459459e+006	9.21821202429100e-001,-1.21159391203794e-001	1.56357595141800e-003,2.42318782407589e-003
1.80450450450450e+006	8.59465873702904e-001,-1.78806627535244e-001	2.81068252594193e-003,3.57613255070488e-003
1.81441441441441e+006	7.27845897310274e-001,-2.18625964897332e-001	5.44308205379452e-003,4.37251929794664e-003
1.82432432432432e+006	5.27082187125784e-001,-1.22150914165043e-001	9.45835625748433e-003,2.44301828330086e-003
1.83423423423423e+006	5.04809999390277e-001,1.49652400042681e-001	9.90380001219445e-003,-2.99304800085362e-003
1.84414414414414e+006	6.75689426754784e-001,2.75127130494303e-001	6.48621146490433e-003,-5.50254260988607e-003
1.85405405405405e+006	8.05036269149493e-001,2.65663170139352e-001	3.89927461701013e-003,-5.31326340278704e-003
1.86396396396396e+006	8.76195967020400e-001,2.26063497160613e-001	2.47608065959200e-003,-4.52126994321226e-003
