Freq.	V(1|1|1|a)	I(R129)
1.00000000000000e+005	1.54067702396076e-002,5.88354472743394e-002	1.96918645952078e-002,-1.17670894548679e-003
1.09909909909910e+005	1.61443301647432e-002,6.46361793602069e-002	1.96771133967051e-002,-1.29272358720414e-003
1.19819819819820e+005	1.69512497207027e-002,7.04284697390644e-002	1.96609750055859e-002,-1.40856939478129e-003
1.29729729729730e+005	1.78274527235222e-002,7.62115580425272e-002	1.96434509455296e-002,-1.52423116085054e-003
1.39639639639640e+005	1.87728563668628e-002,8.19846841068650e-002	1.96245428726627e-002,-1.63969368213730e-003
1.49549549549550e+005	1.97873712099583e-002,8.77470879922239e-002	1.96042525758008e-002,-1.75494175984448e-003
1.59459459459459e+005	2.08709011647087e-002,9.34980100023856e-002	1.95825819767058e-002,-1.86996020004771e-003
1.69369369369369e+005	2.20233434819466e-002,9.92366907051029e-002	1.95595331303611e-002,-1.98473381410206e-003
1.79279279279279e+005	2.32445887369003e-002,1.04962370953050e-001	1.95351082252620e-002,-2.09924741906099e-003
1.89189189189189e+005	2.45345208138830e-002,1.10674291905418e-001	1.95093095837223e-002,-2.21348583810837e-003
1.99099099099099e+005	2.58930168902358e-002,1.16371695050206e-001	1.94821396621953e-002,-2.32743390100412e-003
2.09009009009009e+005	2.73199474195578e-002,1.22053822227218e-001	1.94536010516088e-002,-2.44107644454436e-003
2.18918918918919e+005	2.88151761142545e-002,1.27719915651825e-001	1.94236964777149e-002,-2.55439831303651e-003
2.28828828828829e+005	3.03785599274417e-002,1.33369217939510e-001	1.93924288014512e-002,-2.66738435879020e-003
2.38738738738739e+005	3.20099490342400e-002,1.39000972131227e-001	1.93598010193152e-002,-2.78001944262454e-003
2.48648648648649e+005	3.37091868124995e-002,1.44614421719617e-001	1.93258162637500e-002,-2.89228843439234e-003
2.58558558558559e+005	3.54761098229955e-002,1.50208810676092e-001	1.92904778035401e-002,-3.00417621352184e-003
2.68468468468468e+005	3.73105477891375e-002,1.55783383478833e-001	1.92537890442172e-002,-3.11566766957666e-003
2.78378378378378e+005	3.92123235762359e-002,1.61337385141714e-001	1.92157535284753e-002,-3.22674770283427e-003
2.88288288288288e+005	4.11812531703735e-002,1.66870061244188e-001	1.91763749365925e-002,-3.33740122488376e-003
2.98198198198198e+005	4.32171456569294e-002,1.72380657962156e-001	1.91356570868614e-002,-3.44761315924311e-003
3.08108108108108e+005	4.53198031988063e-002,1.77868422099829e-001	1.90936039360239e-002,-3.55736844199658e-003
3.18018018018018e+005	4.74890210144139e-002,1.83332601122631e-001	1.90502195797117e-002,-3.66665202245262e-003
3.27927927927928e+005	4.97245873554616e-002,1.88772443191129e-001	1.90055082528908e-002,-3.77544886382258e-003
3.37837837837838e+005	5.20262834846192e-002,1.94187197196034e-001	1.89594743303076e-002,-3.88374394392068e-003
3.47747747747748e+005	5.43938836531019e-002,1.99576112794272e-001	1.89121223269380e-002,-3.99152225588544e-003
3.57657657657657e+005	5.68271550782434e-002,2.04938440446148e-001	1.88634568984351e-002,-4.09876880892295e-003
3.67567567567567e+005	5.93258579211163e-002,2.10273431453603e-001	1.88134828415777e-002,-4.20546862907206e-003
3.77477477477477e+005	6.18897452642700e-002,2.15580337999590e-001	1.87622050947146e-002,-4.31160675999180e-003
3.87387387387387e+005	6.45185630896493e-002,2.20858413188556e-001	1.87096287382070e-002,-4.41716826377112e-003
3.97297297297297e+005	6.72120502567660e-002,2.26106911088050e-001	1.86557589948647e-002,-4.52213822176099e-003
4.07207207207207e+005	6.99699384811971e-002,2.31325086771451e-001	1.86006012303761e-002,-4.62650173542903e-003
4.17117117117117e+005	7.27919523134815e-002,2.36512196361823e-001	1.85441609537304e-002,-4.73024392723646e-003
4.27027027027027e+005	7.56778091184952e-002,2.41667497076876e-001	1.84864438176301e-002,-4.83334994153753e-003
4.36936936936936e+005	7.86272190553854e-002,2.46790247275056e-001	1.84274556188923e-002,-4.93580494550113e-003
4.46846846846846e+005	8.16398850581454e-002,2.51879706502725e-001	1.83672022988371e-002,-5.03759413005449e-003
4.56756756756756e+005	8.47155028169163e-002,2.56935135542437e-001	1.83056899436617e-002,-5.13870271084874e-003
4.66666666666666e+005	8.78537607601071e-002,2.61955796462294e-001	1.82429247847979e-002,-5.23911592924589e-003
4.76576576576576e+005	9.10543400374212e-002,2.66940952666355e-001	1.81789131992516e-002,-5.33881905332709e-003
4.86486486486486e+005	9.43169145038894e-002,2.71889868946075e-001	1.81136617099222e-002,-5.43779737892151e-003
4.96396396396396e+005	9.76411507050050e-002,2.76801811532769e-001	1.80471769858999e-002,-5.53603623065538e-003
5.06306306306306e+005	1.01026707863065e-001,2.81676048151035e-001	1.79794658427387e-002,-5.63352096302069e-003
5.16216216216216e+005	1.04473237864827e-001,2.86511848073137e-001	1.79105352427035e-002,-5.73023696146273e-003
5.26126126126125e+005	1.07980385250584e-001,2.91308482174290e-001	1.78403922949883e-002,-5.82616964348580e-003
5.36036036036035e+005	1.11547787204781e-001,2.96065222988807e-001	1.77690442559044e-002,-5.92130445977614e-003
5.45945945945945e+005	1.15175073548295e-001,3.00781344767065e-001	1.76964985290341e-002,-6.01562689534130e-003
5.55855855855855e+005	1.18861866732488e-001,3.05456123533230e-001	1.76227626653502e-002,-6.10912247066460e-003
5.65765765765765e+005	1.22607781835180e-001,3.10088837143694e-001	1.75478443632964e-002,-6.20177674287388e-003
5.75675675675675e+005	1.26412426558668e-001,3.14678765346146e-001	1.74717514688266e-002,-6.29357530692292e-003
5.85585585585585e+005	1.30275401229940e-001,3.19225189839218e-001	1.73944919754012e-002,-6.38450379678436e-003
5.95495495495495e+005	1.34196298803218e-001,3.23727394332627e-001	1.73160740239356e-002,-6.47454788665253e-003
6.05405405405405e+005	1.38174704865007e-001,3.28184664607725e-001	1.72365059026999e-002,-6.56369329215450e-003
6.15315315315315e+005	1.42210197641791e-001,3.32596288578376e-001	1.71557960471642e-002,-6.65192577156753e-003
6.25225225225225e+005	1.46302348010565e-001,3.36961556352054e-001	1.70739530397887e-002,-6.73923112704108e-003
6.35135135135135e+005	1.50450719512371e-001,3.41279760291057e-001	1.69909856097526e-002,-6.82559520582113e-003
6.45045045045045e+005	1.54654868369037e-001,3.45550195073726e-001	1.69069026326193e-002,-6.91100390147452e-003
6.54954954954955e+005	1.58914343503310e-001,3.49772157755545e-001	1.68217131299338e-002,-6.99544315511091e-003
6.64864864864865e+005	1.63228686562613e-001,3.53944947829983e-001	1.67354262687477e-002,-7.07889895659966e-003
6.74774774774775e+005	1.67597431946626e-001,3.58067867288931e-001	1.66480513610675e-002,-7.16135734577863e-003
6.84684684684685e+005	1.72020106838953e-001,3.62140220682589e-001	1.65595978632209e-002,-7.24280441365179e-003
6.94594594594594e+005	1.76496231243123e-001,3.66161315178621e-001	1.64700753751375e-002,-7.32322630357241e-003
7.04504504504504e+005	1.81025318023190e-001,3.70130460620398e-001	1.63794936395362e-002,-7.40260921240796e-003
7.14414414414414e+005	1.85606872949229e-001,3.74046969584141e-001	1.62878625410154e-002,-7.48093939168281e-003
7.24324324324324e+005	1.90240394748042e-001,3.77910157434732e-001	1.61951921050392e-002,-7.55820314869463e-003
7.34234234234234e+005	1.94925375159398e-001,3.81719342379979e-001	1.61014924968120e-002,-7.63438684759958e-003
7.44144144144144e+005	1.99661298998176e-001,3.85473845523076e-001	1.60067740200365e-002,-7.70947691046153e-003
7.54054054054054e+005	2.04447644222793e-001,3.89172990912988e-001	1.59110471155441e-002,-7.78345981825975e-003
7.63963963963964e+005	2.09283882010336e-001,3.92816105592464e-001	1.58143223597933e-002,-7.85632211184928e-003
7.73873873873874e+005	2.14169476838853e-001,3.96402519643377e-001	1.57166104632229e-002,-7.92805039286753e-003
7.83783783783784e+005	2.19103886577289e-001,3.99931566229013e-001	1.56179222684542e-002,-7.99863132458027e-003
7.93693693693694e+005	2.24086562583602e-001,4.03402581632969e-001	1.55182687483280e-002,-8.06805163265939e-003
8.03603603603604e+005	2.29116949811654e-001,4.06814905294221e-001	1.54176610037669e-002,-8.13629810588441e-003
8.13513513513514e+005	2.34194486927483e-001,4.10167879837929e-001	1.53161102614503e-002,-8.20335759675858e-003
8.23423423423424e+005	2.39318606435687e-001,4.13460851101501e-001	1.52136278712863e-002,-8.26921702203003e-003
8.33333333333334e+005	2.44488734816647e-001,4.16693168155359e-001	1.51102253036671e-002,-8.33386336310718e-003
8.43243243243244e+005	2.49704292675459e-001,4.19864183317843e-001	1.50059141464908e-002,-8.39728366635686e-003
8.53153153153153e+005	2.54964694903469e-001,4.22973252163609e-001	1.49007061019306e-002,-8.45946504327219e-003
8.63063063063063e+005	2.60269350853451e-001,4.26019733524816e-001	1.47946129829310e-002,-8.52039467049632e-003
8.72972972972973e+005	2.65617664529537e-001,4.29002989484321e-001	1.46876467094093e-002,-8.58005978968641e-003
8.82882882882883e+005	2.71009034793156e-001,4.31922385360042e-001	1.45798193041369e-002,-8.63844770720083e-003
8.92792792792793e+005	2.76442855586367e-001,4.34777289679534e-001	1.44711428882727e-002,-8.69554579359068e-003
9.02702702702703e+005	2.81918516174122e-001,4.37567074143737e-001	1.43616296765176e-002,-8.75134148287473e-003
9.12612612612613e+005	2.87435401407178e-001,4.40291113578729e-001	1.42512919718564e-002,-8.80582227157457e-003
9.22522522522523e+005	2.92992892007589e-001,4.42948785874203e-001	1.41401421598482e-002,-8.85897571748405e-003
9.32432432432433e+005	2.98590364878913e-001,4.45539471907219e-001	1.40281927024217e-002,-8.91078943814438e-003
9.42342342342343e+005	3.04227193443558e-001,4.48062555449628e-001	1.39154561311288e-002,-8.96125110899255e-003
9.52252252252253e+005	3.09902748009980e-001,4.50517423057357e-001	1.38019450398004e-002,-9.01034846114714e-003
9.62162162162163e+005	3.15616396172791e-001,4.52903463939544e-001	1.36876720765442e-002,-9.05806927879089e-003
9.72072072072073e+005	3.21367503249224e-001,4.55220069805230e-001	1.35726499350155e-002,-9.10440139610461e-003
9.81981981981983e+005	3.27155432755881e-001,4.57466634685042e-001	1.34568913448824e-002,-9.14933269370084e-003
9.91891891891893e+005	3.32979546930182e-001,4.59642554724955e-001	1.33404090613964e-002,-9.19285109449911e-003
1.00180180180180e+006	3.38839207301574e-001,4.61747227948831e-001	1.32232158539685e-002,-9.23494455897662e-003
1.01171171171171e+006	3.44733775318239e-001,4.63780053985966e-001	1.31053244936352e-002,-9.27560107971932e-003
1.02162162162162e+006	3.50662613035869e-001,4.65740433759364e-001	1.29867477392826e-002,-9.31480867518727e-003
1.03153153153153e+006	3.56625083876035e-001,4.67627769129821e-001	1.28674983224793e-002,-9.35255538259641e-003
1.04144144144144e+006	3.62620553462774e-001,4.69441462490182e-001	1.27475889307445e-002,-9.38882924980365e-003
1.05135135135135e+006	3.68648390547339e-001,4.71180916303282e-001	1.26270321890532e-002,-9.42361832606565e-003
1.06126126126126e+006	3.74707968032580e-001,4.72845532576063e-001	1.25058406393484e-002,-9.45691065152125e-003
1.07117117117117e+006	3.80798664110219e-001,4.74434712261184e-001	1.23840267177956e-002,-9.48869424522368e-003
1.08108108108108e+006	3.86919863526435e-001,4.75947854576025e-001	1.22616027294713e-002,-9.51895709152050e-003
1.09099099099099e+006	3.93070958993665e-001,4.77384356227278e-001	1.21385808201267e-002,-9.54768712454556e-003
1.10090090090090e+006	3.99251352769566e-001,4.78743610527340e-001	1.20149729446087e-002,-9.57487221054679e-003
1.11081081081081e+006	4.05460458427620e-001,4.80025006386272e-001	1.18907908314476e-002,-9.60050012772544e-003
1.12072072072072e+006	4.11697702848187e-001,4.81227927160205e-001	1.17660459430363e-002,-9.62455854320410e-003
1.13063063063063e+006	4.17962528463921e-001,4.82351749333519e-001	1.16407494307216e-002,-9.64703498667038e-003
1.14054054054054e+006	4.24254395799707e-001,4.83395841007866e-001	1.15149120840059e-002,-9.66791682015732e-003
1.15045045045045e+006	4.30572786354765e-001,4.84359560165857e-001	1.13885442729047e-002,-9.68719120331715e-003
1.16036036036036e+006	4.36917205883726e-001,4.85242252670845e-001	1.12616558823255e-002,-9.70484505341691e-003
1.17027027027027e+006	4.43287188144633e-001,4.86043249956310e-001	1.11342562371073e-002,-9.72086499912620e-003
1.18018018018018e+006	4.49682299195549e-001,4.86761866348593e-001	1.10063540160890e-002,-9.73523732697187e-003
1.19009009009009e+006	4.56102142338300e-001,4.87397395954534e-001	1.08779571532340e-002,-9.74794791909067e-003
1.20000000000000e+006	4.62546363828848e-001,4.87949109030295e-001	1.07490727234230e-002,-9.75898218060590e-003
1.20990990990991e+006	4.69014659499816e-001,4.88416247728484e-001	1.06197068100037e-002,-9.76832495456969e-003
1.21981981981982e+006	4.75506782473383e-001,4.88798021096287e-001	1.04898643505323e-002,-9.77596042192574e-003
1.22972972972973e+006	4.82022552183833e-001,4.89093599166303e-001	1.03595489563233e-002,-9.78187198332606e-003
1.23963963963964e+006	4.88561864981239e-001,4.89302105941877e-001	1.02287627003752e-002,-9.78604211883754e-003
1.24954954954955e+006	4.95124706654227e-001,4.89422611027106e-001	1.00975058669155e-002,-9.78845222054212e-003
1.25945945945946e+006	5.01711167295228e-001,4.89454119584459e-001	9.96577665409543e-003,-9.78908239168919e-003
1.26936936936937e+006	5.08321459042118e-001,4.89395560214535e-001	9.83357081915765e-003,-9.78791120429071e-003
1.27927927927928e+006	5.14955937374261e-001,4.89245770235320e-001	9.70088125251477e-003,-9.78491540470640e-003
1.28918918918919e+006	5.21615126830320e-001,4.89003477681569e-001	9.56769746339359e-003,-9.78006955363138e-003
1.29909909909910e+006	5.28299752266166e-001,4.88667279133223e-001	9.43400495467669e-003,-9.77334558266445e-003
1.30900900900901e+006	5.35010777107001e-001,4.88235612192778e-001	9.29978445785998e-003,-9.76471224385555e-003
1.31891891891892e+006	5.41749450501271e-001,4.87706721032694e-001	9.16501098997459e-003,-9.75413442065388e-003
1.32882882882883e+006	5.48517365902837e-001,4.87078612876783e-001	9.02965268194327e-003,-9.74157225753565e-003
1.33873873873874e+006	5.55316534461966e-001,4.86349002491264e-001	8.89366931076068e-003,-9.72698004982527e-003
1.34864864864865e+006	5.62149477798334e-001,4.85515240630277e-001	8.75701044403333e-003,-9.71030481260554e-003
1.35855855855856e+006	5.69019346416060e-001,4.84574220733658e-001	8.61961307167881e-003,-9.69148441467317e-003
1.36846846846847e+006	5.75930072439479e-001,4.83522255736808e-001	8.48139855121042e-003,-9.67044511473615e-003
1.37837837837838e+006	5.82886568867940e-001,4.82354913178955e-001	8.34226862264121e-003,-9.64709826357910e-003
1.38828828828829e+006	5.89894992751851e-001,4.81066791152488e-001	8.20210014496297e-003,-9.62133582304975e-003
1.39819819819820e+006	5.96963097520191e-001,4.79651208778844e-001	8.06073804959619e-003,-9.59302417557689e-003
1.40810810810811e+006	6.04100711686431e-001,4.78099770665562e-001	7.91798576627139e-003,-9.56199541331123e-003
1.41801801801802e+006	6.11320399920079e-001,4.76401741330452e-001	7.77359200159841e-003,-9.52803482660903e-003
1.42792792792793e+006	6.18638392454290e-001,4.74543125736059e-001	7.62723215091420e-003,-9.49086251472118e-003
1.43783783783784e+006	6.26075917857386e-001,4.72505282197408e-001	7.47848164285228e-003,-9.45010564394816e-003
1.44774774774775e+006	6.33661156492258e-001,4.70262766774766e-001	7.32677687015484e-003,-9.40525533549532e-003
1.45765765765766e+006	6.41432173687817e-001,4.67779867024048e-001	7.17135652624367e-003,-9.35559734048097e-003
1.46756756756756e+006	6.49441442035052e-001,4.65004802792697e-001	7.01117115929897e-003,-9.30009605585395e-003
1.47747747747747e+006	6.57763014823400e-001,4.61859561336874e-001	6.84473970353201e-003,-9.23719122673747e-003
1.48738738738738e+006	6.66504240203748e-001,4.58221065062165e-001	6.66991519592504e-003,-9.16442130124331e-003
1.49729729729729e+006	6.75825383034105e-001,4.53883867360689e-001	6.48349233931790e-003,-9.07767734721379e-003
1.50720720720720e+006	6.85972767134787e-001,4.48479939047697e-001	6.28054465730426e-003,-8.96959878095393e-003
1.51711711711711e+006	6.97331436433140e-001,4.41287635764103e-001	6.05337127133720e-003,-8.82575271528205e-003
1.52702702702702e+006	7.10475346957646e-001,4.30714662799227e-001	5.79049306084707e-003,-8.61429325598454e-003
1.53693693693693e+006	7.25896106742754e-001,4.12668057072002e-001	5.48207786514493e-003,-8.25336114144005e-003
1.54684684684684e+006	7.39965509602801e-001,3.74877383529957e-001	5.20068980794398e-003,-7.49754767059913e-003
1.55675675675675e+006	7.03477667990943e-001,2.97047510651050e-001	5.93044664018114e-003,-5.94095021302100e-003
1.56666666666666e+006	5.83489668523737e-001,3.50345845375868e-001	8.33020662952526e-003,-7.00691690751735e-003
1.57657657657657e+006	6.17135873710291e-001,4.27430853104941e-001	7.65728252579418e-003,-8.54861706209882e-003
1.58648648648648e+006	6.55825945073181e-001,4.39339942961349e-001	6.88348109853638e-003,-8.78679885922697e-003
1.59639639639639e+006	6.81164264010777e-001,4.32084137397581e-001	6.37671471978446e-003,-8.64168274795162e-003
1.60630630630630e+006	6.84609748900963e-001,4.12177280930529e-001	6.30780502198074e-003,-8.24354561861058e-003
1.61621621621621e+006	6.74502229642403e-001,4.27792448381586e-001	6.50995540715195e-003,-8.55584896763173e-003
1.62612612612612e+006	6.94394512395655e-001,4.36251597868714e-001	6.11210975208691e-003,-8.72503195737429e-003
1.63603603603603e+006	7.10156486626067e-001,4.31515729841880e-001	5.79687026747866e-003,-8.63031459683760e-003
1.64594594594594e+006	7.15397346331315e-001,4.23298816295622e-001	5.69205307337369e-003,-8.46597632591244e-003
1.65585585585585e+006	7.22498375247140e-001,4.25647270948887e-001	5.55003249505721e-003,-8.51294541897773e-003
1.66576576576576e+006	7.29740251663570e-001,4.22970501237080e-001	5.40519496672860e-003,-8.45941002474160e-003
1.67567567567567e+006	7.39855562215717e-001,4.22695035583992e-001	5.20288875568566e-003,-8.45390071167985e-003
1.68558558558558e+006	7.49790888954091e-001,4.18830445747463e-001	5.00418222091818e-003,-8.37660891494925e-003
1.69549549549549e+006	7.58493427707651e-001,4.14216868261851e-001	4.83013144584698e-003,-8.28433736523702e-003
1.70540540540540e+006	7.66555964212984e-001,4.09262239926979e-001	4.66888071574031e-003,-8.18524479853957e-003
1.71531531531531e+006	7.74096308532998e-001,4.03733368281610e-001	4.51807382934004e-003,-8.07466736563220e-003
1.72522522522522e+006	7.79688515193359e-001,3.97698710864376e-001	4.40622969613281e-003,-7.95397421728752e-003
1.73513513513513e+006	7.85419516233228e-001,3.94421319818948e-001	4.29160967533544e-003,-7.88842639637895e-003
1.74504504504504e+006	7.92247058711890e-001,3.90790526570175e-001	4.15505882576220e-003,-7.81581053140349e-003
1.75495495495495e+006	7.99839788413653e-001,3.86162083840323e-001	4.00320423172693e-003,-7.72324167680645e-003
1.76486486486486e+006	8.06948014787401e-001,3.80894637595656e-001	3.86103970425198e-003,-7.61789275191313e-003
1.77477477477477e+006	8.13775830008394e-001,3.75412214891880e-001	3.72448339983211e-003,-7.50824429783761e-003
1.78468468468468e+006	8.20451847394463e-001,3.69751163437979e-001	3.59096305211074e-003,-7.39502326875958e-003
1.79459459459459e+006	8.27035354347827e-001,3.63896246885965e-001	3.45929291304345e-003,-7.27792493771929e-003
1.80450450450450e+006	8.33561291589819e-001,3.57819461846877e-001	3.32877416820363e-003,-7.15638923693754e-003
1.81441441441441e+006	8.40055624855185e-001,3.51483415860392e-001	3.19888750289630e-003,-7.02966831720784e-003
1.82432432432432e+006	8.46541530633895e-001,3.44838213690902e-001	3.06916938732210e-003,-6.89676427381804e-003
1.83423423423423e+006	8.53042495781353e-001,3.37814726147393e-001	2.93915008437294e-003,-6.75629452294786e-003
1.84414414414414e+006	8.59583974184709e-001,3.30312569373980e-001	2.80832051630582e-003,-6.60625138747959e-003
1.85405405405405e+006	8.66193151240609e-001,3.22177699863086e-001	2.67613697518782e-003,-6.44355399726172e-003
1.86396396396396e+006	8.72892260756469e-001,3.13157085175095e-001	2.54215478487063e-003,-6.26314170350191e-003
