Freq.	V(1|1|1|b)	I(R129)
1.00000000000000e+005	5.45394304636685e-002,1.60179963168335e-001	1.89092113907266e-002,-3.20359926336670e-003
1.09909909909910e+005	6.00621327154420e-002,1.75121749727415e-001	1.87987573456912e-002,-3.50243499454830e-003
1.19819819819820e+005	6.60478541461965e-002,1.89812861317834e-001	1.86790429170761e-002,-3.79625722635669e-003
1.29729729729730e+005	7.24819174633753e-002,2.04235074999000e-001	1.85503616507325e-002,-4.08470149998000e-003
1.39639639639640e+005	7.93487862659373e-002,2.18371267185932e-001	1.84130242746813e-002,-4.36742534371864e-003
1.49549549549550e+005	8.66321597449611e-002,2.32205444937166e-001	1.82673568051008e-002,-4.64410889874333e-003
1.59459459459459e+005	9.43150672441919e-002,2.45722773015779e-001	1.81136986551162e-002,-4.91445546031558e-003
1.69369369369369e+005	1.02379962687668e-001,2.58909595026636e-001	1.79524007462466e-002,-5.17819190053272e-003
1.79279279279279e+005	1.10808818483606e-001,2.71753447777594e-001	1.77838236303279e-002,-5.43506895555188e-003
1.89189189189189e+005	1.19583218343265e-001,2.84243068506858e-001	1.76083356331347e-002,-5.68486137013716e-003
1.99099099099099e+005	1.28684448394884e-001,2.96368394927882e-001	1.74263110321023e-002,-5.92736789855763e-003
2.09009009009009e+005	1.38093585972977e-001,3.08120558247958e-001	1.72381282805405e-002,-6.16241116495917e-003
2.18918918918919e+005	1.47791585496131e-001,3.19491869458361e-001	1.70441682900774e-002,-6.38983738916723e-003
2.28828828828829e+005	1.57759360898199e-001,3.30475799294617e-001	1.68448127820360e-002,-6.60951598589234e-003
2.38738738738739e+005	1.67977864140552e-001,3.41066952337504e-001	1.66404427171890e-002,-6.82133904675007e-003
2.48648648648649e+005	1.78428159401859e-001,3.51261035775807e-001	1.64314368119628e-002,-7.02522071551615e-003
2.58558558558559e+005	1.89091492613488e-001,3.61054823385231e-001	1.62181701477302e-002,-7.22109646770461e-003
2.68468468468468e+005	1.99949356080556e-001,3.70446115297104e-001	1.60010128783889e-002,-7.40892230594208e-003
2.78378378378378e+005	2.10983547999240e-001,3.79433694137905e-001	1.57803290400152e-002,-7.58867388275811e-003
2.88288288288288e+005	2.22176226748742e-001,3.88017278117820e-001	1.55564754650252e-002,-7.76034556235641e-003
2.98198198198198e+005	2.33509959900191e-001,3.96197471635120e-001	1.53298008019962e-002,-7.92394943270241e-003
3.08108108108108e+005	2.44967767944055e-001,4.03975713944414e-001	1.51006446411189e-002,-8.07951427888827e-003
3.18018018018018e+005	2.56533162791663e-001,4.11354226411997e-001	1.48693367441667e-002,-8.22708452823994e-003
3.27927927927928e+005	2.68190181154804e-001,4.18335958851817e-001	1.46361963769039e-002,-8.36671917703635e-003
3.37837837837838e+005	2.79923412949966e-001,4.24924535401975e-001	1.44015317410007e-002,-8.49849070803951e-003
3.47747747747748e+005	2.91718024910361e-001,4.31124200365274e-001	1.41656395017928e-002,-8.62248400730548e-003
3.57657657657657e+005	3.03559779619700e-001,4.36939764398962e-001	1.39288044076060e-002,-8.73879528797923e-003
3.67567567567567e+005	3.15435050206719e-001,4.42376551399337e-001	1.36912989958656e-002,-8.84753102798674e-003
3.77477477477477e+005	3.27330830959145e-001,4.47440346387025e-001	1.34533833808171e-002,-8.94880692774049e-003
3.87387387387387e+005	3.39234744130291e-001,4.52137344659144e-001	1.32153051173942e-002,-9.04274689318288e-003
3.97297297297297e+005	3.51135043221290e-001,4.56474102435805e-001	1.29772991355742e-002,-9.12948204871609e-003
4.07207207207207e+005	3.63020613027479e-001,4.60457489190860e-001	1.27395877394504e-002,-9.20914978381720e-003
4.17117117117117e+005	3.74880966739060e-001,4.64094641820964e-001	1.25023806652188e-002,-9.28189283641929e-003
4.27027027027027e+005	3.86706240384392e-001,4.67392920773062e-001	1.22658751923122e-002,-9.34785841546125e-003
4.36936936936936e+005	3.98487184899523e-001,4.70359868218620e-001	1.20302563020095e-002,-9.40719736437239e-003
4.46846846846846e+005	4.10215156100286e-001,4.73003168333398e-001	1.17956968779943e-002,-9.46006336666795e-003
4.56756756756756e+005	4.21882102823971e-001,4.75330609714410e-001	1.15623579435206e-002,-9.50661219428821e-003
4.66666666666666e+005	4.33480553496498e-001,4.77350049940909e-001	1.13303889300700e-002,-9.54700099881819e-003
4.76576576576576e+005	4.45003601368727e-001,4.79069382263811e-001	1.10999279726255e-002,-9.58138764527621e-003
4.86486486486486e+005	4.56444888652194e-001,4.80496504387793e-001	1.08711022269561e-002,-9.60993008775586e-003
4.96396396396396e+005	4.67798589770645e-001,4.81639289292295e-001	1.06440282045871e-002,-9.63278578584589e-003
5.06306306306306e+005	4.79059393929443e-001,4.82505558021624e-001	1.04188121214111e-002,-9.65011116043249e-003
5.16216216216216e+005	4.90222487190520e-001,4.83103054360271e-001	1.01955502561896e-002,-9.66206108720542e-003
5.26126126126125e+005	5.01283534226243e-001,4.83439421296982e-001	9.97432931547515e-003,-9.66878842593965e-003
5.36036036036035e+005	5.12238659911639e-001,4.83522179170161e-001	9.75522680176722e-003,-9.67044358340322e-003
5.45945945945945e+005	5.23084430900879e-001,4.83358705377285e-001	9.53831138198243e-003,-9.66717410754570e-003
5.55855855855855e+005	5.33817837321060e-001,4.82956215522244e-001	9.32364325357880e-003,-9.65912431044488e-003
5.65765765765765e+005	5.44436274704168e-001,4.82321745866350e-001	9.11127450591664e-003,-9.64643491732700e-003
5.75675675675675e+005	5.54937526266770e-001,4.81462136941159e-001	8.90124947466460e-003,-9.62924273882317e-003
5.85585585585585e+005	5.65319745636569e-001,4.80384018173736e-001	8.69360508726862e-003,-9.60768036347472e-003
5.95495495495495e+005	5.75581440115487e-001,4.79093793367409e-001	8.48837119769026e-003,-9.58187586734818e-003
6.05405405405405e+005	5.85721454560530e-001,4.77597626872948e-001	8.28557090878939e-003,-9.55195253745895e-003
6.15315315315315e+005	5.95738955956335e-001,4.75901430276192e-001	8.08522088087330e-003,-9.51802860552385e-003
6.25225225225225e+005	6.05633418747055e-001,4.74010849417958e-001	7.88733162505890e-003,-9.48021698835916e-003
6.35135135135135e+005	6.15404610990201e-001,4.71931251550127e-001	7.69190778019598e-003,-9.43862503100253e-003
6.45045045045045e+005	6.25052581391206e-001,4.69667712417600e-001	7.49894837217588e-003,-9.39335424835200e-003
6.54954954954955e+005	6.34577647274952e-001,4.67225003038625e-001	7.30844705450097e-003,-9.34450006077250e-003
6.64864864864865e+005	6.43980383549368e-001,4.64607575935015e-001	7.12039232901263e-003,-9.29215151870031e-003
6.74774774774775e+005	6.53261612716653e-001,4.61819550538016e-001	6.93476774566693e-003,-9.23639101076032e-003
6.84684684684685e+005	6.62422395989861e-001,4.58864697463615e-001	6.75155208020277e-003,-9.17729394927230e-003
6.94594594594594e+005	6.71464025577018e-001,4.55746421311201e-001	6.57071948845964e-003,-9.11492842622402e-003
7.04504504504504e+005	6.80388018202100e-001,4.52467741589078e-001	6.39223963595801e-003,-9.04935483178157e-003
7.14414414414414e+005	6.89196109943215e-001,4.49031271305723e-001	6.21607780113571e-003,-8.98062542611446e-003
7.24324324324324e+005	6.97890252485057e-001,4.45439192680928e-001	6.04219495029886e-003,-8.90878385361856e-003
7.34234234234234e+005	7.06472610908466e-001,4.41693229316162e-001	5.87054778183068e-003,-8.83386458632324e-003
7.44144144144144e+005	7.14945563181194e-001,4.37794614000200e-001	5.70108873637613e-003,-8.75589228000400e-003
7.54054054054054e+005	7.23311701583232e-001,4.33744051077300e-001	5.53376596833535e-003,-8.67488102154601e-003
7.63963963963964e+005	7.31573836422606e-001,4.29541671887109e-001	5.36852327154788e-003,-8.59083343774217e-003
7.73873873873874e+005	7.39735002623291e-001,4.25186980982408e-001	5.20529994753419e-003,-8.50373961964815e-003
7.83783783783784e+005	7.47798470166323e-001,4.20678788977183e-001	5.04403059667354e-003,-8.41357577954367e-003
7.93693693693694e+005	7.55767759580157e-001,4.16015122295815e-001	4.88464480839687e-003,-8.32030244591630e-003
8.03603603603604e+005	7.63646652333377e-001,4.11193075964747e-001	4.72706695333246e-003,-8.22386151929493e-003
8.13513513513514e+005	7.71438920058788e-001,4.06208680291245e-001	4.57122159882425e-003,-8.12417360582491e-003
8.23423423423424e+005	7.79149647161896e-001,4.01057257297010e-001	4.41700705676207e-003,-8.02114514594019e-003
8.33333333333334e+005	7.86783509955047e-001,3.95729638830644e-001	4.26432980089905e-003,-7.91459277661289e-003
8.43243243243244e+005	7.94342470147737e-001,3.90210106704540e-001	4.11315059704526e-003,-7.80420213409079e-003
8.53153153153153e+005	8.01772216831815e-001,3.84484938457637e-001	3.96455566336370e-003,-7.68969876915274e-003
8.63063063063063e+005	8.09184698907368e-001,3.78686359211095e-001	3.81630602185265e-003,-7.57372718422190e-003
8.72972972972973e+005	8.16582230241475e-001,3.72600525987109e-001	3.66835539517050e-003,-7.45201051974218e-003
8.82882882882883e+005	8.23912055295298e-001,3.66280440701782e-001	3.52175889409403e-003,-7.32560881403563e-003
8.92792792792793e+005	8.31192640575826e-001,3.59718036295482e-001	3.37614718848347e-003,-7.19436072590964e-003
9.02702702702703e+005	8.38434356069012e-001,3.52893123028974e-001	3.23131287861975e-003,-7.05786246057949e-003
9.12612612612613e+005	8.45645870499439e-001,3.45780967335793e-001	3.08708259001123e-003,-6.91561934671586e-003
9.22522522522523e+005	8.52835667805704e-001,3.38352050914962e-001	2.94328664388592e-003,-6.76704101829925e-003
9.32432432432433e+005	8.60012422805094e-001,3.30571075746716e-001	2.79975154389811e-003,-6.61142151493432e-003
9.42342342342343e+005	8.67185064338848e-001,3.22395624680233e-001	2.65629871322304e-003,-6.44791249360466e-003
9.52252252252253e+005	8.74362685817149e-001,3.13774424387868e-001	2.51274628365702e-003,-6.27548848775735e-003
9.62162162162163e+005	8.81554309641079e-001,3.04645070965925e-001	2.36891380717843e-003,-6.09290141931850e-003
9.72072072072073e+005	8.88768446640172e-001,2.94931007198734e-001	2.22463106719656e-003,-5.89862014397468e-003
9.81981981981983e+005	8.96012319678976e-001,2.84537431825962e-001	2.07975360642047e-003,-5.69074863651924e-003
9.91891891891893e+005	9.03290390426752e-001,2.73345674017518e-001	1.93419219146497e-003,-5.46691348035036e-003
1.00180180180180e+006	9.10602354715898e-001,2.61206659543947e-001	1.78795290568203e-003,-5.22413319087894e-003
1.01171171171171e+006	9.17941267659452e-001,2.47925847887348e-001	1.64117464681096e-003,-4.95851695774697e-003
1.02162162162162e+006	9.25281418629229e-001,2.33249827184640e-001	1.49437162741542e-003,-4.66499654369281e-003
1.03153153153153e+006	9.32570439207827e-001,2.16838698756522e-001	1.34859121584346e-003,-4.33677397513044e-003
1.04144144144144e+006	9.39700258430795e-001,1.98219346481747e-001	1.20599483138411e-003,-3.96438692963494e-003
1.05135135135135e+006	9.46440735441707e-001,1.76698489165089e-001	1.07118529116585e-003,-3.53396978330179e-003
1.06126126126126e+006	9.52225933582495e-001,1.51171831911374e-001	9.55481328350101e-004,-3.02343663822749e-003
1.07117117117117e+006	9.55115242643364e-001,1.19743754197091e-001	8.97695147132722e-004,-2.39487508394181e-003
1.08108108108108e+006	9.45590816319365e-001,8.39633425876796e-002	1.08818367361270e-003,-1.67926685175359e-003
1.09099099099099e+006	9.45299917370098e-001,6.71085686359601e-002	1.09400165259803e-003,-1.34217137271920e-003
1.10090090090090e+006	9.51584044627447e-001,1.67679788762766e-002	9.68319107451054e-004,-3.35359577525532e-004
1.11081081081081e+006	9.37635406853927e-001,-4.83182170327373e-002	1.24729186292145e-003,9.66364340654745e-004
1.12072072072072e+006	8.98772582726603e-001,-1.26806865317646e-001	2.02454834546795e-003,2.53613730635292e-003
1.13063063063063e+006	8.15626772969249e-001,-2.13828477985440e-001	3.68746454061501e-003,4.27656955970881e-003
1.14054054054054e+006	6.60041500687732e-001,-2.78042085749585e-001	6.79916998624535e-003,5.56084171499170e-003
1.15045045045045e+006	4.39406784473425e-001,-2.36495301362571e-001	1.12118643105315e-002,4.72990602725142e-003
1.16036036036036e+006	2.86600385541828e-001,-3.27614308833460e-002	1.42679922891634e-002,6.55228617666921e-004
1.17027027027027e+006	3.32164408539178e-001,1.71290138713212e-001	1.33567118292164e-002,-3.42580277426423e-003
1.18018018018018e+006	3.57373120839067e-001,2.40914528566539e-001	1.28525375832187e-002,-4.81829057133078e-003
1.19009009009009e+006	4.21530690256507e-001,3.68595256777651e-001	1.15693861948699e-002,-7.37190513555302e-003
1.20000000000000e+006	5.20059209007109e-001,4.19542063311222e-001	9.59881581985781e-003,-8.39084126622444e-003
1.20990990990991e+006	5.98144570864051e-001,4.31469116679945e-001	8.03710858271898e-003,-8.62938233359890e-003
1.21981981981982e+006	6.56942741585751e-001,4.28098047252484e-001	6.86114516828498e-003,-8.56196094504967e-003
1.22972972972973e+006	7.01805137708207e-001,4.18616243342373e-001	5.96389724583586e-003,-8.37232486684747e-003
1.23963963963964e+006	7.36863100620779e-001,4.06815379983003e-001	5.26273798758441e-003,-8.13630759966007e-003
1.24954954954955e+006	7.64939817835808e-001,3.94336592011863e-001	4.70120364328385e-003,-7.88673184023725e-003
1.25945945945946e+006	7.87939508077959e-001,3.81899625171013e-001	4.24120983844082e-003,-7.63799250342025e-003
1.26936936936937e+006	8.07162639374494e-001,3.69809159179614e-001	3.85674721251013e-003,-7.39618318359229e-003
1.27927927927928e+006	8.23514948710754e-001,3.58177050666230e-001	3.52970102578493e-003,-7.16354101332460e-003
1.28918918918919e+006	8.37640409590899e-001,3.47024389763755e-001	3.24719180818202e-003,-6.94048779527511e-003
1.29909909909910e+006	8.50002969800947e-001,3.36330488777820e-001	2.99994060398106e-003,-6.72660977555639e-003
1.30900900900901e+006	8.60950781099241e-001,3.26072996621959e-001	2.78098437801519e-003,-6.52145993243917e-003
1.31891891891892e+006	8.70758511634105e-001,3.16190534205497e-001	2.58482976731790e-003,-6.32381068410993e-003
1.32882882882883e+006	8.79611883573172e-001,3.06641025427297e-001	2.40776232853657e-003,-6.13282050854594e-003
1.33873873873874e+006	8.87667566075087e-001,2.97385942139964e-001	2.24664867849827e-003,-5.94771884279929e-003
1.34864864864865e+006	8.95048377856345e-001,2.88386977086241e-001	2.09903244287310e-003,-5.76773954172482e-003
1.35855855855856e+006	9.01851836152120e-001,2.79609018818937e-001	1.96296327695760e-003,-5.59218037637873e-003
1.36846846846847e+006	9.08156378129813e-001,2.71020241706581e-001	1.83687243740375e-003,-5.42040483413163e-003
1.37837837837838e+006	9.14025753195930e-001,2.62591817801041e-001	1.71948493608140e-003,-5.25183635602081e-003
1.38828828828829e+006	9.19512237237767e-001,2.54297536244810e-001	1.60975525524466e-003,-5.08595072489620e-003
1.39819819819820e+006	9.24659029495967e-001,2.46113397832358e-001	1.50681941008067e-003,-4.92226795664716e-003
1.40810810810811e+006	9.29502060507167e-001,2.38017203217046e-001	1.40995878985666e-003,-4.76034406434092e-003
1.41801801801802e+006	9.34071359379258e-001,2.29988123858771e-001	1.31857281241485e-003,-4.59976247717542e-003
1.42792792792793e+006	9.38392057520135e-001,2.22006201565586e-001	1.23215884959730e-003,-4.44012403131173e-003
1.43783783783784e+006	9.42484959960147e-001,2.14051605812272e-001	1.15030080079707e-003,-4.28103211624543e-003
1.44774774774775e+006	9.46365877194356e-001,2.06103106815035e-001	1.07268245611289e-003,-4.12206213630070e-003
1.45765765765766e+006	9.50036722931081e-001,1.98135827117017e-001	9.99265541378378e-004,-3.96271654234034e-003
1.46756756756756e+006	9.53458669918105e-001,1.90189384343331e-001	9.30826601637904e-004,-3.80378768686663e-003
1.47747747747747e+006	9.56836552978226e-001,1.82263944809330e-001	8.63268940435482e-004,-3.64527889618660e-003
1.48738738738738e+006	9.60045417788000e-001,1.74186954366510e-001	7.99091644239998e-004,-3.48373908733019e-003
1.49729729729729e+006	9.63074959268477e-001,1.66019927888508e-001	7.38500814630461e-004,-3.32039855777016e-003
1.50720720720720e+006	9.65944553969460e-001,1.57741248462105e-001	6.81108920610798e-004,-3.15482496924211e-003
1.51711711711711e+006	9.68657801329610e-001,1.49315493479003e-001	6.26843973407794e-004,-2.98630986958006e-003
1.52702702702702e+006	9.71207318959148e-001,1.40693175973221e-001	5.75853620817042e-004,-2.81386351946442e-003
1.53693693693693e+006	9.73561140407345e-001,1.31794323443959e-001	5.28777191853103e-004,-2.63588646887919e-003
1.54684684684684e+006	9.75588311324326e-001,1.22467598580827e-001	4.88233773513485e-004,-2.44935197161654e-003
1.55675675675675e+006	9.76575171491951e-001,1.12558057000304e-001	4.68496570160986e-004,-2.25116114000608e-003
1.56666666666666e+006	9.75794977831007e-001,1.05396043234056e-001	4.84100443379862e-004,-2.10792086468112e-003
1.57657657657657e+006	9.79888476788091e-001,9.75431433126450e-002	4.02230464238171e-004,-1.95086286625290e-003
1.58648648648648e+006	9.82411599048665e-001,8.68833401039309e-002	3.51768019026695e-004,-1.73766680207862e-003
1.59639639639639e+006	9.83923882559976e-001,7.56145292195619e-002	3.21522348800487e-004,-1.51229058439124e-003
1.60630630630630e+006	9.84657492504570e-001,6.34441910588441e-002	3.06850149908600e-004,-1.26888382117688e-003
1.61621621621621e+006	9.83933730307885e-001,4.96944293257823e-002	3.21325393842296e-004,-9.93888586515647e-004
1.62612612612612e+006	9.78274219417032e-001,3.38081579241747e-002	4.34515611659361e-004,-6.76163158483495e-004
1.63603603603603e+006	9.60696573680682e-001,3.11831605939243e-002	7.86068526386361e-004,-6.23663211878486e-004
1.64594594594594e+006	9.74256113391077e-001,3.53427542677841e-002	5.14877732178465e-004,-7.06855085355683e-004
1.65585585585585e+006	9.81554452560991e-001,1.71075130288145e-002	3.68910948780179e-004,-3.42150260576291e-004
1.66576576576576e+006	9.80882133785072e-001,-3.19140959512773e-003	3.82357324298561e-004,6.38281919025546e-005
1.67567567567567e+006	9.73553464278754e-001,-2.60567328261067e-002	5.28930714424924e-004,5.21134656522135e-004
1.68558558558558e+006	9.51712743883198e-001,-4.77382245085174e-002	9.65745122336033e-004,9.54764490170348e-004
1.69549549549549e+006	9.07678822652169e-001,-4.26025780756378e-002	1.84642354695662e-003,8.52051561512757e-004
1.70540540540540e+006	9.35572259762024e-001,-2.79926380228464e-003	1.28855480475953e-003,5.59852760456929e-005
1.71531531531531e+006	9.58858916931876e-001,-3.59733703456603e-002	8.22821661362481e-004,7.19467406913205e-004
1.72522522522522e+006	9.48342107664643e-001,-7.41615866569459e-002	1.03315784670713e-003,1.48323173313892e-003
1.73513513513513e+006	9.04527174765379e-001,-9.58759613067175e-002	1.90945650469243e-003,1.91751922613435e-003
1.74504504504504e+006	8.64687185792481e-001,-6.30359982341417e-002	2.70625628415038e-003,1.26071996468283e-003
1.75495495495495e+006	8.99049270427658e-001,-3.06338842516064e-002	2.01901459144684e-003,6.12677685032128e-004
1.76486486486486e+006	9.37937495964222e-001,-5.09573658870374e-002	1.24125008071555e-003,1.01914731774075e-003
1.77477477477477e+006	9.45081986486684e-001,-9.79931069051247e-002	1.09836027026631e-003,1.95986213810249e-003
1.78468468468468e+006	9.31607872919223e-001,-1.41446623278258e-001	1.36784254161554e-003,2.82893246556516e-003
1.79459459459459e+006	9.04392625773456e-001,-1.87806059334685e-001	1.91214748453088e-003,3.75612118669371e-003
1.80450450450450e+006	8.51962597277184e-001,-2.36535023717869e-001	2.96074805445631e-003,4.73070047435739e-003
1.81441441441441e+006	7.54582297645831e-001,-2.75399685514680e-001	4.90835404708338e-003,5.50799371029360e-003
1.82432432432432e+006	5.90210629901806e-001,-2.43341148384758e-001	8.19578740196388e-003,4.86682296769517e-003
1.83423423423423e+006	4.78760503424448e-001,-2.11667259920186e-002	1.04247899315110e-002,4.23334519840372e-004
1.84414414414414e+006	6.38899306914571e-001,1.76287429217750e-001	7.22201386170857e-003,-3.52574858435501e-003
1.85405405405405e+006	8.14449352817596e-001,1.55895240710269e-001	3.71101294364808e-003,-3.11790481420538e-003
1.86396396396396e+006	8.92818694122596e-001,7.09217905526097e-002	2.14362611754807e-003,-1.41843581105219e-003
