Freq.	V(1|1|1|b)	I(R129)
1.00000000000000e+005	5.97628995219983e-002,1.69517977876160e-001	1.88047420095600e-002,-3.39035955752321e-003
1.09909909909910e+005	6.59562141845392e-002,1.85193777855384e-001	1.86808757163092e-002,-3.70387555710768e-003
1.19819819819820e+005	7.26590524694324e-002,2.00570097625968e-001	1.85468189506114e-002,-4.01140195251935e-003
1.29729729729730e+005	7.98527093123788e-002,2.15625897478700e-001	1.84029458137524e-002,-4.31251794957400e-003
1.39639639639640e+005	8.75174557998509e-002,2.30341625971938e-001	1.82496508840030e-002,-4.60683251943875e-003
1.49549549549550e+005	9.56326733635552e-002,2.44699251562256e-001	1.80873465327289e-002,-4.89398503124511e-003
1.59459459459459e+005	1.04176986618177e-001,2.58682288215922e-001	1.79164602676365e-002,-5.17364576431843e-003
1.69369369369369e+005	1.13128394775060e-001,2.72275812537127e-001	1.77374321044988e-002,-5.44551625074253e-003
1.79279279279279e+005	1.22464401012160e-001,2.85466471257803e-001	1.75507119797568e-002,-5.70932942515606e-003
1.89189189189189e+005	1.32162138960770e-001,2.98242478695583e-001	1.73567572207846e-002,-5.96484957391166e-003
1.99099099099099e+005	1.42198495412747e-001,3.10593604257471e-001	1.71560300917451e-002,-6.21187208514942e-003
2.09009009009009e+005	1.52550228380007e-001,3.22511150372753e-001	1.69489954323999e-002,-6.45022300745506e-003
2.18918918918919e+005	1.63194079712242e-001,3.33987921443871e-001	1.67361184057552e-002,-6.67975842887742e-003
2.28828828828829e+005	1.74106881578288e-001,3.45018184543011e-001	1.65178623684342e-002,-6.90036369086022e-003
2.38738738738739e+005	1.85265656229310e-001,3.55597622674384e-001	1.62946868754138e-002,-7.11195245348768e-003
2.48648648648649e+005	1.96647708580307e-001,3.65723281479347e-001	1.60670458283939e-002,-7.31446562958693e-003
2.58558558558559e+005	2.08230711265290e-001,3.75393510291059e-001	1.58353857746942e-002,-7.50787020582117e-003
2.68468468468468e+005	2.19992781937175e-001,3.84607898452612e-001	1.56001443612565e-002,-7.69215796905224e-003
2.78378378378378e+005	2.31912552693274e-001,3.93367207801456e-001	1.53617489461345e-002,-7.86734415602911e-003
2.88288288288288e+005	2.43969231609409e-001,4.01673302196792e-001	1.51206153678118e-002,-8.03346604393584e-003
2.98198198198198e+005	2.56142656458639e-001,4.09529074928254e-001	1.48771468708272e-002,-8.19058149856508e-003
3.08108108108108e+005	2.68413340773582e-001,4.16938374796060e-001	1.46317331845284e-002,-8.33876749592120e-003
3.18018018018018e+005	2.80762512483696e-001,4.23905931597340e-001	1.43847497503261e-002,-8.47811863194681e-003
3.27927927927928e+005	2.93172145420613e-001,4.30437281692392e-001	1.41365570915877e-002,-8.60874563384785e-003
3.37837837837838e+005	3.05624984035661e-001,4.36538694260186e-001	1.38875003192868e-002,-8.73077388520373e-003
3.47747747747748e+005	3.18104561714452e-001,4.42217098786097e-001	1.36379087657110e-002,-8.84434197572193e-003
3.57657657657657e+005	3.30595213104417e-001,4.47480014258061e-001	1.33880957379117e-002,-8.94960028516122e-003
3.67567567567567e+005	3.43082080892942e-001,4.52335480481383e-001	1.31383583821412e-002,-9.04670960962765e-003
3.77477477477477e+005	3.55551117487233e-001,4.56791991858274e-001	1.28889776502553e-002,-9.13583983716549e-003
3.87387387387387e+005	3.67989082052925e-001,4.60858433916817e-001	1.26402183589415e-002,-9.21716867833634e-003
3.97297297297297e+005	3.80383533367636e-001,4.64544022815959e-001	1.23923293326473e-002,-9.29088045631918e-003
4.07207207207207e+005	3.92722818939092e-001,4.67858247999067e-001	1.21455436212182e-002,-9.35716495998133e-003
4.17117117117117e+005	4.04996060825873e-001,4.70810818118617e-001	1.19000787834825e-002,-9.41621636237235e-003
4.27027027027027e+005	4.17193138583209e-001,4.73411610309251e-001	1.16561372283358e-002,-9.46823220618503e-003
4.36936936936936e+005	4.29304669737266e-001,4.75670622845553e-001	1.14139066052547e-002,-9.51341245691106e-003
4.46846846846846e+005	4.41321988169867e-001,4.77597931184707e-001	1.11735602366027e-002,-9.55195862369413e-003
4.56756756756756e+005	4.53237120772103e-001,4.79203647362431e-001	1.09352575845579e-002,-9.58407294724862e-003
4.66666666666666e+005	4.65042762700610e-001,4.80497882683219e-001	1.06991447459878e-002,-9.60995765366438e-003
4.76576576576576e+005	4.76732251544802e-001,4.81490713622663e-001	1.04653549691040e-002,-9.62981427245327e-003
4.86486486486486e+005	4.88299540687555e-001,4.82192150840317e-001	1.02340091862489e-002,-9.64384301680634e-003
4.96396396396396e+005	4.99739172116258e-001,4.82612111185792e-001	1.00052165576748e-002,-9.65224222371584e-003
5.06306306306306e+005	5.11046248915908e-001,4.82760392568417e-001	9.77907502168185e-003,-9.65520785136834e-003
5.16216216216216e+005	5.22216407651528e-001,4.82646651551373e-001	9.55567184696944e-003,-9.65293303102745e-003
5.26126126126125e+005	5.33245790823670e-001,4.82280383524542e-001	9.33508418352660e-003,-9.64560767049084e-003
5.36036036036035e+005	5.44131019558435e-001,4.81670905306041e-001	9.11737960883131e-003,-9.63341810612082e-003
5.45945945945945e+005	5.54869166672330e-001,4.80827340020227e-001	8.90261666655341e-003,-9.61654680040454e-003
5.55855855855855e+005	5.65457730232542e-001,4.79758604099638e-001	8.69084539534917e-003,-9.59517208199276e-003
5.65765765765765e+005	5.75894607714840e-001,4.78473396259554e-001	8.48210784570320e-003,-9.56946792519108e-003
5.75675675675675e+005	5.86178070844391e-001,4.76980188296411e-001	8.27643858311217e-003,-9.53960376592822e-003
5.85585585585585e+005	5.96306741189255e-001,4.75287217564937e-001	8.07386517621491e-003,-9.50574435129873e-003
5.95495495495495e+005	6.06279566562175e-001,4.73402480993415e-001	7.87440866875649e-003,-9.46804961986831e-003
6.05405405405405e+005	6.16095798273554e-001,4.71333730501692e-001	7.67808403452892e-003,-9.42667461003384e-003
6.15315315315315e+005	6.25754969266973e-001,4.69088469692315e-001	7.48490061466054e-003,-9.38176939384630e-003
6.25225225225225e+005	6.35256873158442e-001,4.66673951691333e-001	7.29486253683115e-003,-9.33347903382666e-003
6.35135135135135e+005	6.44601544191456e-001,4.64097178021691e-001	7.10796911617089e-003,-9.28194356043381e-003
6.45045045045045e+005	6.53789238111995e-001,4.61364898398694e-001	6.92421523776011e-003,-9.22729796797387e-003
6.54954954954955e+005	6.62820413960657e-001,4.58483611343632e-001	6.74359172078686e-003,-9.16967222687264e-003
6.64864864864865e+005	6.71695716773087e-001,4.55459565518204e-001	6.56608566453825e-003,-9.10919131036409e-003
6.74774774774775e+005	6.80415961174736e-001,4.52298761688849e-001	6.39168077650529e-003,-9.04597523377699e-003
6.84684684684685e+005	6.88982115851614e-001,4.49006955236417e-001	6.22035768296771e-003,-8.98013910472834e-003
6.94594594594594e+005	6.97395288875080e-001,4.45589659132694e-001	6.05209422249841e-003,-8.91179318265388e-003
7.04504504504504e+005	7.05656713855643e-001,4.42052147311192e-001	5.88686572288715e-003,-8.84104294622385e-003
7.14414414414414e+005	7.13767736898398e-001,4.38399458365192e-001	5.72464526203204e-003,-8.76798916730383e-003
7.24324324324324e+005	7.21729804330719e-001,4.34636399511354e-001	5.56540391338563e-003,-8.69272799022707e-003
7.34234234234234e+005	7.29544451171396e-001,4.30767550762236e-001	5.40911097657207e-003,-8.61535101524472e-003
7.44144144144144e+005	7.37213290309309e-001,4.26797269255734e-001	5.25573419381381e-003,-8.53594538511468e-003
7.54054054054054e+005	7.44738002358976e-001,4.22729693693868e-001	5.10523995282048e-003,-8.45459387387737e-003
7.63963963963964e+005	7.52120326159872e-001,4.18568748847392e-001	4.95759347680255e-003,-8.37137497694785e-003
7.73873873873874e+005	7.59362049886206e-001,4.14318150086461e-001	4.81275900227588e-003,-8.28636300172922e-003
7.83783783783784e+005	7.66465002733846e-001,4.09981407901013e-001	4.67069994532308e-003,-8.19962815802027e-003
7.93693693693694e+005	7.73431047151250e-001,4.05561832377676e-001	4.53137905697501e-003,-8.11123664755352e-003
8.03603603603604e+005	7.80262071581584e-001,4.01062537602787e-001	4.39475856836832e-003,-8.02125075205574e-003
8.13513513513514e+005	7.86959983683613e-001,3.96486445963691e-001	4.26080032632775e-003,-7.92972891927382e-003
8.23423423423424e+005	7.93526703999436e-001,3.91836292322683e-001	4.12946592001127e-003,-7.83672584645365e-003
8.33333333333334e+005	7.99964160037716e-001,3.87114628039923e-001	4.00071679924567e-003,-7.74229256079847e-003
8.43243243243244e+005	8.06274280741571e-001,3.82323824823346e-001	3.87451438516859e-003,-7.64647649646692e-003
8.53153153153153e+005	8.12458991310925e-001,3.77466078384959e-001	3.75082017378150e-003,-7.54932156769919e-003
8.63063063063063e+005	8.18520208349659e-001,3.72543411884102e-001	3.62959583300682e-003,-7.45086823768205e-003
8.72972972972973e+005	8.24459835308408e-001,3.67557679139073e-001	3.51080329383184e-003,-7.35115358278147e-003
8.82882882882883e+005	8.30279758194374e-001,3.62510567589170e-001	3.39440483611253e-003,-7.25021135178340e-003
8.92792792792793e+005	8.35981841519884e-001,3.57403600989513e-001	3.28036316960232e-003,-7.14807201979026e-003
9.02702702702703e+005	8.41567924461769e-001,3.52238141821109e-001	3.16864151076463e-003,-7.04476283642217e-003
9.12612612612613e+005	8.47039817203819e-001,3.47015393398390e-001	3.05920365592363e-003,-6.94030786796780e-003
9.22522522522523e+005	8.52399297434680e-001,3.41736401656000e-001	2.95201405130640e-003,-6.83472803312000e-003
9.32432432432433e+005	8.57648106973461e-001,3.36402056595769e-001	2.84703786053078e-003,-6.72804113191539e-003
9.42342342342343e+005	8.62787948495095e-001,3.31013093373731e-001	2.74424103009810e-003,-6.62026186747462e-003
9.52252252252253e+005	8.67820482327061e-001,3.25570093005545e-001	2.64359035345879e-003,-6.51140186011090e-003
9.62162162162163e+005	8.72747323288412e-001,3.20073482666851e-001	2.54505353423175e-003,-6.40146965333702e-003
9.72072072072073e+005	8.77570037541142e-001,3.14523535562790e-001	2.44859924917716e-003,-6.29047071125580e-003
9.81981981981983e+005	8.82290139422696e-001,3.08920370338175e-001	2.35419721154607e-003,-6.17840740676349e-003
9.91891891891893e+005	8.86909088226916e-001,3.03263949996495e-001	2.26181823546167e-003,-6.06527899992990e-003
1.00180180180180e+006	8.91428284898725e-001,2.97554080292004e-001	2.17143430202551e-003,-5.95108160584009e-003
1.01171171171171e+006	8.95849068605481e-001,2.91790407554492e-001	2.08301862789037e-003,-5.83580815108985e-003
1.02162162162162e+006	9.00172713145011e-001,2.85972415900826e-001	1.99654573709979e-003,-5.71944831801652e-003
1.03153153153153e+006	9.04400423146733e-001,2.80099423780834e-001	1.91199153706534e-003,-5.60198847561668e-003
1.04144144144144e+006	9.08533330018052e-001,2.74170579797381e-001	1.82933339963896e-003,-5.48341159594763e-003
1.05135135135135e+006	9.12572487582966e-001,2.68184857731300e-001	1.74855024834067e-003,-5.36369715462600e-003
1.06126126126126e+006	9.16518867353654e-001,2.62141050690913e-001	1.66962265292692e-003,-5.24282101381825e-003
1.07117117117117e+006	9.20373353368299e-001,2.56037764292780e-001	1.59253293263401e-003,-5.12075528585560e-003
1.08108108108108e+006	9.24136736519383e-001,2.49873408764551e-001	1.51726526961234e-003,-4.99746817529102e-003
1.09099099099099e+006	9.27809708285755e-001,2.43646189841712e-001	1.44380583428490e-003,-4.87292379683424e-003
1.10090090090090e+006	9.31392853768576e-001,2.37354098306834e-001	1.37214292462847e-003,-4.74708196613668e-003
1.11081081081081e+006	9.34886643915053e-001,2.30994897991415e-001	1.30226712169893e-003,-4.61989795982830e-003
1.12072072072072e+006	9.38291426794150e-001,2.24566112025254e-001	1.23417146411699e-003,-4.49132224050508e-003
1.13063063063063e+006	9.41607417764025e-001,2.18065007074487e-001	1.16785164471950e-003,-4.36130014148974e-003
1.14054054054054e+006	9.44834688340631e-001,2.11488575254408e-001	1.10330623318738e-003,-4.22977150508815e-003
1.15045045045045e+006	9.47973153538878e-001,2.04833513333448e-001	1.04053692922244e-003,-4.09667026666896e-003
1.16036036036036e+006	9.51022557409593e-001,1.98096198755480e-001	9.79548851808150e-004,-3.96192397510959e-003
1.17027027027027e+006	9.53982456433914e-001,1.91272661892180e-001	9.20350871321720e-004,-3.82545323784360e-003
1.18018018018018e+006	9.56852200356934e-001,1.84358553786428e-001	8.62955992861312e-004,-3.68717107572856e-003
1.19009009009009e+006	9.59630909937708e-001,1.77349108448200e-001	8.07381801245832e-004,-3.54698216896401e-003
1.20000000000000e+006	9.62317450953342e-001,1.70239098497572e-001	7.53650980933158e-004,-3.40478196995143e-003
1.20990990990991e+006	9.64910403606419e-001,1.63022782587410e-001	7.01791927871613e-004,-3.26045565174821e-003
1.21981981981982e+006	9.67408026225767e-001,1.55693842540854e-001	6.51839475484659e-004,-3.11387685081708e-003
1.22972972972973e+006	9.69808211787352e-001,1.48245307444587e-001	6.03835764252967e-004,-2.96490614889174e-003
1.23963963963964e+006	9.72108435262962e-001,1.40669460955654e-001	5.57831294740754e-004,-2.81338921911308e-003
1.24954954954955e+006	9.74305689046184e-001,1.32957726663026e-001	5.13886219076318e-004,-2.65915453326052e-003
1.25945945945946e+006	9.76396402572042e-001,1.25100524267629e-001	4.72071948559152e-004,-2.50201048535259e-003
1.26936936936937e+006	9.78376340510333e-001,1.17087086238461e-001	4.32473189793350e-004,-2.34174172476922e-003
1.27927927927928e+006	9.80240471179131e-001,1.08905219860247e-001	3.95190576417368e-004,-2.17810439720493e-003
1.28918918918919e+006	9.81982792394291e-001,1.00540992182045e-001	3.60344152114187e-004,-2.01081984364091e-003
1.29909909909910e+006	9.83596094556885e-001,9.19783035187347e-002	3.28078108862291e-004,-1.83956607037469e-003
1.30900900900901e+006	9.85071627935301e-001,8.31982956477562e-002	2.98567441293984e-004,-1.66396591295512e-003
1.31891891891892e+006	9.86398617968265e-001,7.41785077610050e-002	2.72027640634702e-004,-1.48357015522010e-003
1.32882882882883e+006	9.87563528934804e-001,6.48916352244134e-002	2.48729421303924e-004,-1.29783270448827e-003
1.33873873873874e+006	9.88548890538923e-001,5.53036406230774e-002	2.29022189221533e-004,-1.10607281246155e-003
1.34864864864865e+006	9.89331323002185e-001,4.53707662583671e-002	2.13373539956307e-004,-9.07415325167343e-004
1.35855855855856e+006	9.89877998232590e-001,3.50345992037794e-002	2.02440035348195e-004,-7.00691984075588e-004
1.36846846846847e+006	9.90139819829224e-001,2.42135078665806e-002	1.97203603415526e-004,-4.84270157331612e-004
1.37837837837838e+006	9.90037097088576e-001,1.27869348269511e-002	1.99258058228489e-004,-2.55738696539022e-004
1.38828828828829e+006	9.89426132241758e-001,5.64796910856841e-004	2.11477355164835e-004,-1.12959382171368e-005
1.39819819819820e+006	9.88010372720956e-001,-1.27755522234496e-002	2.39792545580886e-004,2.55511044468991e-004
1.40810810810811e+006	9.85060548447290e-001,-2.78194202527698e-002	2.98789031054194e-004,5.56388405055397e-004
1.41801801801802e+006	9.78318090857404e-001,-4.55717122694394e-002	4.33638182851916e-004,9.11434245388789e-004
1.42792792792793e+006	9.58818796809595e-001,-6.51424883944919e-002	8.23624063808104e-004,1.30284976788984e-003
1.43783783783784e+006	9.18348186644926e-001,-4.50936708480749e-002	1.63303626710148e-003,9.01873416961499e-004
1.44774774774775e+006	9.56933974572533e-001,-2.05327389669288e-002	8.61320508549330e-004,4.10654779338577e-004
1.45765765765766e+006	9.74884188201976e-001,-4.52046323207762e-002	5.02316235960480e-004,9.04092646415523e-004
1.46756756756756e+006	9.77035177281599e-001,-6.80400356150325e-002	4.59296454368030e-004,1.36080071230065e-003
1.47747747747747e+006	9.74267961285918e-001,-8.89268959762235e-002	5.14640774281638e-004,1.77853791952447e-003
1.48738738738738e+006	9.68041701573689e-001,-1.09825545930160e-001	6.39165968526219e-004,2.19651091860319e-003
1.49729729729729e+006	9.56102316517355e-001,-1.31703877708407e-001	8.77953669652896e-004,2.63407755416813e-003
1.50720720720720e+006	9.32506874957660e-001,-1.48538243086872e-001	1.34986250084680e-003,2.97076486173743e-003
1.51711711711711e+006	8.99555568106916e-001,-1.41150017077902e-001	2.00888863786169e-003,2.82300034155805e-003
1.52702702702702e+006	9.18308927470516e-001,-1.21552907662824e-001	1.63382145058967e-003,2.43105815325647e-003
1.53693693693693e+006	9.36575125126799e-001,-1.34340075439852e-001	1.26849749746403e-003,2.68680150879703e-003
1.54684684684684e+006	9.42454268892013e-001,-1.65923543537829e-001	1.15091462215973e-003,3.31847087075657e-003
1.55675675675675e+006	9.35080472372214e-001,-1.94466442523741e-001	1.29839055255572e-003,3.88932885047482e-003
1.56666666666666e+006	9.23313717417126e-001,-2.20311962251977e-001	1.53372565165749e-003,4.40623924503955e-003
1.57657657657657e+006	9.08606221634325e-001,-2.45221748178370e-001	1.82787556731350e-003,4.90443496356741e-003
1.58648648648648e+006	8.90957228983417e-001,-2.69972603574117e-001	2.18085542033167e-003,5.39945207148234e-003
1.59639639639639e+006	8.69964568321852e-001,-2.94859198135822e-001	2.60070863356296e-003,5.89718396271643e-003
1.60630630630630e+006	8.45024209367402e-001,-3.19890433637814e-001	3.09951581265197e-003,6.39780867275629e-003
1.61621621621621e+006	8.15372210643563e-001,-3.44830184773060e-001	3.69255578712874e-003,6.89660369546121e-003
1.62612612612612e+006	7.80095335715831e-001,-3.69160347949837e-001	4.39809328568337e-003,7.38320695899673e-003
1.63603603603603e+006	7.38149968830080e-001,-3.91987894967127e-001	5.23700062339841e-003,7.83975789934254e-003
1.64594594594594e+006	6.88419773368743e-001,-4.11898653247759e-001	6.23160453262515e-003,8.23797306495518e-003
1.65585585585585e+006	6.29854132526538e-001,-4.26759045606812e-001	7.40291734946923e-003,8.53518091213625e-003
1.66576576576576e+006	5.61751144647386e-001,-4.33481107587964e-001	8.76497710705229e-003,8.66962215175928e-003
1.67567567567567e+006	4.84275540758051e-001,-4.27797402948799e-001	1.03144891848390e-002,8.55594805897598e-003
1.68558558558558e+006	3.99350016216742e-001,-4.04114523124067e-001	1.20129996756652e-002,8.08229046248135e-003
1.69549549549549e+006	3.12498965134743e-001,-3.55420478442039e-001	1.37500206973051e-002,7.10840956884077e-003
1.70540540540540e+006	2.40385126955723e-001,-2.76565230856498e-001	1.51922974608855e-002,5.53130461712996e-003
1.71531531531531e+006	1.91626979973623e-001,-1.92807509259704e-001	1.61674604005276e-002,3.85615018519408e-003
1.72522522522522e+006	1.52673020914749e-001,-9.96705264427101e-002	1.69465395817050e-002,1.99341052885420e-003
1.73513513513513e+006	1.30952530447457e-001,1.37164900100796e-002	1.73809493910509e-002,-2.74329800201591e-004
1.74504504504504e+006	1.45884834439044e-001,1.36058101624647e-001	1.70823033112191e-002,-2.72116203249295e-003
1.75495495495495e+006	1.97605723235332e-001,2.43810963439612e-001	1.60478855352934e-002,-4.87621926879224e-003
1.76486486486486e+006	2.71388782915339e-001,3.26379321207919e-001	1.45722243416932e-002,-6.52758642415838e-003
1.77477477477477e+006	3.55006009634269e-001,3.82356256995541e-001	1.28998798073146e-002,-7.64712513991082e-003
1.78468468468468e+006	4.39433708328764e-001,4.14543310454139e-001	1.12113258334247e-002,-8.29086620908279e-003
1.79459459459459e+006	5.19045694059387e-001,4.27576304852472e-001	9.61908611881226e-003,-8.55152609704943e-003
1.80450450450450e+006	5.91031390212756e-001,4.26242491470821e-001	8.17937219574487e-003,-8.52484982941642e-003
1.81441441441441e+006	6.54486222413027e-001,4.14618636105640e-001	6.91027555173946e-003,-8.29237272211280e-003
1.82432432432432e+006	7.09600412593737e-001,3.95804887014352e-001	5.80799174812526e-003,-7.91609774028703e-003
1.83423423423423e+006	7.57087120150545e-001,3.71959150014542e-001	4.85825759698909e-003,-7.43918300029085e-003
1.84414414414414e+006	7.97824633660316e-001,3.44421536575667e-001	4.04350732679369e-003,-6.88843073151333e-003
1.85405405405405e+006	8.32622363660315e-001,3.13798738335223e-001	3.34755272679370e-003,-6.27597476670447e-003
1.86396396396396e+006	8.61923728590448e-001,2.79896005919135e-001	2.76152542819105e-003,-5.59792011838270e-003
