Freq.	V(1|1|1|a)	I(R129)
1.00000000000000e+005	1.75455557303640e-002,7.45340333055583e-002	1.96490888853927e-002,-1.49068066611117e-003
1.09909909909910e+005	1.87245003408785e-002,8.18456007807512e-002	1.96255099931824e-002,-1.63691201561502e-003
1.19819819819820e+005	2.00130965064603e-002,8.91361144718249e-002	1.95997380698708e-002,-1.78272228943650e-003
1.29729729729730e+005	2.14108974519018e-002,9.64037220482594e-002	1.95717820509620e-002,-1.92807444096519e-003
1.39639639639640e+005	2.29174194072987e-002,1.03646582928063e-001	1.95416516118540e-002,-2.07293165856126e-003
1.49549549549550e+005	2.45321419860939e-002,1.10862869189126e-001	1.95093571602781e-002,-2.21725738378252e-003
1.59459459459459e+005	2.62545085905256e-002,1.18050766466542e-001	1.94749098281895e-002,-2.36101532933084e-003
1.69369369369369e+005	2.80839268438975e-002,1.25208474834954e-001	1.94383214631220e-002,-2.50416949669908e-003
1.79279279279279e+005	3.00197690490547e-002,1.32334209675004e-001	1.93996046190189e-002,-2.64668419350008e-003
1.89189189189189e+005	3.20613726724133e-002,1.39426202523007e-001	1.93587725465517e-002,-2.78852405046014e-003
1.99099099099099e+005	3.42080408528603e-002,1.46482701902977e-001	1.93158391829428e-002,-2.92965403805955e-003
2.09009009009009e+005	3.64590429348083e-002,1.53501974140196e-001	1.92708191413038e-002,-3.07003948280393e-003
2.18918918918919e+005	3.88136150246588e-002,1.60482304155514e-001	1.92237276995068e-002,-3.20964608311029e-003
2.28828828828829e+005	4.12709605699031e-002,1.67421996239633e-001	1.91745807886019e-002,-3.34843992479266e-003
2.38738738738739e+005	4.38302509600590e-002,1.74319374806641e-001	1.91233949807988e-002,-3.48638749613282e-003
2.48648648648649e+005	4.64906261486211e-002,1.81172785126110e-001	1.90701874770276e-002,-3.62345570252220e-003
2.58558558558559e+005	4.92511952951773e-002,1.87980594033104e-001	1.90149760940965e-002,-3.75961188066208e-003
2.68468468468468e+005	5.21110374268243e-002,1.94741190615480e-001	1.89577792514635e-002,-3.89482381230961e-003
2.78378378378378e+005	5.50692021179942e-002,2.01452986877906e-001	1.88986159576401e-002,-4.02905973755813e-003
2.88288288288288e+005	5.81247101877913e-002,2.08114418382053e-001	1.88375057962442e-002,-4.16228836764105e-003
2.98198198198198e+005	6.12765544139163e-002,2.14723944862466e-001	1.87744689117217e-002,-4.29447889724931e-003
3.08108108108108e+005	6.45237002622492e-002,2.21280050817655e-001	1.87095259947550e-002,-4.42560101635311e-003
3.18018018018018e+005	6.78650866311443e-002,2.27781246075979e-001	1.86426982673771e-002,-4.55562492151957e-003
3.27927927927928e+005	7.12996266094856e-002,2.34226066335939e-001	1.85740074678103e-002,-4.68452132671879e-003
3.37837837837838e+005	7.48262082475420e-002,2.40613073680566e-001	1.85034758350492e-002,-4.81226147361131e-003
3.47747747747748e+005	7.84436953396543e-002,2.46940857065559e-001	1.84311260932069e-002,-4.93881714131118e-003
3.57657657657657e+005	8.21509282177851e-002,2.53208032780961e-001	1.83569814356443e-002,-5.06416065561922e-003
3.67567567567567e+005	8.59467245549595e-002,2.59413244886117e-001	1.82810655089008e-002,-5.18826489772233e-003
3.77477477477477e+005	8.98298801776223e-002,2.65555165617745e-001	1.82034023964476e-002,-5.31110331235491e-003
3.87387387387387e+005	9.37991698859452e-002,2.71632495770991e-001	1.81240166022811e-002,-5.43264991541982e-003
3.97297297297297e+005	9.78533482811125e-002,2.77643965053335e-001	1.80429330343778e-002,-5.55287930106670e-003
4.07207207207207e+005	1.01991150598627e-001,2.83588332411317e-001	1.79601769880275e-002,-5.67176664822634e-003
4.17117117117117e+005	1.06211293546680e-001,2.89464386330028e-001	1.78757741290664e-002,-5.78928772660057e-003
4.27027027027027e+005	1.10512476148642e-001,2.95270945105393e-001	1.77897504770272e-002,-5.90541890210785e-003
4.36936936936936e+005	1.14893380588733e-001,3.01006857089273e-001	1.77021323882253e-002,-6.02013714178546e-003
4.46846846846846e+005	1.19352673059953e-001,3.06671000907491e-001	1.76129465388009e-002,-6.13342001814981e-003
4.56756756756756e+005	1.23889004613367e-001,3.12262285650866e-001	1.75222199077327e-002,-6.24524571301732e-003
4.66666666666666e+005	1.28501012007835e-001,3.17779651039429e-001	1.74299797598433e-002,-6.35559302078858e-003
4.76576576576576e+005	1.33187318559322e-001,3.23222067559978e-001	1.73362536288136e-002,-6.46444135119957e-003
4.86486486486486e+005	1.37946534988923e-001,3.28588536577200e-001	1.72410693002215e-002,-6.57177073154399e-003
4.96396396396396e+005	1.42777260268750e-001,3.33878090418581e-001	1.71444547946250e-002,-6.67756180837162e-003
5.06306306306306e+005	1.47678082464875e-001,3.39089792433393e-001	1.70464383507025e-002,-6.78179584866786e-003
5.16216216216216e+005	1.52647579576516e-001,3.44222737026031e-001	1.69470484084697e-002,-6.88445474052062e-003
5.26126126126125e+005	1.57684320370693e-001,3.49276049664035e-001	1.68463135925861e-002,-6.98552099328071e-003
5.36036036036035e+005	1.62786865211589e-001,3.54248886861138e-001	1.67442626957682e-002,-7.08497773722277e-003
5.45945945945945e+005	1.67953766883903e-001,3.59140436135706e-001	1.66409246623219e-002,-7.18280872271412e-003
5.55855855855855e+005	1.73183571409469e-001,3.63949915944959e-001	1.65363285718106e-002,-7.27899831889918e-003
5.65765765765765e+005	1.78474818856478e-001,3.68676575595388e-001	1.64305036228704e-002,-7.37353151190776e-003
5.75675675675675e+005	1.83826044140639e-001,3.73319695129789e-001	1.63234791171872e-002,-7.46639390259578e-003
5.85585585585585e+005	1.89235777817657e-001,3.77878585191359e-001	1.62152844436469e-002,-7.55757170382718e-003
5.95495495495495e+005	1.94702546866438e-001,3.82352586865320e-001	1.61059490626712e-002,-7.64705173730640e-003
6.05405405405405e+005	2.00224875462445e-001,3.86741071498539e-001	1.59955024907511e-002,-7.73482142997078e-003
6.15315315315315e+005	2.05801285740670e-001,3.91043440497629e-001	1.58839742851866e-002,-7.82086880995258e-003
6.25225225225225e+005	2.11430298547713e-001,3.95259125106033e-001	1.57713940290457e-002,-7.90518250212066e-003
6.35135135135135e+005	2.17110434182498e-001,3.99387586160588e-001	1.56577913163500e-002,-7.98775172321175e-003
6.45045045045045e+005	2.22840213125161e-001,4.03428313828089e-001	1.55431957374968e-002,-8.06856627656179e-003
6.54954954954955e+005	2.28618156753724e-001,4.07380827322365e-001	1.54276368649255e-002,-8.14761654644731e-003
6.64864864864865e+005	2.34442788048136e-001,4.11244674602385e-001	1.53111442390373e-002,-8.22489349204771e-003
6.74774774774775e+005	2.40312632281364e-001,4.15019432051926e-001	1.51937473543727e-002,-8.30038864103852e-003
6.84684684684685e+005	2.46226217697192e-001,4.18704704141315e-001	1.50754756460562e-002,-8.37409408282631e-003
6.94594594594594e+005	2.52182076174450e-001,4.22300123071779e-001	1.49563584765110e-002,-8.44600246143557e-003
7.04504504504504e+005	2.58178743877419e-001,4.25805348402899e-001	1.48364251224516e-002,-8.51610696805798e-003
7.14414414414414e+005	2.64214761892192e-001,4.29220066663708e-001	1.47157047621562e-002,-8.58440133327417e-003
7.24324324324324e+005	2.70288676848806e-001,4.32543990947914e-001	1.45942264630239e-002,-8.65087981895828e-003
7.34234234234234e+005	2.76399041528991e-001,4.35776860493749e-001	1.44720191694202e-002,-8.71553720987499e-003
7.44144144144144e+005	2.82544415459410e-001,4.38918440248942e-001	1.43491116908118e-002,-8.77836880497883e-003
7.54054054054054e+005	2.88723365490323e-001,4.41968520421257e-001	1.42255326901935e-002,-8.83937040842515e-003
7.63963963963964e+005	2.94934466359612e-001,4.44926916015091e-001	1.41013106728077e-002,-8.89853832030182e-003
7.73873873873874e+005	3.01176301242157e-001,4.47793466354520e-001	1.39764739751569e-002,-8.95586932709040e-003
7.83783783783784e+005	3.07447462284586e-001,4.50568034593257e-001	1.38510507543083e-002,-9.01136069186515e-003
7.93693693693694e+005	3.13746551125463e-001,4.53250507211885e-001	1.37250689774907e-002,-9.06501014423771e-003
8.03603603603604e+005	3.20072179401000e-001,4.55840793502742e-001	1.35985564119800e-002,-9.11681587005483e-003
8.13513513513514e+005	3.26422969236443e-001,4.58338825042800e-001	1.34715406152711e-002,-9.16677650085601e-003
8.23423423423424e+005	3.32797553723286e-001,4.60744555154859e-001	1.33440489255343e-002,-9.21489110309719e-003
8.33333333333334e+005	3.39194577382554e-001,4.63057958357301e-001	1.32161084523489e-002,-9.26115916714603e-003
8.43243243243244e+005	3.45612696614392e-001,4.65279029802679e-001	1.30877460677122e-002,-9.30558059605358e-003
8.53153153153153e+005	3.52050580134263e-001,4.67407784705310e-001	1.29589883973147e-002,-9.34815569410619e-003
8.63063063063063e+005	3.58506909396119e-001,4.69444257758039e-001	1.28298618120776e-002,-9.38888515516078e-003
8.72972972972973e+005	3.64980379002919e-001,4.71388502538276e-001	1.27003924199416e-002,-9.42777005076551e-003
8.82882882882883e+005	3.71469697104958e-001,4.73240590903338e-001	1.25706060579008e-002,-9.46481181806676e-003
8.92792792792793e+005	3.77973585786496e-001,4.75000612375111e-001	1.24405282842701e-002,-9.50001224750222e-003
9.02702702702703e+005	3.84490781441245e-001,4.76668673513926e-001	1.23101843711751e-002,-9.53337347027852e-003
9.12612612612613e+005	3.91020035137354e-001,4.78244897281521e-001	1.21795992972529e-002,-9.56489794563043e-003
9.22522522522523e+005	3.97560112972548e-001,4.79729422392845e-001	1.20487977405490e-002,-9.59458844785690e-003
9.32432432432433e+005	4.04109796420207e-001,4.81122402656391e-001	1.19178040715959e-002,-9.62244805312782e-003
9.42342342342343e+005	4.10667882667219e-001,4.82424006302643e-001	1.17866423466556e-002,-9.64848012605285e-003
9.52252252252253e+005	4.17233184944526e-001,4.83634415300106e-001	1.16553363011095e-002,-9.67268830600213e-003
9.62162162162163e+005	4.23804532851398e-001,4.84753824658283e-001	1.15239093429720e-002,-9.69507649316565e-003
9.72072072072073e+005	4.30380772674552e-001,4.85782441716800e-001	1.13923845465090e-002,-9.71564883433599e-003
9.81981981981983e+005	4.36960767703377e-001,4.86720485419771e-001	1.12607846459325e-002,-9.73440970839541e-003
9.91891891891893e+005	4.43543398542645e-001,4.87568185574282e-001	1.11291320291471e-002,-9.75136371148564e-003
1.00180180180180e+006	4.50127563424218e-001,4.88325782091711e-001	1.09974487315157e-002,-9.76651564183421e-003
1.01171171171171e+006	4.56712178519480e-001,4.88993524210373e-001	1.08657564296104e-002,-9.77987048420746e-003
1.02162162162162e+006	4.63296178254352e-001,4.89571669697745e-001	1.07340764349130e-002,-9.79143339395490e-003
1.03153153153153e+006	4.69878515629006e-001,4.90060484030240e-001	1.06024296874199e-002,-9.80120968060480e-003
1.04144144144144e+006	4.76458162544616e-001,4.90460239548188e-001	1.04708367491077e-002,-9.80920479096377e-003
1.05135135135135e+006	4.83034110139776e-001,4.90771214583330e-001	1.03393177972045e-002,-9.81542429166661e-003
1.06126126126126e+006	4.89605369139532e-001,4.90993692555707e-001	1.02078926172094e-002,-9.81987385111415e-003
1.07117117117117e+006	4.96170970220327e-001,4.91127961036360e-001	1.00765805955935e-002,-9.82255922072721e-003
1.08108108108108e+006	5.02729964394613e-001,4.91174310771717e-001	9.94540071210773e-003,-9.82348621543433e-003
1.09099099099099e+006	5.09281423419355e-001,4.91133034664894e-001	9.81437153161290e-003,-9.82266069329788e-003
1.10090090090090e+006	5.15824440233211e-001,4.91004426708435e-001	9.68351119533578e-003,-9.82008853416870e-003
1.11081081081081e+006	5.22358129427873e-001,4.90788780862119e-001	9.55283741144254e-003,-9.81577561724238e-003
1.12072072072072e+006	5.28881627759784e-001,4.90486389868517e-001	9.42236744480431e-003,-9.80972779737034e-003
1.13063063063063e+006	5.35394094709382e-001,4.90097543997768e-001	9.29211810581237e-003,-9.80195087995535e-003
1.14054054054054e+006	5.41894713096068e-001,4.89622529711694e-001	9.16210573807865e-003,-9.79245059423388e-003
1.15045045045045e+006	5.48382689758376e-001,4.89061628235747e-001	9.03234620483248e-003,-9.78123256471493e-003
1.16036036036036e+006	5.54857256310261e-001,4.88415114025329e-001	8.90285487379477e-003,-9.76830228050658e-003
1.17027027027027e+006	5.61317669986225e-001,4.87683253110782e-001	8.77364660027550e-003,-9.75366506221564e-003
1.18018018018018e+006	5.67763214590060e-001,4.86866301302544e-001	8.64473570819880e-003,-9.73732602605088e-003
1.19009009009009e+006	5.74193201564517e-001,4.85964502234737e-001	8.51613596870967e-003,-9.71929004469474e-003
1.20000000000000e+006	5.80606971202170e-001,4.84978085221446e-001	8.38786057595659e-003,-9.69956170442893e-003
1.20990990990991e+006	5.87003894021396e-001,4.83907262895180e-001	8.25992211957207e-003,-9.67814525790361e-003
1.21981981981982e+006	5.93383372335707e-001,4.82752228591159e-001	8.13233255328586e-003,-9.65504457182317e-003
1.22972972972973e+006	5.99744842050005e-001,4.81513153433956e-001	8.00510315899990e-003,-9.63026306867912e-003
1.23963963963964e+006	6.06087774723749e-001,4.80190183074272e-001	7.87824450552501e-003,-9.60380366148545e-003
1.24954954954955e+006	6.12411679948933e-001,4.78783434012820e-001	7.75176640102133e-003,-9.57566868025640e-003
1.25945945945946e+006	6.18716108100502e-001,4.77292989434892e-001	7.62567783798995e-003,-9.54585978869785e-003
1.26936936936937e+006	6.25000653528831e-001,4.75718894462485e-001	7.49998692942337e-003,-9.51437788924970e-003
1.27927927927928e+006	6.31264958278855e-001,4.74061150709802e-001	7.37470083442289e-003,-9.48122301419604e-003
1.28918918918919e+006	6.37508716439095e-001,4.72319710001482e-001	7.24982567121810e-003,-9.44639420002963e-003
1.29909909909910e+006	6.43731679247326e-001,4.70494467079072e-001	7.12536641505347e-003,-9.40988934158145e-003
1.30900900900901e+006	6.49933661109332e-001,4.68585251078086e-001	7.00132677781335e-003,-9.37170502156171e-003
1.31891891891892e+006	6.56114546725027e-001,4.66591815502092e-001	6.87770906549947e-003,-9.33183631004184e-003
1.32882882882883e+006	6.62274299564733e-001,4.64513826347733e-001	6.75451400870534e-003,-9.29027652695466e-003
1.33873873873874e+006	6.68412972001044e-001,4.62350847939239e-001	6.63174055997911e-003,-9.24701695878478e-003
1.34864864864865e+006	6.74530717483204e-001,4.60102325904938e-001	6.50938565033591e-003,-9.20204651809876e-003
1.35855855855856e+006	6.80627805247903e-001,4.57767566559693e-001	6.38744389504194e-003,-9.15535133119385e-003
1.36846846846847e+006	6.86704638201892e-001,4.55345711729649e-001	6.26590723596216e-003,-9.10691423459298e-003
1.37837837837838e+006	6.92761774800854e-001,4.52835707745024e-001	6.14476450398292e-003,-9.05671415490048e-003
1.38828828828829e+006	6.98799956003855e-001,4.50236266897546e-001	6.02400087992289e-003,-9.00472533795092e-003
1.39819819819820e+006	7.04820138730082e-001,4.47545819058781e-001	5.90359722539836e-003,-8.95091638117562e-003
1.40810810810811e+006	7.10823537723252e-001,4.44762450303898e-001	5.78352924553496e-003,-8.89524900607796e-003
1.41801801801802e+006	7.16811678396513e-001,4.41883824158915e-001	5.66376643206974e-003,-8.83767648317830e-003
1.42792792792793e+006	7.22786464173190e-001,4.38907079294056e-001	5.54427071653620e-003,-8.77814158588112e-003
1.43783783783784e+006	7.28750263187771e-001,4.35828694809862e-001	5.42499473624458e-003,-8.71657389619723e-003
1.44774774774775e+006	7.34706021170286e-001,4.32644310194778e-001	5.30587957659427e-003,-8.65288620389556e-003
1.45765765765766e+006	7.40657410224761e-001,4.29348480712201e-001	5.18685179550479e-003,-8.58696961424402e-003
1.46756756756756e+006	7.46609027537229e-001,4.25934338912173e-001	5.06781944925542e-003,-8.51868677824346e-003
1.47747747747747e+006	7.52566664633017e-001,4.22393116500977e-001	4.94866670733966e-003,-8.44786233001955e-003
1.48738738738738e+006	7.58537677990477e-001,4.18713453034390e-001	4.82924644019046e-003,-8.37426906068780e-003
1.49729729729729e+006	7.64531507815977e-001,4.14880369408448e-001	4.70936984368046e-003,-8.29760738816896e-003
1.50720720720720e+006	7.70560417176190e-001,4.10873696011176e-001	4.58879165647621e-003,-8.21747392022353e-003
1.51711711711711e+006	7.76640563999278e-001,4.06665577809681e-001	4.46718872001444e-003,-8.13331155619363e-003
1.52702702702702e+006	7.82793580805158e-001,4.02216342463311e-001	4.34412838389684e-003,-8.04432684926623e-003
1.53693693693693e+006	7.89048923544678e-001,3.97467299616518e-001	4.21902152910644e-003,-7.94934599233036e-003
1.54684684684684e+006	7.95447320346260e-001,3.92327387940349e-001	4.09105359307481e-003,-7.84654775880699e-003
1.55675675675675e+006	8.02045417324181e-001,3.86646432197281e-001	3.95909165351637e-003,-7.73292864394563e-003
1.56666666666666e+006	8.08919550628169e-001,3.80156134411429e-001	3.82160898743662e-003,-7.60312268822859e-003
1.57657657657657e+006	8.16152661244483e-001,3.72322870094810e-001	3.67694677511034e-003,-7.44645740189621e-003
1.58648648648648e+006	8.23692765348687e-001,3.61921545055738e-001	3.52614469302626e-003,-7.23843090111476e-003
1.59639639639639e+006	8.30145731061354e-001,3.45662983210638e-001	3.39708537877293e-003,-6.91325966421276e-003
1.60630630630630e+006	8.21592412804554e-001,3.18331554958395e-001	3.56815174390892e-003,-6.36663109916790e-003
1.61621621621621e+006	7.90584038975168e-001,3.34284874113349e-001	4.18831922049664e-003,-6.68569748226697e-003
1.62612612612612e+006	8.15184925924227e-001,3.43445639854741e-001	3.69630148151547e-003,-6.86891279709482e-003
1.63603603603603e+006	8.28610444992842e-001,3.18804338820044e-001	3.42779110014315e-003,-6.37608677640088e-003
1.64594594594594e+006	7.99027419655302e-001,2.79963780382365e-001	4.01945160689396e-003,-5.59927560764729e-003
1.65585585585585e+006	7.47497536320289e-001,3.33593751548903e-001	5.05004927359422e-003,-6.67187503097806e-003
1.66576576576576e+006	7.86606563320967e-001,3.65854047138719e-001	4.26786873358066e-003,-7.31708094277439e-003
1.67567567567567e+006	8.13026911713746e-001,3.62730923710864e-001	3.73946176572508e-003,-7.25461847421727e-003
1.68558558558558e+006	8.29270665775514e-001,3.54141451710877e-001	3.41458668448972e-003,-7.08282903421754e-003
1.69549549549549e+006	8.40996430854277e-001,3.43356750460840e-001	3.18007138291446e-003,-6.86713500921681e-003
1.70540540540540e+006	8.48877983575147e-001,3.28270080950615e-001	3.02244032849705e-003,-6.56540161901230e-003
1.71531531531531e+006	8.39948825517435e-001,3.06675153608129e-001	3.20102348965131e-003,-6.13350307216259e-003
1.72522522522522e+006	8.20548883890795e-001,3.27961409015001e-001	3.58902232218411e-003,-6.55922818030001e-003
1.73513513513513e+006	8.42415661949970e-001,3.37157570386115e-001	3.15168676100059e-003,-6.74315140772231e-003
1.74504504504504e+006	8.56648262019313e-001,3.31398649853538e-001	2.86703475961374e-003,-6.62797299707076e-003
1.75495495495495e+006	8.66104349979694e-001,3.24024006052105e-001	2.67791300040612e-003,-6.48048012104211e-003
1.76486486486486e+006	8.73020736184227e-001,3.16439609607463e-001	2.53958527631545e-003,-6.32879219214926e-003
1.77477477477477e+006	8.78435984478833e-001,3.10359516592186e-001	2.43128031042333e-003,-6.20719033184372e-003
1.78468468468468e+006	8.85022155736227e-001,3.04226016120956e-001	2.29955688527546e-003,-6.08452032241912e-003
1.79459459459459e+006	8.91011258130785e-001,2.97268976983597e-001	2.17977483738430e-003,-5.94537953967194e-003
1.80450450450450e+006	8.96529983650512e-001,2.90142313614715e-001	2.06940032698976e-003,-5.80284627229431e-003
1.81441441441441e+006	9.01786515116103e-001,2.82856376132207e-001	1.96426969767793e-003,-5.65712752264414e-003
1.82432432432432e+006	9.06874108073193e-001,2.75342887470782e-001	1.86251783853614e-003,-5.50685774941564e-003
1.83423423423423e+006	9.11844364092778e-001,2.67510210846661e-001	1.76311271814445e-003,-5.35020421693321e-003
1.84414414414414e+006	9.16729039418657e-001,2.59233612092000e-001	1.66541921162687e-003,-5.18467224183999e-003
1.85405405405405e+006	9.21543090429396e-001,2.50327237325587e-001	1.56913819141209e-003,-5.00654474651174e-003
1.86396396396396e+006	9.26271002886641e-001,2.40486777870601e-001	1.47457994226718e-003,-4.80973555741202e-003
