Freq.	V(1|1|1|a)	I(R129)
1.00000000000000e+005	1.70915909619777e-002,7.15020478387841e-002	1.96581681807605e-002,-1.43004095677568e-003
1.09909909909910e+005	1.81769495849738e-002,7.85231203277272e-002	1.96364610083005e-002,-1.57046240655454e-003
1.19819819819820e+005	1.93634556843791e-002,8.55259367027422e-002	1.96127308863124e-002,-1.71051873405484e-003
1.29729729729730e+005	2.06507512429031e-002,9.25088847872491e-002	1.95869849751419e-002,-1.85017769574498e-003
1.39639639639640e+005	2.20384484172823e-002,9.94703610766364e-002	1.95592310316544e-002,-1.98940722153273e-003
1.49549549549550e+005	2.35261297978391e-002,1.06408771417168e-001	1.95294774040432e-002,-2.12817542834336e-003
1.59459459459459e+005	2.51133486871284e-002,1.13322531675944e-001	1.94977330262574e-002,-2.26645063351888e-003
1.69369369369369e+005	2.67996293973311e-002,1.20210068401295e-001	1.94640074120534e-002,-2.40420136802589e-003
1.79279279279279e+005	2.85844675660317e-002,1.27069819473014e-001	1.94283106486794e-002,-2.54139638946027e-003
1.89189189189189e+005	3.04673304899993e-002,1.33900234741842e-001	1.93906533902000e-002,-2.67800469483685e-003
1.99099099099099e+005	3.24476574765674e-002,1.40699776657637e-001	1.93510468504687e-002,-2.81399553315275e-003
2.09009009009009e+005	3.45248602121918e-002,1.47466920885667e-001	1.93095027957562e-002,-2.94933841771334e-003
2.18918918918919e+005	3.66983231477449e-002,1.54200156910508e-001	1.92660335370451e-002,-3.08400313821016e-003
2.28828828828829e+005	3.89674039000900e-002,1.60897988627025e-001	1.92206519219982e-002,-3.21795977254050e-003
2.38738738738739e+005	4.13314336694589e-002,1.67558934917932e-001	1.91733713266108e-002,-3.35117869835863e-003
2.48648648648649e+005	4.37897176721441e-002,1.74181530217464e-001	1.91242056465571e-002,-3.48363060434928e-003
2.58558558558559e+005	4.63415355879981e-002,1.80764325060706e-001	1.90731692882400e-002,-3.61528650121412e-003
2.68468468468468e+005	4.89861420222231e-002,1.87305886618129e-001	1.90202771595555e-002,-3.74611773236258e-003
2.78378378378378e+005	5.17227669809157e-002,1.93804799214934e-001	1.89655446603817e-002,-3.87609598429868e-003
2.88288288288288e+005	5.45506163598246e-002,2.00259664834804e-001	1.89089876728035e-002,-4.00519329669608e-003
2.98198198198198e+005	5.74688724457657e-002,2.06669103607691e-001	1.88506225510847e-002,-4.13338207215382e-003
3.08108108108108e+005	6.04766944301282e-002,2.13031754281288e-001	1.87904661113974e-002,-4.26063508562577e-003
3.18018018018018e+005	6.35732189338990e-002,2.19346274675871e-001	1.87285356213220e-002,-4.38692549351742e-003
3.27927927927928e+005	6.67575605436229e-002,2.25611342122184e-001	1.86648487891275e-002,-4.51222684244368e-003
3.37837837837838e+005	7.00288123577098e-002,2.31825653882112e-001	1.85994237528458e-002,-4.63651307764224e-003
3.47747747747748e+005	7.33860465424944e-002,2.37987927551863e-001	1.85322790691501e-002,-4.75975855103725e-003
3.57657657657657e+005	7.68283148974491e-002,2.44096901447432e-001	1.84634337020510e-002,-4.88193802894864e-003
3.67567567567567e+005	8.03546494289469e-002,2.50151334972136e-001	1.83929070114211e-002,-5.00302669944273e-003
3.77477477477477e+005	8.39640629319691e-002,2.56150008966026e-001	1.83207187413606e-002,-5.12300017932051e-003
3.87387387387387e+005	8.76555495791494e-002,2.62091726037003e-001	1.82468890084170e-002,-5.24183452074007e-003
3.97297297297297e+005	9.14280855165477e-002,2.67975310873518e-001	1.81714382896690e-002,-5.35950621747037e-003
4.07207207207207e+005	9.52806294655453e-002,2.73799610538696e-001	1.80943874106891e-002,-5.47599221077392e-003
4.17117117117117e+005	9.92121233302544e-002,2.79563494745817e-001	1.80157575333949e-002,-5.59126989491633e-003
4.27027027027027e+005	1.03221492809840e-001,2.85265856115061e-001	1.79355701438032e-002,-5.70531712230122e-003
4.36936936936936e+005	1.07307648015154e-001,2.90905610411463e-001	1.78538470396969e-002,-5.81811220822926e-003
4.46846846846846e+005	1.11469484089076e-001,2.96481696764038e-001	1.77706103182185e-002,-5.92963393528076e-003
4.56756756756756e+005	1.15705881829992e-001,3.01993077866071e-001	1.76858823634002e-002,-6.03986155732143e-003
4.66666666666666e+005	1.20015708317796e-001,3.07438740156572e-001	1.75996858336441e-002,-6.14877480313143e-003
4.76576576576576e+005	1.24397817541862e-001,3.12817693982912e-001	1.75120436491628e-002,-6.25635387965825e-003
4.86486486486486e+005	1.28851051030404e-001,3.18128973744713e-001	1.74229789793919e-002,-6.36257947489426e-003
4.96396396396396e+005	1.33374238480661e-001,3.23371638019014e-001	1.73325152303868e-002,-6.46743276038028e-003
5.06306306306306e+005	1.37966198389368e-001,3.28544769666834e-001	1.72406760322126e-002,-6.57089539333667e-003
5.16216216216216e+005	1.42625738682953e-001,3.33647475921200e-001	1.71474852263409e-002,-6.67294951842401e-003
5.26126126126125e+005	1.47351657346948e-001,3.38678888456781e-001	1.70529668530610e-002,-6.77357776913562e-003
5.36036036036035e+005	1.52142743054082e-001,3.43638163441231e-001	1.69571451389184e-002,-6.87276326882462e-003
5.45945945945945e+005	1.56997775790552e-001,3.48524481568414e-001	1.68600444841890e-002,-6.97048963136828e-003
5.55855855855855e+005	1.61915527479995e-001,3.53337048073655e-001	1.67616894504001e-002,-7.06674096147309e-003
5.65765765765765e+005	1.66894762604657e-001,3.58075092731194e-001	1.66621047479069e-002,-7.16150185462389e-003
5.75675675675675e+005	1.71934238823317e-001,3.62737869834040e-001	1.65613152235337e-002,-7.25475739668080e-003
5.85585585585585e+005	1.77032707585503e-001,3.67324658156400e-001	1.64593458482899e-002,-7.34649316312801e-003
5.95495495495495e+005	1.82188914741576e-001,3.71834760898927e-001	1.63562217051685e-002,-7.43669521797855e-003
6.05405405405405e+005	1.87401601148265e-001,3.76267505616969e-001	1.62519679770347e-002,-7.52535011233939e-003
6.15315315315315e+005	1.92669503269247e-001,3.80622244132078e-001	1.61466099346151e-002,-7.61244488264157e-003
6.25225225225225e+005	1.97991353770400e-001,3.84898352426995e-001	1.60401729245920e-002,-7.69796704853991e-003
6.35135135135135e+005	2.03365882109357e-001,3.89095230524366e-001	1.59326823578129e-002,-7.78190461048733e-003
6.45045045045045e+005	2.08791815119029e-001,3.93212302349432e-001	1.58241636976194e-002,-7.86424604698864e-003
6.54954954954955e+005	2.14267877584750e-001,3.97249015576944e-001	1.57146424483050e-002,-7.94498031153888e-003
6.64864864864865e+005	2.19792792814772e-001,4.01204841462573e-001	1.56041441437046e-002,-8.02409682925146e-003
6.74774774774775e+005	2.25365283203785e-001,4.05079274659055e-001	1.54926943359243e-002,-8.10158549318111e-003
6.84684684684685e+005	2.30984070789238e-001,4.08871833017350e-001	1.53803185842152e-002,-8.17743666034699e-003
6.94594594594594e+005	2.36647877800188e-001,4.12582057373058e-001	1.52670424439962e-002,-8.25164114746116e-003
7.04504504504504e+005	2.42355427198471e-001,4.16209511318372e-001	1.51528914560306e-002,-8.32419022636744e-003
7.14414414414414e+005	2.48105443212002e-001,4.19753780959800e-001	1.50378911357600e-002,-8.39507561919600e-003
7.24324324324324e+005	2.53896651860011e-001,4.23214474661923e-001	1.49220669627998e-002,-8.46428949323847e-003
7.34234234234234e+005	2.59727781470092e-001,4.26591222777433e-001	1.48054443705982e-002,-8.53182445554866e-003
7.44144144144144e+005	2.65597563186906e-001,4.29883677363681e-001	1.46880487362619e-002,-8.59767354727363e-003
7.54054054054054e+005	2.71504731472478e-001,4.33091511885976e-001	1.45699053705504e-002,-8.66183023771953e-003
7.63963963963964e+005	2.77448024597974e-001,4.36214420907841e-001	1.44510395080405e-002,-8.72428841815683e-003
7.73873873873874e+005	2.83426185126944e-001,4.39252119768437e-001	1.43314762974611e-002,-8.78504239536875e-003
7.83783783783784e+005	2.89437960389993e-001,4.42204344247351e-001	1.42112407922001e-002,-8.84408688494701e-003
7.93693693693694e+005	2.95482102950901e-001,4.45070850216904e-001	1.40903579409820e-002,-8.90141700433808e-003
8.03603603603604e+005	3.01557371064234e-001,4.47851413282160e-001	1.39688525787153e-002,-8.95702826564320e-003
8.13513513513514e+005	3.07662529124517e-001,4.50545828408737e-001	1.38467494175097e-002,-9.01091656817474e-003
8.23423423423424e+005	3.13796348107077e-001,4.53153909538555e-001	1.37240730378585e-002,-9.06307819077110e-003
8.33333333333334e+005	3.19957606000710e-001,4.55675489193586e-001	1.36008478799858e-002,-9.11350978387171e-003
8.43243243243244e+005	3.26145088232338e-001,4.58110418067658e-001	1.34770982353532e-002,-9.16220836135316e-003
8.53153153153153e+005	3.32357588083894e-001,4.60458564606338e-001	1.33528482383221e-002,-9.20917129212677e-003
8.63063063063063e+005	3.38593907101689e-001,4.62719814574860e-001	1.32281218579662e-002,-9.25439629149720e-003
8.72972972972973e+005	3.44852855498578e-001,4.64894070614035e-001	1.31029428900284e-002,-9.29788141228070e-003
8.82882882882883e+005	3.51133252549282e-001,4.66981251784045e-001	1.29773349490144e-002,-9.33962503568090e-003
8.92792792792793e+005	3.57433926979276e-001,4.68981293095939e-001	1.28513214604145e-002,-9.37962586191878e-003
9.02702702702703e+005	3.63753717347731e-001,4.70894145030621e-001	1.27249256530454e-002,-9.41788290061241e-003
9.12612612612613e+005	3.70091472425016e-001,4.72719773045037e-001	1.25981705514997e-002,-9.45439546090075e-003
9.22522522522523e+005	3.76446051565389e-001,4.74458157065214e-001	1.24710789686922e-002,-9.48916314130427e-003
9.32432432432433e+005	3.82816325075542e-001,4.76109290965686e-001	1.23436734984892e-002,-9.52218581931372e-003
9.42342342342343e+005	3.89201174579766e-001,4.77673182034812e-001	1.22159765084047e-002,-9.55346364069623e-003
9.52252252252253e+005	3.95599493382586e-001,4.79149850425321e-001	1.20880101323483e-002,-9.58299700850642e-003
9.62162162162163e+005	4.02010186829833e-001,4.80539328589369e-001	1.19597962634033e-002,-9.61078657178737e-003
9.72072072072073e+005	4.08432172669213e-001,4.81841660697210e-001	1.18313565466157e-002,-9.63683321394419e-003
9.81981981981983e+005	4.14864381411572e-001,4.83056902038491e-001	1.17027123717686e-002,-9.66113804076982e-003
9.91891891891893e+005	4.21305756694220e-001,4.84185118404976e-001	1.15738848661156e-002,-9.68370236809953e-003
1.00180180180180e+006	4.27755255647785e-001,4.85226385453346e-001	1.14448948870443e-002,-9.70452770906692e-003
1.01171171171171e+006	4.34211849268321e-001,4.86180788046503e-001	1.13157630146336e-002,-9.72361576093006e-003
1.02162162162162e+006	4.40674522796539e-001,4.87048419571581e-001	1.11865095440692e-002,-9.74096839143163e-003
1.03153153153153e+006	4.47142276106311e-001,4.87829381232582e-001	1.10571544778738e-002,-9.75658762465165e-003
1.04144144144144e+006	4.53614124104836e-001,4.88523781315251e-001	1.09277175179033e-002,-9.77047562630502e-003
1.05135135135135e+006	4.60089097147194e-001,4.89131734421464e-001	1.07982180570561e-002,-9.78263468842928e-003
1.06126126126126e+006	4.66566241468339e-001,4.89653360669980e-001	1.06686751706332e-002,-9.79306721339960e-003
1.07117117117117e+006	4.73044619636014e-001,4.90088784859945e-001	1.05391076072797e-002,-9.80177569719890e-003
1.08108108108108e+006	4.79523311028528e-001,4.90438135592995e-001	1.04095337794294e-002,-9.80876271185991e-003
1.09099099099099e+006	4.86001412341888e-001,4.90701544349181e-001	1.02799717531622e-002,-9.81403088698362e-003
1.10090090090090e+006	4.92478038131404e-001,4.90879144511195e-001	1.01504392373719e-002,-9.81758289022390e-003
1.11081081081081e+006	4.98952321393642e-001,4.90971070330541e-001	1.00209535721272e-002,-9.81942140661081e-003
1.12072072072072e+006	5.05423414195429e-001,4.90977455828276e-001	9.89153171609142e-003,-9.81954911656551e-003
1.13063063063063e+006	5.11890488357659e-001,4.90898433621789e-001	9.76219023284681e-003,-9.81796867243578e-003
1.14054054054054e+006	5.18352736202822e-001,4.90734133667691e-001	9.63294527594355e-003,-9.81468267335383e-003
1.15045045045045e+006	5.24809371376565e-001,4.90484681909249e-001	9.50381257246870e-003,-9.80969363818498e-003
1.16036036036036e+006	5.31259629755288e-001,4.90150198814863e-001	9.37480740489425e-003,-9.80300397629727e-003
1.17027027027027e+006	5.37702770453707e-001,4.89730797791758e-001	9.24594459092586e-003,-9.79461595583516e-003
1.18018018018018e+006	5.44138076948694e-001,4.89226583456275e-001	9.11723846102612e-003,-9.78453166912550e-003
1.19009009009009e+006	5.50564858338483e-001,4.88637649738834e-001	8.98870283323034e-003,-9.77275299477667e-003
1.20000000000000e+006	5.56982450759732e-001,4.87964077797581e-001	8.86035098480535e-003,-9.75928155595162e-003
1.20990990990991e+006	5.63390218988960e-001,4.87205933709881e-001	8.73219562022080e-003,-9.74411867419761e-003
1.21981981981982e+006	5.69787558259809e-001,4.86363265904830e-001	8.60424883480383e-003,-9.72726531809661e-003
1.22972972972973e+006	5.76173896333559e-001,4.85436102292725e-001	8.47652207332881e-003,-9.70872204585450e-003
1.23963963963964e+006	5.82548695867607e-001,4.84424447038420e-001	8.34902608264786e-003,-9.68848894076840e-003
1.24954954954955e+006	5.88911457135562e-001,4.83328276914477e-001	8.22177085728876e-003,-9.66656553828955e-003
1.25945945945946e+006	5.95261721163663e-001,4.82147537156206e-001	8.09476557672674e-003,-9.64295074312411e-003
1.26936936936937e+006	6.01599073361853e-001,4.80882136723482e-001	7.96801853276293e-003,-9.61764273446964e-003
1.27927927927928e+006	6.07923147744894e-001,4.79531942852576e-001	7.84153704510212e-003,-9.59063885705151e-003
1.28918918918919e+006	6.14233631860201e-001,4.78096774753753e-001	7.71532736279598e-003,-9.56193549507507e-003
1.29909909909910e+006	6.20530272565977e-001,4.76576396275461e-001	7.58939454868045e-003,-9.53152792550922e-003
1.30900900900901e+006	6.26812882837261e-001,4.74970507310955e-001	7.46374234325479e-003,-9.49941014621910e-003
1.31891891891892e+006	6.33081349821035e-001,4.73278733665143e-001	7.33837300357929e-003,-9.46557467330286e-003
1.32882882882883e+006	6.39335644417450e-001,4.71500615023580e-001	7.21328711165100e-003,-9.43001230047161e-003
1.33873873873874e+006	6.45575832736604e-001,4.69635590565883e-001	7.08848334526793e-003,-9.39271181131766e-003
1.34864864864865e+006	6.51802089874892e-001,4.67682981633448e-001	6.96395820250217e-003,-9.35365963266897e-003
1.35855855855856e+006	6.58014716579290e-001,4.65641970683999e-001	6.83970566841419e-003,-9.31283941367997e-003
1.36846846846847e+006	6.64214159533149e-001,4.63511575525197e-001	6.71571680933702e-003,-9.27023151050394e-003
1.37837837837838e+006	6.70401036218462e-001,4.61290617490591e-001	6.59197927563077e-003,-9.22581234981181e-003
1.38828828828829e+006	6.76576165609351e-001,4.58977681765064e-001	6.46847668781297e-003,-9.17955363530127e-003
1.39819819819820e+006	6.82740606361684e-001,4.56571067426677e-001	6.34518787276631e-003,-9.13142134853355e-003
1.40810810810811e+006	6.88895704731548e-001,4.54068723859956e-001	6.22208590536904e-003,-9.08137447719912e-003
1.41801801801802e+006	6.95043155250905e-001,4.51468168877358e-001	6.09913689498191e-003,-9.02936337754716e-003
1.42792792792793e+006	7.01185078318272e-001,4.48766381947598e-001	5.97629843363455e-003,-8.97532763895195e-003
1.43783783783784e+006	7.07324120488492e-001,4.45959663027908e-001	5.85351759023016e-003,-8.91919326055816e-003
1.44774774774775e+006	7.13463585622337e-001,4.43043443065165e-001	5.73072828755327e-003,-8.86086886130330e-003
1.45765765765766e+006	7.19607608586141e-001,4.40012025308733e-001	5.60784782827718e-003,-8.80024050617466e-003
1.46756756756756e+006	7.25761388522250e-001,4.36858225496924e-001	5.48477222955501e-003,-8.73716450993847e-003
1.47747747747747e+006	7.31931506905764e-001,4.33572860743594e-001	5.36136986188472e-003,-8.67145721487189e-003
1.48738738738738e+006	7.38126368429871e-001,4.30144005994153e-001	5.23747263140257e-003,-8.60288011988305e-003
1.49729729729729e+006	7.44356823193291e-001,4.26555882477504e-001	5.11286353613418e-003,-8.53111764955009e-003
1.50720720720720e+006	7.50637061695083e-001,4.22787142890142e-001	4.98725876609835e-003,-8.45574285780284e-003
1.51711711711711e+006	7.56985927954319e-001,4.18808126796126e-001	4.86028144091362e-003,-8.37616253592253e-003
1.52702702702702e+006	7.63428882737686e-001,4.14576272328424e-001	4.73142234524627e-003,-8.29152544656848e-003
1.53693693693693e+006	7.70000979350585e-001,4.10028033679755e-001	4.59998041298830e-003,-8.20056067359510e-003
1.54684684684684e+006	7.76751359325760e-001,4.05063703942806e-001	4.46497281348481e-003,-8.10127407885612e-003
1.55675675675675e+006	7.83749637018981e-001,3.99516560454729e-001	4.32500725962038e-003,-7.99033120909458e-003
1.56666666666666e+006	7.91092225515819e-001,3.93083520544342e-001	4.17815548968362e-003,-7.86167041088684e-003
1.57657657657657e+006	7.98889951130182e-001,3.85148113838967e-001	4.02220097739636e-003,-7.70296227677933e-003
1.58648648648648e+006	8.07094586405598e-001,3.74253525757587e-001	3.85810827188804e-003,-7.48507051515173e-003
1.59639639639639e+006	8.13878295644341e-001,3.56387661765489e-001	3.72243408711318e-003,-7.12775323530977e-003
1.60630630630630e+006	8.00809001699779e-001,3.27368509153011e-001	3.98381996600442e-003,-6.54737018306021e-003
1.61621621621621e+006	7.74731517142524e-001,3.49911701874984e-001	4.50536965714952e-003,-6.99823403749967e-003
1.62612612612612e+006	8.00272891918156e-001,3.52089356388455e-001	3.99454216163687e-003,-7.04178712776910e-003
1.63603603603603e+006	8.06793058296125e-001,3.18919706674962e-001	3.86413883407750e-003,-6.37839413349924e-003
1.64594594594594e+006	7.43827449730130e-001,3.03595806290795e-001	5.12345100539739e-003,-6.07191612581590e-003
1.65585585585585e+006	7.46986725744958e-001,3.71362421694801e-001	5.06026548510084e-003,-7.42724843389602e-003
1.66576576576576e+006	7.81680720689530e-001,3.80688353924550e-001	4.36638558620940e-003,-7.61376707849100e-003
1.67567567567567e+006	8.02352465709143e-001,3.75052605299172e-001	3.95295068581713e-003,-7.50105210598344e-003
1.68558558558558e+006	8.16488967745346e-001,3.66521239377980e-001	3.67022064509309e-003,-7.33042478755959e-003
1.69549549549549e+006	8.27479402527416e-001,3.55732503313459e-001	3.45041194945169e-003,-7.11465006626919e-003
1.70540540540540e+006	8.34582268792162e-001,3.39669913556047e-001	3.30835462415677e-003,-6.79339827112093e-003
1.71531531531531e+006	8.19919532408885e-001,3.19079046279555e-001	3.60160935182230e-003,-6.38158092559109e-003
1.72522522522522e+006	8.08178111175075e-001,3.46040796271641e-001	3.83643777649850e-003,-6.92081592543282e-003
1.73513513513513e+006	8.29605564510613e-001,3.51162477418185e-001	3.40788870978775e-003,-7.02324954836370e-003
1.74504504504504e+006	8.43054374740929e-001,3.45117544304872e-001	3.13891250518141e-003,-6.90235088609743e-003
1.75495495495495e+006	8.52101551852403e-001,3.37367420512293e-001	2.95796896295194e-003,-6.74734841024586e-003
1.76486486486486e+006	8.56925229077085e-001,3.30380221507887e-001	2.86149541845830e-003,-6.60760443015774e-003
1.77477477477477e+006	8.63954951630000e-001,3.26562834686604e-001	2.72090096740000e-003,-6.53125669373209e-003
1.78468468468468e+006	8.71295314665059e-001,3.20163389266839e-001	2.57409370669881e-003,-6.40326778533678e-003
1.79459459459459e+006	8.77673473837615e-001,3.13300300289898e-001	2.44653052324770e-003,-6.26600600579796e-003
1.80450450450450e+006	8.83584299408790e-001,3.06298069119739e-001	2.32831401182420e-003,-6.12596138239478e-003
1.81441441441441e+006	8.89231274297891e-001,2.99129859739910e-001	2.21537451404218e-003,-5.98259719479821e-003
1.82432432432432e+006	8.94711203356647e-001,2.91726907416468e-001	2.10577593286705e-003,-5.83453814832936e-003
1.83423423423423e+006	9.00080838836159e-001,2.84000482485198e-001	1.99838322327682e-003,-5.68000964970395e-003
1.84414414414414e+006	9.05377853536250e-001,2.75830775088456e-001	1.89244292927500e-003,-5.51661550176912e-003
1.85405405405405e+006	9.10625674000510e-001,2.67041054604654e-001	1.78748651998980e-003,-5.34082109209309e-003
1.86396396396396e+006	9.15824613486099e-001,2.57346049421496e-001	1.68350773027802e-003,-5.14692098842993e-003
