Freq.	V(1|1|1|b)	I(R129)
1.00000000000000e+005	1.00087019592665e-001,1.25945162532796e-001	1.79982596081467e-002,-2.51890325065592e-003
1.09909909909910e+005	1.03742410341671e-001,1.37910074690417e-001	1.79251517931666e-002,-2.75820149380835e-003
1.19819819819820e+005	1.07715162609936e-001,1.49733043573374e-001	1.78456967478013e-002,-2.99466087146749e-003
1.29729729729730e+005	1.11998120633552e-001,1.61403123382391e-001	1.77600375873290e-002,-3.22806246764783e-003
1.39639639639640e+005	1.16583657313803e-001,1.72909813143042e-001	1.76683268537239e-002,-3.45819626286085e-003
1.49549549549550e+005	1.21463706870486e-001,1.84243080314404e-001	1.75707258625903e-002,-3.68486160628808e-003
1.59459459459459e+005	1.26629798721111e-001,1.95393381637221e-001	1.74674040255778e-002,-3.90786763274442e-003
1.69369369369369e+005	1.32073092330207e-001,2.06351681182328e-001	1.73585381533959e-002,-4.12703362364657e-003
1.79279279279279e+005	1.37784412776644e-001,2.17109465579947e-001	1.72443117444671e-002,-4.34218931159894e-003
1.89189189189189e+005	1.43754286791163e-001,2.27658756431563e-001	1.71249142641767e-002,-4.55317512863126e-003
1.99099099099099e+005	1.49972979022140e-001,2.37992119927554e-001	1.70005404195572e-002,-4.75984239855108e-003
2.09009009009009e+005	1.56430528295513e-001,2.48102673714764e-001	1.68713894340897e-002,-4.96205347429527e-003
2.18918918918919e+005	1.63116783644641e-001,2.57984091078325e-001	1.67376643271072e-002,-5.15968182156650e-003
2.28828828828829e+005	1.70021439897680e-001,2.67630602520767e-001	1.65995712020464e-002,-5.35261205041533e-003
2.38738738738739e+005	1.77134072623450e-001,2.77036994838507e-001	1.64573185475310e-002,-5.54073989677015e-003
2.48648648648649e+005	1.84444172251577e-001,2.86198607811076e-001	1.63111165549685e-002,-5.72397215622153e-003
2.58558558558559e+005	1.91941177198635e-001,2.95111328631649e-001	1.61611764560273e-002,-5.90222657263298e-003
2.68468468468468e+005	1.99614505848721e-001,3.03771584218684e-001	1.60077098830256e-002,-6.07543168437368e-003
2.78378378378378e+005	2.07453587254249e-001,3.12176331557584e-001	1.58509282549150e-002,-6.24352663115169e-003
2.88288288288288e+005	2.15447890440300e-001,3.20323046228353e-001	1.56910421911940e-002,-6.40646092456706e-003
2.98198198198198e+005	2.23586952213549e-001,3.28209709280298e-001	1.55282609557290e-002,-6.56419418560596e-003
3.08108108108108e+005	2.31860403394263e-001,3.35834792617941e-001	1.53627919321147e-002,-6.71669585235883e-003
3.18018018018018e+005	2.40257993406947e-001,3.43197243063607e-001	1.51948401318611e-002,-6.86394486127214e-003
3.27927927927928e+005	2.48769613181763e-001,3.50296465261738e-001	1.50246077363647e-002,-7.00592930523475e-003
3.37837837837838e+005	2.57385316334668e-001,3.57132303588020e-001	1.48522936733066e-002,-7.14264607176041e-003
3.47747747747748e+005	2.66095338609164e-001,3.63705023223008e-001	1.46780932278167e-002,-7.27410046446015e-003
3.57657657657657e+005	2.74890115576605e-001,3.70015290545247e-001	1.45021976884679e-002,-7.40030581090495e-003
3.67567567567567e+005	2.83760298604895e-001,3.76064152993185e-001	1.43247940279021e-002,-7.52128305986370e-003
3.77477477477477e+005	2.92696769117363e-001,3.81853018538391e-001	1.41460646176527e-002,-7.63706037076782e-003
3.87387387387387e+005	3.01690651174213e-001,3.87383634905174e-001	1.39661869765157e-002,-7.74767269810348e-003
3.97297297297297e+005	3.10733322418577e-001,3.92658068663549e-001	1.37853335516285e-002,-7.85316137327097e-003
4.07207207207207e+005	3.19816423437496e-001,3.97678684313907e-001	1.36036715312501e-002,-7.95357368627814e-003
4.17117117117117e+005	3.28931865595445e-001,4.02448123472839e-001	1.34213626880911e-002,-8.04896246945679e-003
4.27027027027027e+005	3.38071837404040e-001,4.06969284260404e-001	1.32385632519192e-002,-8.13938568520808e-003
4.36936936936936e+005	3.47228809496632e-001,4.11245300979916e-001	1.30554238100674e-002,-8.22490601959833e-003
4.46846846846846e+005	3.56395538280410e-001,4.15279524172138e-001	1.28720892343918e-002,-8.30559048344276e-003
4.56756756756756e+005	3.65565068341666e-001,4.19075501116651e-001	1.26886986331667e-002,-8.38151002233302e-003
4.66666666666666e+005	3.74730733681938e-001,4.22636956844320e-001	1.25053853263612e-002,-8.45273913688641e-003
4.76576576576576e+005	3.83886157863979e-001,4.25967775716142e-001	1.23222768427204e-002,-8.51935551432285e-003
4.86486486486486e+005	3.93025253146979e-001,4.29071983615500e-001	1.21394949370604e-002,-8.58143967231000e-003
4.96396396396396e+005	4.02142218690252e-001,4.31953730792961e-001	1.19571556261950e-002,-8.63907461585922e-003
5.06306306306306e+005	4.11231537903707e-001,4.34617275395292e-001	1.17753692419259e-002,-8.69234550790584e-003
5.16216216216216e+005	4.20287975022092e-001,4.37066967703355e-001	1.15942404995582e-002,-8.74133935406709e-003
5.26126126126125e+005	4.29306570978074e-001,4.39307235097033e-001	1.14138685804385e-002,-8.78614470194066e-003
5.36036036036035e+005	4.38282638646967e-001,4.41342567759280e-001	1.12343472270607e-002,-8.82685135518561e-003
5.45945945945945e+005	4.47211757533305e-001,4.43177505125856e-001	1.10557648493339e-002,-8.86355010251713e-003
5.55855855855855e+005	4.56089767966542e-001,4.44816623082252e-001	1.08782046406692e-002,-8.89633246164504e-003
5.65765765765765e+005	4.64912764870068e-001,4.46264521904758e-001	1.07017447025986e-002,-8.92529043809515e-003
5.75675675675675e+005	4.73677091164423e-001,4.47525814938531e-001	1.05264581767115e-002,-8.95051629877061e-003
5.85585585585585e+005	4.82379330862197e-001,4.48605118001904e-001	1.03524133827561e-002,-8.97210236003809e-003
5.95495495495495e+005	4.91016301908628e-001,4.49507039502990e-001	1.01796739618274e-002,-8.99014079005981e-003
6.05405405405405e+005	4.99585048818399e-001,4.50236171251877e-001	1.00082990236320e-002,-9.00472342503754e-003
6.15315315315315e+005	5.08082835155599e-001,4.50797079949349e-001	9.83834329688802e-003,-9.01594159898698e-003
6.25225225225225e+005	5.16507135900375e-001,4.51194299331082e-001	9.66985728199249e-003,-9.02388598662163e-003
6.35135135135135e+005	5.24855629742327e-001,4.51432322944611e-001	9.50288740515346e-003,-9.02864645889222e-003
6.45045045045045e+005	5.33126191337391e-001,4.51515597535057e-001	9.33747617325219e-003,-9.03031195070115e-003
6.54954954954955e+005	5.41316883561699e-001,4.51448517014577e-001	9.17366232876602e-003,-9.02897034029154e-003
6.64864864864865e+005	5.49425949792770e-001,4.51235416989734e-001	9.01148100414459e-003,-9.02470833979467e-003
6.74774774774775e+005	5.57451806245381e-001,4.50880569820497e-001	8.85096387509239e-003,-9.01761139640994e-003
6.84684684684685e+005	5.65393034386620e-001,4.50388180184271e-001	8.69213931226760e-003,-9.00776360368541e-003
6.94594594594594e+005	5.73248373451886e-001,4.49762381118259e-001	8.53503253096229e-003,-8.99524762236519e-003
7.04504504504504e+005	5.81016713081019e-001,4.49007230513573e-001	8.37966573837962e-003,-8.98014461027145e-003
7.14414414414414e+005	5.88697086091358e-001,4.48126708034679e-001	8.22605827817285e-003,-8.96253416069359e-003
7.24324324324324e+005	5.96288661402203e-001,4.47124712438202e-001	8.07422677195593e-003,-8.94249424876404e-003
7.34234234234234e+005	6.03790737123102e-001,4.46005059265506e-001	7.92418525753795e-003,-8.92010118531013e-003
7.44144144144144e+005	6.11202733816348e-001,4.44771478884117e-001	7.77594532367304e-003,-8.89542957768233e-003
7.54054054054054e+005	6.18524187942314e-001,4.43427614853629e-001	7.62951624115372e-003,-8.86855229707258e-003
7.63963963963964e+005	6.25754745494534e-001,4.41977022592517e-001	7.48490509010933e-003,-8.83954045185034e-003
7.73873873873874e+005	6.32894155829907e-001,4.40423168322974e-001	7.34211688340185e-003,-8.80846336645947e-003
7.83783783783784e+005	6.39942265698004e-001,4.38769428271745e-001	7.20115468603991e-003,-8.77538856543490e-003
7.93693693693694e+005	6.46899013472154e-001,4.37019088105725e-001	7.06201973055692e-003,-8.74038176211450e-003
8.03603603603604e+005	6.53764423583850e-001,4.35175342581933e-001	6.92471152832300e-003,-8.70350685163865e-003
8.13513513513514e+005	6.60538601160940e-001,4.33241295392335e-001	6.78922797678119e-003,-8.66482590784669e-003
8.23423423423424e+005	6.67221726869146e-001,4.31219959184821e-001	6.65556546261709e-003,-8.62439918369642e-003
8.33333333333334e+005	6.73814051955596e-001,4.29114255742487e-001	6.52371896088808e-003,-8.58228511484973e-003
8.43243243243244e+005	6.80315893492333e-001,4.26927016304185e-001	6.39368213015334e-003,-8.53854032608369e-003
8.53153153153153e+005	6.86727629817054e-001,4.24660982010123e-001	6.26544740365891e-003,-8.49321964020246e-003
8.63063063063063e+005	6.93049696167823e-001,4.22318804457052e-001	6.13900607664353e-003,-8.44637608914104e-003
8.72972972972973e+005	6.99282580507910e-001,4.19903046348322e-001	6.01434838984179e-003,-8.39806092696645e-003
8.82882882882883e+005	7.05426819536546e-001,4.17416182224816e-001	5.89146360926908e-003,-8.34832364449631e-003
8.92792792792793e+005	7.11482994880952e-001,4.14860599263405e-001	5.77034010238095e-003,-8.29721198526810e-003
9.02702702702703e+005	7.17451729464706e-001,4.12238598130239e-001	5.65096541070588e-003,-8.24477196260478e-003
9.12612612612613e+005	7.23333684047216e-001,4.09552393876713e-001	5.53332631905569e-003,-8.19104787753426e-003
9.22522522522523e+005	7.29129553928869e-001,4.06804116866533e-001	5.41740892142263e-003,-8.13608233733065e-003
9.32432432432433e+005	7.34840065816202e-001,4.03995813722750e-001	5.30319868367595e-003,-8.07991627445500e-003
9.42342342342343e+005	7.40465974841311e-001,4.01129448284076e-001	5.19068050317377e-003,-8.02258896568152e-003
9.52252252252253e+005	7.46008061729565e-001,3.98206902560149e-001	5.07983876540870e-003,-7.96413805120298e-003
9.62162162162163e+005	7.51467130109614e-001,3.95229977675734e-001	4.97065739780773e-003,-7.90459955351469e-003
9.72072072072073e+005	7.56844003959569e-001,3.92200394794089e-001	4.86311992080863e-003,-7.84400789588178e-003
9.81981981981983e+005	7.62139525183181e-001,3.89119796009879e-001	4.75720949633638e-003,-7.78239592019759e-003
9.91891891891893e+005	7.67354551309772e-001,3.85989745202165e-001	4.65290897380456e-003,-7.71979490404330e-003
1.00180180180180e+006	7.72489953311619e-001,3.82811728837964e-001	4.55020093376762e-003,-7.65623457675928e-003
1.01171171171171e+006	7.77546613532443e-001,3.79587156716871e-001	4.44906772935113e-003,-7.59174313433742e-003
1.02162162162162e+006	7.82525423720573e-001,3.76317362647038e-001	4.34949152558854e-003,-7.52634725294076e-003
1.03153153153153e+006	7.87427283160297e-001,3.73003605042583e-001	4.25145433679406e-003,-7.46007210085165e-003
1.04144144144144e+006	7.92253096894810e-001,3.69647067432128e-001	4.15493806210379e-003,-7.39294134864257e-003
1.05135135135135e+006	7.97003774034058e-001,3.66248858867695e-001	4.05992451931884e-003,-7.32497717735391e-003
1.06126126126126e+006	8.01680226140610e-001,3.62810014222556e-001	3.96639547718779e-003,-7.25620028445113e-003
1.07117117117117e+006	8.06283365686532e-001,3.59331494365898e-001	3.87433268626935e-003,-7.18662988731795e-003
1.08108108108108e+006	8.10814104573954e-001,3.55814186201194e-001	3.78371790852093e-003,-7.11628372402389e-003
1.09099099099099e+006	8.15273352711743e-001,3.52258902554082e-001	3.69453294576514e-003,-7.04517805108164e-003
1.10090090090090e+006	8.19662016640317e-001,3.48666381894156e-001	3.60675966719366e-003,-6.97332763788312e-003
1.11081081081081e+006	8.23980998196122e-001,3.45037287873530e-001	3.52038003607756e-003,-6.90074575747061e-003
1.12072072072072e+006	8.28231193206756e-001,3.41372208663101e-001	3.43537613586489e-003,-6.82744417326202e-003
1.13063063063063e+006	8.32413490206945e-001,3.37671656065211e-001	3.35173019586109e-003,-6.75343312130423e-003
1.14054054054054e+006	8.36528769164729e-001,3.33936064378812e-001	3.26942461670542e-003,-6.67872128757623e-003
1.15045045045045e+006	8.40577900206058e-001,3.30165788990097e-001	3.18844199587885e-003,-6.60331577980193e-003
1.16036036036036e+006	8.44561742324715e-001,3.26361104657978e-001	3.10876515350571e-003,-6.52722209315956e-003
1.17027027027027e+006	8.48481142062759e-001,3.22522203459467e-001	3.03037715874483e-003,-6.45044406918934e-003
1.18018018018018e+006	8.52336932144698e-001,3.18649192354994e-001	2.95326135710604e-003,-6.37298384709989e-003
1.19009009009009e+006	8.56129930046071e-001,3.14742090327740e-001	2.87740139907859e-003,-6.29484180655480e-003
1.20000000000000e+006	8.59860936474056e-001,3.10800825043975e-001	2.80278127051887e-003,-6.21601650087950e-003
1.20990990990991e+006	8.63530733733934e-001,3.06825228973071e-001	2.72938532532132e-003,-6.13650457946142e-003
1.21981981981982e+006	8.67140083950512e-001,3.02815034895846e-001	2.65719832098976e-003,-6.05630069791692e-003
1.22972972972973e+006	8.70689727107821e-001,2.98769870718037e-001	2.58620545784358e-003,-5.97539741436073e-003
1.23963963963964e+006	8.74180378863114e-001,2.94689253491432e-001	2.51639242273771e-003,-5.89378506982865e-003
1.24954954954955e+006	8.77612728082114e-001,2.90572582528092e-001	2.44774543835772e-003,-5.81145165056185e-003
1.25945945945946e+006	8.80987434031042e-001,2.86419131472370e-001	2.38025131937915e-003,-5.72838262944741e-003
1.26936936936937e+006	8.84305123146539e-001,2.82228039170445e-001	2.31389753706922e-003,-5.64456078340890e-003
1.27927927927928e+006	8.87566385286250e-001,2.77998299146548e-001	2.24867229427499e-003,-5.55996598293097e-003
1.28918918918919e+006	8.90771769339476e-001,2.73728747457798e-001	2.18456461321048e-003,-5.47457494915597e-003
1.29909909909910e+006	8.93921778047180e-001,2.69418048653763e-001	2.12156443905640e-003,-5.38836097307525e-003
1.30900900900901e+006	8.97016861841748e-001,2.65064679510318e-001	2.05966276316504e-003,-5.30129359020637e-003
1.31891891891892e+006	9.00057411466172e-001,2.60666910137240e-001	1.99885177067656e-003,-5.21333820274481e-003
1.32882882882883e+006	9.03043749065776e-001,2.56222781971435e-001	1.93912501868448e-003,-5.12445563942870e-003
1.33873873873874e+006	9.05976117357491e-001,2.51730082057993e-001	1.88047765285018e-003,-5.03460164115986e-003
1.34864864864865e+006	9.08854666364173e-001,2.47186312882848e-001	1.82290667271654e-003,-4.94372625765695e-003
1.35855855855856e+006	9.11679437043144e-001,2.42588656845298e-001	1.76641125913711e-003,-4.85177313690596e-003
1.36846846846847e+006	9.14450340923012e-001,2.37933934234836e-001	1.71099318153977e-003,-4.75867868469672e-003
1.37837837837838e+006	9.17167134567306e-001,2.33218553289646e-001	1.65665730865388e-003,-4.66437106579291e-003
1.38828828828829e+006	9.19829387273327e-001,2.28438450544076e-001	1.60341225453346e-003,-4.56876901088152e-003
1.39819819819820e+006	9.22436439838521e-001,2.23589019192913e-001	1.55127120322959e-003,-4.47178038385826e-003
1.40810810810811e+006	9.24987351407766e-001,2.18665022576598e-001	1.50025297184467e-003,-4.37330045153197e-003
1.41801801801802e+006	9.27480830235249e-001,2.13660489077962e-001	1.45038339529502e-003,-4.27320978155924e-003
1.42792792792793e+006	9.29915142471233e-001,2.08568583659107e-001	1.40169715057534e-003,-4.17137167318214e-003
1.43783783783784e+006	9.32287990528555e-001,2.03381449885202e-001	1.35424018942890e-003,-4.06762899770405e-003
1.44774774774775e+006	9.34596348733254e-001,1.98090014500220e-001	1.30807302533492e-003,-3.96180029000440e-003
1.45765765765766e+006	9.36836238062954e-001,1.92683744369352e-001	1.26327523874092e-003,-3.85367488738704e-003
1.46756756756756e+006	9.39002412569700e-001,1.87150342881910e-001	1.21995174860601e-003,-3.74300685763821e-003
1.47747747747747e+006	9.41087915445141e-001,1.81475369925273e-001	1.17824169109718e-003,-3.62950739850547e-003
1.48738738738738e+006	9.43083438953245e-001,1.75641767073889e-001	1.13833122093510e-003,-3.51283534147778e-003
1.49729729729729e+006	9.44976383221663e-001,1.69629269926327e-001	1.10047233556674e-003,-3.39258539852654e-003
1.50720720720720e+006	9.46749442817418e-001,1.63413698475387e-001	1.06501114365165e-003,-3.26827396950773e-003
1.51711711711711e+006	9.48378437103697e-001,1.56966149140656e-001	1.03243125792605e-003,-3.13932298281312e-003
1.52702702702702e+006	9.49828906034378e-001,1.50252207175564e-001	1.00342187931244e-003,-3.00504414351127e-003
1.53693693693693e+006	9.51050662843601e-001,1.43231554348545e-001	9.78986743127972e-004,-2.86463108697089e-003
1.54684684684684e+006	9.51968968369040e-001,1.35859018663233e-001	9.60620632619202e-004,-2.71718037326466e-003
1.55675675675675e+006	9.52470328247056e-001,1.28089850203304e-001	9.50593435058871e-004,-2.56179700406609e-003
1.56666666666666e+006	9.52380945943282e-001,1.19896366400077e-001	9.52381081134352e-004,-2.39792732800154e-003
1.57657657657657e+006	9.51440955441913e-001,1.11312958541708e-001	9.71180891161729e-004,-2.22625917083416e-003
1.58648648648648e+006	9.49304636333260e-001,1.02540888598794e-001	1.01390727333480e-003,-2.05081777197588e-003
1.59639639639639e+006	9.45684248796668e-001,9.41175929203664e-002	1.08631502406664e-003,-1.88235185840733e-003
1.60630630630630e+006	9.40825533996419e-001,8.68827773958350e-002	1.18348932007163e-003,-1.73765554791670e-003
1.61621621621621e+006	9.35793554116332e-001,8.10511978133438e-002	1.28412891767336e-003,-1.62102395626688e-003
1.62612612612612e+006	9.30902407614930e-001,7.54533612508666e-002	1.38195184770140e-003,-1.50906722501733e-003
1.63603603603603e+006	9.24430328702484e-001,6.98526154613798e-002	1.51139342595032e-003,-1.39705230922760e-003
1.64594594594594e+006	9.15373784760772e-001,6.69684257630560e-002	1.69252430478457e-003,-1.33936851526112e-003
1.65585585585585e+006	9.06880199723756e-001,7.00554567984030e-002	1.86239600552488e-003,-1.40110913596806e-003
1.66576576576576e+006	9.04984066700990e-001,7.72583200042798e-002	1.90031866598021e-003,-1.54516640008560e-003
1.67567567567567e+006	9.10723055630150e-001,8.13850430080904e-002	1.78553888739699e-003,-1.62770086016181e-003
1.68558558558558e+006	9.18721516021763e-001,7.85469131474764e-002	1.62556967956473e-003,-1.57093826294953e-003
1.69549549549549e+006	9.24211202187182e-001,7.02958910961805e-002	1.51577595625636e-003,-1.40591782192361e-003
1.70540540540540e+006	9.25344840389490e-001,5.97231032063150e-002	1.49310319221020e-003,-1.19446206412630e-003
1.71531531531531e+006	9.22167434694772e-001,4.99198451133443e-002	1.55665130610456e-003,-9.98396902266885e-004
1.72522522522522e+006	9.16924671197597e-001,4.36126570536408e-002	1.66150657604806e-003,-8.72253141072816e-004
1.73513513513513e+006	9.14088934245035e-001,4.03998702258212e-002	1.71822131509930e-003,-8.07997404516424e-004
1.74504504504504e+006	9.15294667147971e-001,3.52493514569205e-002	1.69410665704058e-003,-7.04987029138409e-004
1.75495495495495e+006	9.16612762376310e-001,2.46872942208549e-002	1.66774475247381e-003,-4.93745884417098e-004
1.76486486486486e+006	9.13886553335187e-001,9.71055330486770e-003	1.72226893329626e-003,-1.94211066097354e-004
1.77477477477477e+006	9.04986152001610e-001,-7.37561420800056e-003	1.90027695996780e-003,1.47512284160011e-004
1.78468468468468e+006	8.88398335772578e-001,-2.41731216174177e-002	2.23203328454843e-003,4.83462432348354e-004
1.79459459459459e+006	8.62674947761022e-001,-3.71456348207904e-002	2.74650104477957e-003,7.42912696415808e-004
1.80450450450450e+006	8.27795897486371e-001,-4.03464976778202e-002	3.44408205027259e-003,8.06929953556405e-004
1.81441441441441e+006	7.88716428607202e-001,-2.59051346371975e-002	4.22567142785595e-003,5.18102692743950e-004
1.82432432432432e+006	7.58554156749107e-001,1.00025467666547e-002	4.82891686501787e-003,-2.00050935333094e-004
1.83423423423423e+006	7.52164163805679e-001,5.78263610308221e-002	4.95671672388642e-003,-1.15652722061644e-003
1.84414414414414e+006	7.70961743712099e-001,9.85444701393572e-002	4.58076512575801e-003,-1.97088940278714e-003
1.85405405405405e+006	8.02327637009092e-001,1.20863673146651e-001	3.95344725981816e-003,-2.41727346293301e-003
1.86396396396396e+006	8.33643342754079e-001,1.26017842174796e-001	3.32713314491841e-003,-2.52035684349592e-003
