Freq.	V(1|1|1|a)	I(R129)
1.00000000000000e+005	4.82953563700861e-002,9.33073904810998e-002	1.90340928725983e-002,-1.86614780962200e-003
1.09909909909910e+005	5.02142096791092e-002,1.02384916777991e-001	1.89957158064178e-002,-2.04769833555981e-003
1.19819819819820e+005	5.23087429640425e-002,1.11415025796600e-001	1.89538251407191e-002,-2.22830051593201e-003
1.29729729729730e+005	5.45774939100254e-002,1.20393663803793e-001	1.89084501217995e-002,-2.40787327607586e-003
1.39639639639640e+005	5.70188847411525e-002,1.29316832942697e-001	1.88596223051769e-002,-2.58633665885395e-003
1.49549549549550e+005	5.96312247771567e-002,1.38180595256289e-001	1.88073755044569e-002,-2.76361190512577e-003
1.59459459459459e+005	6.24127131553480e-002,1.46981076575811e-001	1.87517457368930e-002,-2.93962153151622e-003
1.69369369369369e+005	6.53614417097390e-002,1.55714470266383e-001	1.86927711658052e-002,-3.11428940532767e-003
1.79279279279279e+005	6.84753979989020e-002,1.64377040822668e-001	1.86304920400220e-002,-3.28754081645336e-003
1.89189189189189e+005	7.17524684737563e-002,1.72965127308043e-001	1.85649506305249e-002,-3.45930254616086e-003
1.99099099099099e+005	7.51904417761781e-002,1.81475146631283e-001	1.84961911644764e-002,-3.62950293262566e-003
2.09009009009009e+005	7.87870121590576e-002,1.89903596655355e-001	1.84242597568188e-002,-3.79807193310711e-003
2.18918918918919e+005	8.25397830182071e-002,1.98247059133523e-001	1.83492043396359e-002,-3.96494118267047e-003
2.28828828828829e+005	8.64462705263390e-002,2.06502202468565e-001	1.82710745894732e-002,-4.13004404937130e-003
2.38738738738739e+005	9.05039073591945e-002,2.14665784291521e-001	1.81899218528161e-002,-4.29331568583041e-003
2.48648648648649e+005	9.47100465038018e-002,2.22734653857008e-001	1.81057990699240e-002,-4.45469307714016e-003
2.58558558558559e+005	9.90619651387902e-002,2.30705754252732e-001	1.80187606972242e-002,-4.61411508505465e-003
2.68468468468468e+005	1.03556868576664e-001,2.38576124421459e-001	1.79288626284667e-002,-4.77152248842918e-003
2.78378378378378e+005	1.08191894257964e-001,2.46342900994282e-001	1.78361621148407e-002,-4.92685801988563e-003
2.88288288288288e+005	1.12964115787313e-001,2.54003319934636e-001	1.77407176842537e-002,-5.08006639869273e-003
2.98198198198198e+005	1.17870547001420e-001,2.61554717993078e-001	1.76425890599716e-002,-5.23109435986157e-003
3.08108108108108e+005	1.22908146059277e-001,2.68994533973397e-001	1.75418370788145e-002,-5.37989067946794e-003
3.18018018018018e+005	1.28073819544928e-001,2.76320309811203e-001	1.74385236091014e-002,-5.52640619622406e-003
3.27927927927928e+005	1.33364426573405e-001,2.83529691466636e-001	1.73327114685319e-002,-5.67059382933272e-003
3.37837837837838e+005	1.38776782890637e-001,2.90620429633352e-001	1.72244643421873e-002,-5.81240859266705e-003
3.47747747747748e+005	1.44307664958422e-001,2.97590380266434e-001	1.71138467008316e-002,-5.95180760532868e-003
3.57657657657657e+005	1.49953814015812e-001,3.04437504932313e-001	1.70009237196838e-002,-6.08875009864627e-003
3.67567567567567e+005	1.55711940108571e-001,3.11159870984251e-001	1.68857611978286e-002,-6.22319741968503e-003
3.77477477477477e+005	1.61578726078725e-001,3.17755651567296e-001	1.67684254784255e-002,-6.35511303134593e-003
3.87387387387387e+005	1.67550831506515e-001,3.24223125457039e-001	1.66489833698697e-002,-6.48446250914078e-003
3.97297297297297e+005	1.73624896597496e-001,3.30560676736824e-001	1.65275020680501e-002,-6.61121353473647e-003
4.07207207207207e+005	1.79797546007843e-001,3.36766794318396e-001	1.64040490798431e-002,-6.73533588636793e-003
4.17117117117117e+005	1.86065392601365e-001,3.42840071311256e-001	1.62786921479727e-002,-6.85680142622512e-003
4.27027027027027e+005	1.92425041132103e-001,3.48779204246239e-001	1.61514991773579e-002,-6.97558408492478e-003
4.36936936936936e+005	1.98873091846800e-001,3.54582992159095e-001	1.60225381630640e-002,-7.09165984318190e-003
4.46846846846846e+005	2.05406144001967e-001,3.60250335540016e-001	1.58918771199607e-002,-7.20500671080032e-003
4.56756756756756e+005	2.12020799290662e-001,3.65780235155240e-001	1.57595840141868e-002,-7.31560470310480e-003
4.66666666666666e+005	2.18713665174533e-001,3.71171790747010e-001	1.56257266965093e-002,-7.42343581494020e-003
4.76576576576576e+005	2.25481358117102e-001,3.76424199618267e-001	1.54903728376580e-002,-7.52848399236535e-003
4.86486486486486e+005	2.32320506714670e-001,3.81536755108552e-001	1.53535898657066e-002,-7.63073510217103e-003
4.96396396396396e+005	2.39227754721643e-001,3.86508844967638e-001	1.52154449055671e-002,-7.73017689935276e-003
5.06306306306306e+005	2.46199763967507e-001,3.91339949633471e-001	1.50760047206499e-002,-7.82679899266942e-003
5.16216216216216e+005	2.53233217163031e-001,3.96029640420973e-001	1.49353356567394e-002,-7.92059280841946e-003
5.26126126126125e+005	2.60324820593738e-001,4.00577577628275e-001	1.47935035881252e-002,-8.01155155256550e-003
5.36036036036035e+005	2.67471306698999e-001,4.04983508566890e-001	1.46505738660200e-002,-8.09967017133779e-003
5.45945945945945e+005	2.74669436535523e-001,4.09247265522290e-001	1.45066112692895e-002,-8.18494531044581e-003
5.55855855855855e+005	2.81916002124363e-001,4.13368763651263e-001	1.43616799575128e-002,-8.26737527302526e-003
5.65765765765765e+005	2.89207828680882e-001,4.17347998822319e-001	1.42158434263824e-002,-8.34695997644637e-003
5.75675675675675e+005	2.96541776727497e-001,4.21185045405325e-001	1.40691644654501e-002,-8.42370090810649e-003
5.85585585585585e+005	3.03914744089298e-001,4.24880054016387e-001	1.39217051182140e-002,-8.49760108032774e-003
5.95495495495495e+005	3.11323667772958e-001,4.28433249223868e-001	1.37735266445408e-002,-8.56866498447735e-003
6.05405405405405e+005	3.18765525729647e-001,4.31844927221251e-001	1.36246894854071e-002,-8.63689854442502e-003
6.15315315315315e+005	3.26237338502910e-001,4.35115453472418e-001	1.34752532299418e-002,-8.70230906944836e-003
6.25225225225225e+005	3.33736170762745e-001,4.38245260334685e-001	1.33252765847451e-002,-8.76490520669369e-003
6.35135135135135e+005	3.41259132727344e-001,4.41234844664778e-001	1.31748173454531e-002,-8.82469689329555e-003
6.45045045045045e+005	3.48803381474191e-001,4.44084765412709e-001	1.30239323705162e-002,-8.88169530825417e-003
6.54954954954955e+005	3.56366122142392e-001,4.46795641208313e-001	1.28726775571522e-002,-8.93591282416626e-003
6.64864864864865e+005	3.63944609028352e-001,4.49368147944984e-001	1.27211078194330e-002,-8.98736295889967e-003
6.74774774774775e+005	3.71536146577020e-001,4.51803016364927e-001	1.25692770684596e-002,-9.03606032729853e-003
6.84684684684685e+005	3.79138090271135e-001,4.54101029650027e-001	1.24172381945773e-002,-9.08202059300054e-003
6.94594594594594e+005	3.86747847421029e-001,4.56263021022188e-001	1.22650430515794e-002,-9.12526042044376e-003
7.04504504504504e+005	3.94362877857653e-001,4.58289871356788e-001	1.21127424428469e-002,-9.16579742713576e-003
7.14414414414414e+005	4.01980694531628e-001,4.60182506812636e-001	1.19603861093674e-002,-9.20365013625273e-003
7.24324324324324e+005	4.09598864021210e-001,4.61941896481617e-001	1.18080227195758e-002,-9.23883792963234e-003
7.34234234234234e+005	4.17215006952138e-001,4.63569050060939e-001	1.16556998609572e-002,-9.27138100121879e-003
7.44144144144144e+005	4.24826798332406e-001,4.65065015550703e-001	1.15034640333519e-002,-9.30130031101406e-003
7.54054054054054e+005	4.32431967805065e-001,4.66430876979247e-001	1.13513606438987e-002,-9.32861753958494e-003
7.63963963963964e+005	4.40028299822194e-001,4.67667752158525e-001	1.11994340035561e-002,-9.35335504317050e-003
7.73873873873874e+005	4.47613633743211e-001,4.68776790471511e-001	1.10477273251358e-002,-9.37553580943022e-003
7.83783783783784e+005	4.55185863860750e-001,4.69759170693430e-001	1.08962827227850e-002,-9.39518341386860e-003
7.93693693693694e+005	4.62742939357287e-001,4.70616098848373e-001	1.07451412128543e-002,-9.41232197696746e-003
8.03603603603604e+005	4.70282864195749e-001,4.71348806102635e-001	1.05943427160850e-002,-9.42697612205269e-003
8.13513513513514e+005	4.77803696947314e-001,4.71958546695901e-001	1.04439260610537e-002,-9.43917093391801e-003
8.23423423423424e+005	4.85303550559599e-001,4.72446595911191e-001	1.02939289888080e-002,-9.44893191822382e-003
8.33333333333334e+005	4.92780592068403e-001,4.72814248084251e-001	1.01443881586319e-002,-9.45628496168502e-003
8.43243243243244e+005	5.00233042256158e-001,4.73062814652873e-001	9.99533915487684e-003,-9.46125629305746e-003
8.53153153153153e+005	5.07659175260199e-001,4.73193622246421e-001	9.84681649479603e-003,-9.46387244492842e-003
8.63063063063063e+005	5.15057318133913e-001,4.73208010815616e-001	9.69885363732174e-003,-9.46416021631232e-003
8.72972972972973e+005	5.22425850363806e-001,4.73107331802445e-001	9.55148299272389e-003,-9.46214663604889e-003
8.82882882882883e+005	5.29763203345444e-001,4.72892946349828e-001	9.40473593309112e-003,-9.45785892699657e-003
8.92792792792793e+005	5.37067859821206e-001,4.72566223550491e-001	9.25864280357589e-003,-9.45132447100982e-003
9.02702702702703e+005	5.44338353282685e-001,4.72128538734248e-001	9.11323293434630e-003,-9.44257077468497e-003
9.12612612612613e+005	5.51573267340574e-001,4.71581271792724e-001	8.96853465318851e-003,-9.43162543585449e-003
9.22522522522523e+005	5.58771235064738e-001,4.70925805540279e-001	8.82457529870524e-003,-9.41851611080559e-003
9.32432432432433e+005	5.65930938297175e-001,4.70163524109707e-001	8.68138123405649e-003,-9.40327048219415e-003
9.42342342342343e+005	5.73051106940463e-001,4.69295811381020e-001	8.53897786119074e-003,-9.38591622762040e-003
9.52252252252253e+005	5.80130518224237e-001,4.68324049441390e-001	8.39738963551525e-003,-9.36648098882780e-003
9.62162162162163e+005	5.87167995952184e-001,4.67249617074059e-001	8.25664008095633e-003,-9.34499234148119e-003
9.72072072072073e+005	5.94162409731946e-001,4.66073888273739e-001	8.11675180536108e-003,-9.32147776547479e-003
9.81981981981983e+005	6.01112674190310e-001,4.64798230785732e-001	7.97774651619381e-003,-9.29596461571465e-003
9.91891891891893e+005	6.08017748175926e-001,4.63424004665667e-001	7.83964503648149e-003,-9.26848009331335e-003
1.00180180180180e+006	6.14876633951811e-001,4.61952560856398e-001	7.70246732096378e-003,-9.23905121712796e-003
1.01171171171171e+006	6.21688376379771e-001,4.60385239778211e-001	7.56623247240457e-003,-9.20770479556422e-003
1.02162162162162e+006	6.28452062098839e-001,4.58723369928051e-001	7.43095875802321e-003,-9.17446739856103e-003
1.03153153153153e+006	6.35166818699777e-001,4.56968266482994e-001	7.29666362600446e-003,-9.13936532965987e-003
1.04144144144144e+006	6.41831813897613e-001,4.55121229902635e-001	7.16336372204775e-003,-9.10242459805270e-003
1.05135135135135e+006	6.48446254704140e-001,4.53183544524461e-001	7.03107490591721e-003,-9.06367089048923e-003
1.06126126126126e+006	6.55009386602248e-001,4.51156477145531e-001	6.89981226795503e-003,-9.02312954291062e-003
1.07117117117117e+006	6.61520492723900e-001,4.49041275583024e-001	6.76959014552200e-003,-8.98082551166048e-003
1.08108108108108e+006	6.67978893033509e-001,4.46839167205255e-001	6.64042213932982e-003,-8.93678334410510e-003
1.09099099099099e+006	6.74383943518428e-001,4.44551357423697e-001	6.51232112963144e-003,-8.89102714847393e-003
1.10090090090090e+006	6.80735035388177e-001,4.42179028135299e-001	6.38529929223647e-003,-8.84358056270598e-003
1.11081081081081e+006	6.87031594283985e-001,4.39723336102954e-001	6.25936811432031e-003,-8.79446672205908e-003
1.12072072072072e+006	6.93273079500133e-001,4.37185411260252e-001	6.13453840999733e-003,-8.74370822520505e-003
1.13063063063063e+006	6.99458983218485e-001,4.34566354924709e-001	6.01082033563030e-003,-8.69132709849418e-003
1.14054054054054e+006	7.05588829757472e-001,4.31867237901271e-001	5.88822340485055e-003,-8.63734475802542e-003
1.15045045045045e+006	7.11662174836652e-001,4.29089098455181e-001	5.76675650326696e-003,-8.58178196910362e-003
1.16036036036036e+006	7.17678604857734e-001,4.26232940129980e-001	5.64642790284532e-003,-8.52465880259960e-003
1.17027027027027e+006	7.23637736202724e-001,4.23299729382516e-001	5.52724527594552e-003,-8.46599458765031e-003
1.18018018018018e+006	7.29539214549466e-001,4.20290393002177e-001	5.40921570901068e-003,-8.40580786004354e-003
1.19009009009009e+006	7.35382714204373e-001,4.17205815275948e-001	5.29234571591255e-003,-8.34411630551896e-003
1.20000000000000e+006	7.41167937451520e-001,4.14046834854133e-001	5.17664125096961e-003,-8.28093669708265e-003
1.20990990990991e+006	7.46894613916378e-001,4.10814241263425e-001	5.06210772167244e-003,-8.21628482526851e-003
1.21981981981982e+006	7.52562499941305e-001,4.07508771004076e-001	4.94875000117390e-003,-8.15017542008153e-003
1.22972972972973e+006	7.58171377968316e-001,4.04131103155776e-001	4.83657244063368e-003,-8.08262206311552e-003
1.23963963963964e+006	7.63721055922505e-001,4.00681854402021e-001	4.72557888154990e-003,-8.01363708804042e-003
1.24954954954955e+006	7.69211366586554e-001,3.97161573364417e-001	4.61577266826892e-003,-7.94323146728835e-003
1.25945945945946e+006	7.74642166952772e-001,3.93570734115702e-001	4.50715666094455e-003,-7.87141468231405e-003
1.26936936936937e+006	7.80013337533664e-001,3.89909728712042e-001	4.39973324932673e-003,-7.79819457424084e-003
1.27927927927928e+006	7.85324781604533e-001,3.86178858549848e-001	4.29350436790935e-003,-7.72357717099695e-003
1.28918918918919e+006	7.90576424341360e-001,3.82378324307899e-001	4.18847151317279e-003,-7.64756648615798e-003
1.29909909909910e+006	7.95768211802951e-001,3.78508214179284e-001	4.08463576394097e-003,-7.57016428358569e-003
1.30900900900901e+006	8.00900109686596e-001,3.74568490025945e-001	3.98199780626809e-003,-7.49136980051891e-003
1.31891891891892e+006	8.05972101758878e-001,3.70558970996670e-001	3.88055796482245e-003,-7.41117941993340e-003
1.32882882882883e+006	8.10984187824437e-001,3.66479314030629e-001	3.78031624351127e-003,-7.32958628061259e-003
1.33873873873874e+006	8.15936381040505e-001,3.62328990514127e-001	3.68127237918990e-003,-7.24657981028255e-003
1.34864864864865e+006	8.20828704306589e-001,3.58107258155935e-001	3.58342591386822e-003,-7.16214516311871e-003
1.35855855855856e+006	8.25661185345764e-001,3.53813126879367e-001	3.48677629308473e-003,-7.07626253758733e-003
1.36846846846847e+006	8.30433849930033e-001,3.49445317173574e-001	3.39132300139934e-003,-6.98890634347149e-003
1.37837837837838e+006	8.35146712461588e-001,3.45002208868902e-001	3.29706575076825e-003,-6.90004417737805e-003
1.38828828828829e+006	8.39799762764774e-001,3.40481777654172e-001	3.20400474470452e-003,-6.80963555308344e-003
1.39819819819820e+006	8.44392947407551e-001,3.35881515769443e-001	3.11214105184899e-003,-6.71763031538885e-003
1.40810810810811e+006	8.48926143055694e-001,3.31198332087819e-001	3.02147713888612e-003,-6.62396664175639e-003
1.41801801801802e+006	8.53399118104555e-001,3.26428425101389e-001	2.93201763790889e-003,-6.52856850202778e-003
1.42792792792793e+006	8.57811476860731e-001,3.21567119940355e-001	2.84377046278538e-003,-6.43134239880710e-003
1.43783783783784e+006	8.62162577401887e-001,3.16608657175015e-001	2.75674845196226e-003,-6.33217314350030e-003
1.44774774774775e+006	8.66451409138038e-001,3.11545916331407e-001	2.67097181723925e-003,-6.23091832662814e-003
1.45765765765766e+006	8.70676407641851e-001,3.06370050153162e-001	2.58647184716298e-003,-6.12740100306324e-003
1.46756756756756e+006	8.74835170002856e-001,3.01069995781357e-001	2.50329659994288e-003,-6.02139991562714e-003
1.47747747747747e+006	8.78924009161717e-001,2.95631815094444e-001	2.42151981676567e-003,-5.91263630188888e-003
1.48738738738738e+006	8.82937241627846e-001,2.90037797425086e-001	2.34125516744308e-003,-5.80075594850172e-003
1.49729729729729e+006	8.86866022650321e-001,2.84265234060436e-001	2.26267954699359e-003,-5.68530468120872e-003
1.50720720720720e+006	8.90696392472611e-001,2.78284751270845e-001	2.18607215054778e-003,-5.56569502541690e-003
1.51711711711711e+006	8.94405908440365e-001,2.72058092405118e-001	2.11188183119270e-003,-5.44116184810236e-003
1.52702702702702e+006	8.97957672424232e-001,2.65535357998248e-001	2.04084655151536e-003,-5.31070715996496e-003
1.53693693693693e+006	9.01289453923786e-001,2.58652234749316e-001	1.97421092152427e-003,-5.17304469498631e-003
1.54684684684684e+006	9.04293525338100e-001,2.51329596010872e-001	1.91412949323800e-003,-5.02659192021744e-003
1.55675675675675e+006	9.06779624846093e-001,2.43483931792012e-001	1.86440750307815e-003,-4.86967863584024e-003
1.56666666666666e+006	9.08413019108989e-001,2.35075568413638e-001	1.83173961782023e-003,-4.70151136827276e-003
1.57657657657657e+006	9.08649759632811e-001,2.26267458434684e-001	1.82700480734379e-003,-4.52534916869369e-003
1.58648648648648e+006	9.06864730919432e-001,2.17798770089357e-001	1.86270538161135e-003,-4.35597540178714e-003
1.59639639639639e+006	9.03230575144620e-001,2.11219185392673e-001	1.93538849710759e-003,-4.22438370785347e-003
1.60630630630630e+006	8.99720420559016e-001,2.07269076580916e-001	2.00559158881968e-003,-4.14538153161832e-003
1.61621621621621e+006	8.97362438239640e-001,2.04022333428004e-001	2.05275123520720e-003,-4.08044666856008e-003
1.62612612612612e+006	8.94003956975118e-001,2.00994995365313e-001	2.11992086049763e-003,-4.01989990730625e-003
1.63603603603603e+006	8.89479328528269e-001,2.01451860233100e-001	2.21041342943462e-003,-4.02903720466200e-003
1.64594594594594e+006	8.88530898006711e-001,2.06474693969786e-001	2.22938203986577e-003,-4.12949387939572e-003
1.65585585585585e+006	8.94016101364842e-001,2.10998910717708e-001	2.11967797270316e-003,-4.21997821435416e-003
1.66576576576576e+006	9.02610307526198e-001,2.10927361200259e-001	1.94779384947603e-003,-4.21854722400519e-003
1.67567567567567e+006	9.10588380466985e-001,2.06751875931954e-001	1.78823239066029e-003,-4.13503751863907e-003
1.68558558558558e+006	9.16429538680007e-001,2.00310693218701e-001	1.67140922639987e-003,-4.00621386437402e-003
1.69549549549549e+006	9.19721655082985e-001,1.93277946967950e-001	1.60556689834030e-003,-3.86555893935900e-003
1.70540540540540e+006	9.20798408770315e-001,1.87474144530415e-001	1.58403182459370e-003,-3.74948289060831e-003
1.71531531531531e+006	9.21654534079834e-001,1.84335618787493e-001	1.56690931840332e-003,-3.68671237574987e-003
1.72522522522522e+006	9.24946029356928e-001,1.82565909611282e-001	1.50107941286144e-003,-3.65131819222565e-003
1.73513513513513e+006	9.30408941604442e-001,1.79366306552916e-001	1.39182116791116e-003,-3.58732613105831e-003
1.74504504504504e+006	9.36059137115068e-001,1.74103433424323e-001	1.27881725769865e-003,-3.48206866848646e-003
1.75495495495495e+006	9.40912884806290e-001,1.67618035230863e-001	1.18174230387421e-003,-3.35236070461727e-003
1.76486486486486e+006	9.45006611420608e-001,1.60649270774849e-001	1.09986777158784e-003,-3.21298541549698e-003
1.77477477477477e+006	9.48657986894777e-001,1.53363920681719e-001	1.02684026210447e-003,-3.06727841363437e-003
1.78468468468468e+006	9.51915152646261e-001,1.45640961608316e-001	9.61696947074782e-004,-2.91281923216632e-003
1.79459459459459e+006	9.54662831391439e-001,1.37468992341068e-001	9.06743372171226e-004,-2.74937984682137e-003
1.80450450450450e+006	9.56827000467469e-001,1.28891912249146e-001	8.63459990650617e-004,-2.57783824498291e-003
1.81441441441441e+006	9.58336690620156e-001,1.19910002406739e-001	8.33266187596871e-004,-2.39820004813478e-003
1.82432432432432e+006	9.59045689825098e-001,1.10486099207122e-001	8.19086203498034e-004,-2.20972198414245e-003
1.83423423423423e+006	9.58664080077236e-001,1.00598460709067e-001	8.26718398455286e-004,-2.01196921418135e-003
1.84414414414414e+006	9.56681843335535e-001,9.03640988737364e-002	8.66363133289294e-004,-1.80728197747473e-003
1.85405405405405e+006	9.52354945952630e-001,8.03371665378617e-002	9.52901080947408e-004,-1.60674333075723e-003
1.86396396396396e+006	9.45087300542232e-001,7.20008286671559e-002	1.09825398915535e-003,-1.44001657334312e-003
