Freq.	V(1|1|1|b)	I(R129)
1.00000000000000e+005	9.82118860424917e-002,1.28069095382065e-001	1.80357622791502e-002,-2.56138190764129e-003
1.09909909909910e+005	1.01978111272363e-001,1.40218221879575e-001	1.79604377745527e-002,-2.80436443759150e-003
1.19819819819820e+005	1.06070106686858e-001,1.52218827106926e-001	1.78785978662628e-002,-3.04437654213851e-003
1.29729729729730e+005	1.10480293831780e-001,1.64059533477505e-001	1.77903941233644e-002,-3.28119066955011e-003
1.39639639639640e+005	1.15200591595195e-001,1.75729438309470e-001	1.76959881680961e-002,-3.51458876618939e-003
1.49549549549550e+005	1.20222453328484e-001,1.87218141162225e-001	1.75955509334303e-002,-3.74436282324449e-003
1.59459459459459e+005	1.25536905094028e-001,1.98515767177201e-001	1.74892618981194e-002,-3.97031534354401e-003
1.69369369369369e+005	1.31134584696662e-001,2.09612986747057e-001	1.73773083060668e-002,-4.19225973494115e-003
1.79279279279279e+005	1.37005781229462e-001,2.20501031722246e-001	1.72598843754108e-002,-4.41002063444492e-003
1.89189189189189e+005	1.43140474890905e-001,2.31171708300458e-001	1.71371905021819e-002,-4.62343416600917e-003
1.99099099099099e+005	1.49528376839809e-001,2.41617406714988e-001	1.70094324632038e-002,-4.83234813429975e-003
2.09009009009009e+005	1.56158968859414e-001,2.51831107829060e-001	1.68768206228117e-002,-5.03662215658120e-003
2.18918918918919e+005	1.63021542607847e-001,2.61806386745896e-001	1.67395691478431e-002,-5.23612773491792e-003
2.28828828828829e+005	1.70105238240590e-001,2.71537413553114e-001	1.65978952351882e-002,-5.43074827106228e-003
2.38738738738739e+005	1.77399082201766e-001,2.81018951331636e-001	1.64520183559647e-002,-5.62037902663271e-003
2.48648648648649e+005	1.84892023994849e-001,2.90246351571424e-001	1.63021595201030e-002,-5.80492703142848e-003
2.58558558558559e+005	1.92572971759182e-001,2.99215547147961e-001	1.61485405648164e-002,-5.98431094295922e-003
2.68468468468468e+005	2.00430826496062e-001,3.07923043023571e-001	1.59913834700788e-002,-6.15846086047142e-003
2.78378378378378e+005	2.08454514806575e-001,3.16365904846128e-001	1.58309097038685e-002,-6.32731809692256e-003
2.88288288288288e+005	2.16633020022375e-001,3.24541745624149e-001	1.56673395995525e-002,-6.49083491248299e-003
2.98198198198198e+005	2.24955411629925e-001,3.32448710661649e-001	1.55008917674015e-002,-6.64897421323299e-003
3.08108108108108e+005	2.33410872907846e-001,3.40085460938501e-001	1.53317825418431e-002,-6.80170921877003e-003
3.18018018018018e+005	2.41988726715863e-001,3.47451155122400e-001	1.51602254656827e-002,-6.94902310244799e-003
3.27927927927928e+005	2.50678459391967e-001,3.54545430397070e-001	1.49864308121607e-002,-7.09090860794140e-003
3.37837837837838e+005	2.59469742731761e-001,3.61368382288170e-001	1.48106051453648e-002,-7.22736764576341e-003
3.47747747747748e+005	2.68352454040307e-001,3.67920543663640e-001	1.46329509191939e-002,-7.35841087327280e-003
3.57657657657657e+005	2.77316694261969e-001,3.74202863079162e-001	1.44536661147606e-002,-7.48405726158324e-003
3.67567567567567e+005	2.86352804207783e-001,3.80216682632183e-001	1.42729439158443e-002,-7.60433365264366e-003
3.77477477477477e+005	2.95451378912532e-001,3.85963715479719e-001	1.40909724217494e-002,-7.71927430959438e-003
3.87387387387387e+005	3.04603280165111e-001,3.91446023166138e-001	1.39079343966978e-002,-7.82892046332276e-003
3.97297297297297e+005	3.13799647265750e-001,3.96665992897510e-001	1.37240070546850e-002,-7.93331985795020e-003
4.07207207207207e+005	3.23031906072386e-001,4.01626314888986e-001	1.35393618785523e-002,-8.03252629777973e-003
4.17117117117117e+005	3.32291776405788e-001,4.06329959901329e-001	1.33541644718842e-002,-8.12659919802658e-003
4.27027027027027e+005	3.41571277889167e-001,4.10780157072156e-001	1.31685744422167e-002,-8.21560314144312e-003
4.36936936936936e+005	3.50862734302849e-001,4.14980372136944e-001	1.29827453139430e-002,-8.29960744273887e-003
4.46846846846846e+005	3.60158776538322e-001,4.18934286124386e-001	1.27968244692336e-002,-8.37868572248773e-003
4.56756756756756e+005	3.69452344238589e-001,4.22645774600488e-001	1.26109531152282e-002,-8.45291549200975e-003
4.66666666666666e+005	3.78736686213398e-001,4.26118887525826e-001	1.24252662757320e-002,-8.52237775051653e-003
4.76576576576576e+005	3.88005359718661e-001,4.29357829780891e-001	1.22398928056268e-002,-8.58715659561782e-003
4.86486486486486e+005	3.97252228689239e-001,4.32366942405258e-001	1.20549554262152e-002,-8.64733884810516e-003
4.96396396396396e+005	4.06471461013458e-001,4.35150684587755e-001	1.18705707797308e-002,-8.70301369175509e-003
5.06306306306306e+005	4.15657524936207e-001,4.37713616436655e-001	1.16868495012759e-002,-8.75427232873309e-003
5.16216216216216e+005	4.24805184675418e-001,4.40060382551385e-001	1.15038963064916e-002,-8.80120765102771e-003
5.26126126126125e+005	4.33909495334166e-001,4.42195696410249e-001	1.13218100933167e-002,-8.84391392820498e-003
5.36036036036035e+005	4.42965797187707e-001,4.44124325582253e-001	1.11406840562459e-002,-8.88248651164506e-003
5.45945945945945e+005	4.51969709421454e-001,4.45851077765299e-001	1.09606058115709e-002,-8.91702155530599e-003
5.55855855855855e+005	4.60917123392352e-001,4.47380787647730e-001	1.07816575321530e-002,-8.94761575295461e-003
5.65765765765765e+005	4.69804195482401e-001,4.48718304585508e-001	1.06039160903520e-002,-8.97436609171016e-003
5.75675675675675e+005	4.78627339609119e-001,4.49868481083140e-001	1.04274532078176e-002,-8.99736962166280e-003
5.85585585585585e+005	4.87383219453831e-001,4.50836162062808e-001	1.02523356109234e-002,-9.01672324125617e-003
5.95495495495495e+005	4.96068740464604e-001,4.51626174902987e-001	1.00786251907079e-002,-9.03252349805975e-003
6.05405405405405e+005	5.04681041686642e-001,4.52243320225147e-001	9.90637916626715e-003,-9.04486640450293e-003
6.15315315315315e+005	5.13217487468989e-001,4.52692363404863e-001	9.73565025062021e-003,-9.05384726809726e-003
6.25225225225225e+005	5.21675659092439e-001,4.52978026781804e-001	9.56648681815121e-003,-9.05956053563608e-003
6.35135135135135e+005	5.30053346359766e-001,4.53104982541558e-001	9.39893307280467e-003,-9.06209965083115e-003
6.45045045045045e+005	5.38348539185659e-001,4.53077846241147e-001	9.23302921628682e-003,-9.06155692482293e-003
6.54954954954955e+005	5.46559419220196e-001,4.52901170949216e-001	9.06881161559609e-003,-9.05802341898433e-003
6.64864864864865e+005	5.54684351536256e-001,4.52579441971350e-001	8.90631296927488e-003,-9.05158883942699e-003
6.74774774774775e+005	5.62721876408029e-001,4.52117072130652e-001	8.74556247183942e-003,-9.04234144261305e-003
6.84684684684685e+005	5.70670701204668e-001,4.51518397573693e-001	8.58658597590665e-003,-9.03036795147387e-003
6.94594594594594e+005	5.78529692420243e-001,4.50787674071991e-001	8.42940615159515e-003,-9.01575348143981e-003
7.04504504504504e+005	5.86297867858394e-001,4.49929073789552e-001	8.27404264283211e-003,-8.99858147579104e-003
7.14414414414414e+005	5.93974388987528e-001,4.48946682487415e-001	8.12051222024944e-003,-8.97893364974830e-003
7.24324324324324e+005	6.01558553480012e-001,4.47844497136712e-001	7.96882893039977e-003,-8.95688994273423e-003
7.34234234234234e+005	6.09049787946623e-001,4.46626423912470e-001	7.81900424106753e-003,-8.93252847824940e-003
7.44144144144144e+005	6.16447640875453e-001,4.45296276541126e-001	7.67104718249093e-003,-8.90592553082252e-003
7.54054054054054e+005	6.23751775782589e-001,4.43857774975578e-001	7.52496448434821e-003,-8.87715549951156e-003
7.63963963963964e+005	6.30961964580196e-001,4.42314544372497e-001	7.38076070839609e-003,-8.84629088744995e-003
7.73873873873874e+005	6.38078081166033e-001,4.40670114347559e-001	7.23843837667934e-003,-8.81340228695119e-003
7.83783783783784e+005	6.45100095237047e-001,4.38927918485224e-001	7.09799809525906e-003,-8.77855836970448e-003
7.93693693693694e+005	6.52028066328360e-001,4.37091294080675e-001	6.95943867343281e-003,-8.74182588161349e-003
8.03603603603604e+005	6.58862138077865e-001,4.35163482092520e-001	6.82275723844270e-003,-8.70326964185039e-003
8.13513513513514e+005	6.65602532715582e-001,4.33147627285845e-001	6.68794934568837e-003,-8.66295254571691e-003
8.23423423423424e+005	6.72249545776013e-001,4.31046778546187e-001	6.55500908447975e-003,-8.62093557092373e-003
8.33333333333334e+005	6.78803541030944e-001,4.28863889345934e-001	6.42392917938112e-003,-8.57727778691869e-003
8.43243243243244e+005	6.85264945639408e-001,4.26601818345648e-001	6.29470108721184e-003,-8.53203636691297e-003
8.53153153153153e+005	6.91634245510923e-001,4.24263330113619e-001	6.16731508978154e-003,-8.48526660227239e-003
8.63063063063063e+005	6.97911980877566e-001,4.21851095947931e-001	6.04176038244869e-003,-8.43702191895862e-003
8.72972972972973e+005	7.04098742070006e-001,4.19367694786062e-001	5.91802515859988e-003,-8.38735389572125e-003
8.82882882882883e+005	7.10195165492209e-001,4.16815614187895e-001	5.79609669015582e-003,-8.33631228375789e-003
8.92792792792793e+005	7.16201929789206e-001,4.14197251378704e-001	5.67596140421588e-003,-8.28394502757409e-003
9.02702702702703e+005	7.22119752202064e-001,4.11514914339428e-001	5.55760495595872e-003,-8.23029828678855e-003
9.12612612612613e+005	7.27949385103956e-001,4.08770822932123e-001	5.44101229792089e-003,-8.17541645864245e-003
9.22522522522523e+005	7.33691612711056e-001,4.05967110049144e-001	5.32616774577888e-003,-8.11934220098289e-003
9.32432432432433e+005	7.39347247961873e-001,4.03105822775074e-001	5.21305504076255e-003,-8.06211645550148e-003
9.42342342342343e+005	7.44917129558492e-001,4.00188923550927e-001	5.10165740883016e-003,-8.00377847101854e-003
9.52252252252253e+005	7.50402119163174e-001,3.97218291330564e-001	4.99195761673652e-003,-7.94436582661129e-003
9.62162162162163e+005	7.55803098743656e-001,3.94195722719598e-001	4.88393802512688e-003,-7.88391445439196e-003
9.72072072072073e+005	7.61120968060505e-001,3.91122933087338e-001	4.77758063878989e-003,-7.82245866174676e-003
9.81981981981983e+005	7.66356642289855e-001,3.88001557642565e-001	4.67286715420289e-003,-7.76003115285129e-003
9.91891891891893e+005	7.71511049774822e-001,3.84833152464033e-001	4.56977900450355e-003,-7.69666304928065e-003
1.00180180180180e+006	7.76585129898928e-001,3.81619195476677e-001	4.46829740202145e-003,-7.63238390953354e-003
1.01171171171171e+006	7.81579831074824e-001,3.78361087364461e-001	4.36840337850352e-003,-7.56722174728923e-003
1.02162162162162e+006	7.86496108841628e-001,3.75060152410701e-001	4.27007782316743e-003,-7.50120304821402e-003
1.03153153153153e+006	7.91334924064138e-001,3.71717639256467e-001	4.17330151871723e-003,-7.43435278512934e-003
1.04144144144144e+006	7.96097241227171e-001,3.68334721567374e-001	4.07805517545658e-003,-7.36669443134749e-003
1.05135135135135e+006	8.00784026818213e-001,3.64912498598595e-001	3.98431946363574e-003,-7.29824997197191e-003
1.06126126126126e+006	8.05396247791474e-001,3.61451995647389e-001	3.89207504417052e-003,-7.22903991294777e-003
1.07117117117117e+006	8.09934870106310e-001,3.57954164381708e-001	3.80130259787379e-003,-7.15908328763415e-003
1.08108108108108e+006	8.14400857332824e-001,3.54419883032582e-001	3.71198285334353e-003,-7.08839766065164e-003
1.09099099099099e+006	8.18795169317196e-001,3.50849956436880e-001	3.62409661365608e-003,-7.01699912873760e-003
1.10090090090090e+006	8.23118760899040e-001,3.47245115915811e-001	3.53762478201920e-003,-6.94490231831623e-003
1.11081081081081e+006	8.27372580672649e-001,3.43606018972981e-001	3.45254838654702e-003,-6.87212037945962e-003
1.12072072072072e+006	8.31557569783553e-001,3.39933248794016e-001	3.36884860432894e-003,-6.79866497588032e-003
1.13063063063063e+006	8.35674660751180e-001,3.36227313527665e-001	3.28650678497640e-003,-6.72454627055330e-003
1.14054054054054e+006	8.39724776307659e-001,3.32488645325756e-001	3.20550447384683e-003,-6.64977290651513e-003
1.15045045045045e+006	8.43708828241874e-001,3.28717599116451e-001	3.12582343516252e-003,-6.57435198232902e-003
1.16036036036036e+006	8.47627716236697e-001,3.24914451081760e-001	3.04744567526606e-003,-6.49828902163519e-003
1.17027027027027e+006	8.51482326685913e-001,3.21079396806205e-001	2.97035346628174e-003,-6.42158793612410e-003
1.18018018018018e+006	8.55273531475564e-001,3.17212549058672e-001	2.89452937048871e-003,-6.34425098117345e-003
1.19009009009009e+006	8.59002186712277e-001,3.13313935163807e-001	2.81995626575447e-003,-6.26627870327613e-003
1.20000000000000e+006	8.62669131378413e-001,3.09383493912557e-001	2.74661737243175e-003,-6.18766987825114e-003
1.20990990990991e+006	8.66275185890597e-001,3.05421071953450e-001	2.67449628218805e-003,-6.10842143906901e-003
1.21981981981982e+006	8.69821150533993e-001,3.01426419596648e-001	2.60357698932013e-003,-6.02852839193295e-003
1.22972972972973e+006	8.73307803739602e-001,2.97399185951421e-001	2.53384392520796e-003,-5.94798371902842e-003
1.23963963963964e+006	8.76735900165440e-001,2.93338913304048e-001	2.46528199669120e-003,-5.86677826608096e-003
1.24954954954955e+006	8.80106168534424e-001,2.89245030626677e-001	2.39787662931153e-003,-5.78490061253354e-003
1.25945945945946e+006	8.83419309171698e-001,2.85116846087863e-001	2.33161381656605e-003,-5.70233692175726e-003
1.26936936936937e+006	8.86675991171387e-001,2.80953538411415e-001	2.26648017657225e-003,-5.61907076822831e-003
1.27927927927928e+006	8.89876849106526e-001,2.76754146900852e-001	2.20246301786948e-003,-5.53508293801705e-003
1.28918918918919e+006	8.93022479175188e-001,2.72517559910878e-001	2.13955041649625e-003,-5.45035119821757e-003
1.29909909909910e+006	8.96113434649176e-001,2.68242501503125e-001	2.07773130701647e-003,-5.36485003006251e-003
1.30900900900901e+006	8.99150220457125e-001,2.63927515968846e-001	2.01699559085750e-003,-5.27855031937691e-003
1.31891891891892e+006	9.02133286688822e-001,2.59570949833381e-001	1.95733426622356e-003,-5.19141899666762e-003
1.32882882882883e+006	9.05063020748484e-001,2.55170930872488e-001	1.89873958503031e-003,-5.10341861744977e-003
1.33873873873874e+006	9.07939737806383e-001,2.50725343564035e-001	1.84120524387233e-003,-5.01450687128071e-003
1.34864864864865e+006	9.10763669093690e-001,2.46231800263891e-001	1.78472661812620e-003,-4.92463600527782e-003
1.35855855855856e+006	9.13534947444476e-001,2.41687607223484e-001	1.72930105111049e-003,-4.83375214446967e-003
1.36846846846847e+006	9.16253589297047e-001,2.37089724347221e-001	1.67492821405906e-003,-4.74179448694442e-003
1.37837837837838e+006	9.18919472103158e-001,2.32434717305539e-001	1.62161055793683e-003,-4.64869434611079e-003
1.38828828828829e+006	9.21532305727098e-001,2.27718700253404e-001	1.56935388545804e-003,-4.55437400506809e-003
1.39819819819820e+006	9.24091595901124e-001,2.22937266927019e-001	1.51816808197751e-003,-4.45874533854038e-003
1.40810810810811e+006	9.26596597069332e-001,2.18085407266145e-001	1.46806805861337e-003,-4.36170814532289e-003
1.41801801801802e+006	9.29046250891779e-001,2.13157405885810e-001	1.41907498216442e-003,-4.26314811771621e-003
1.42792792792793e+006	9.31439105127616e-001,2.08146717632755e-001	1.37121789744769e-003,-4.16293435265510e-003
1.43783783783784e+006	9.33773205305489e-001,2.03045814022194e-001	1.32453589389023e-003,-4.06091628044389e-003
1.44774774774775e+006	9.36045948094764e-001,1.97845992451899e-001	1.27908103810473e-003,-3.95691984903798e-003
1.45765765765766e+006	9.38253879910240e-001,1.92537137612619e-001	1.23492240179520e-003,-3.85074275225238e-003
1.46756756756756e+006	9.40392415839455e-001,1.87107421356589e-001	1.19215168321091e-003,-3.74214842713178e-003
1.47747747747747e+006	9.42455440462677e-001,1.81542923469982e-001	1.15089119074646e-003,-3.63085846939963e-003
1.48738738738738e+006	9.44434730028168e-001,1.75827151734970e-001	1.11130539943663e-003,-3.51654303469940e-003
1.49729729729729e+006	9.46319098497786e-001,1.69940436881860e-001	1.07361803004429e-003,-3.39880873763720e-003
1.50720720720720e+006	9.48093106883935e-001,1.63859180991675e-001	1.03813786232130e-003,-3.27718361983351e-003
1.51711711711711e+006	9.49735065417676e-001,1.57554958854536e-001	1.00529869164649e-003,-3.15109917709072e-003
1.52702702702702e+006	9.51213863999650e-001,1.50993543511290e-001	9.75722720006997e-004,-3.01987087022580e-003
1.53693693693693e+006	9.52483823367962e-001,1.44134137569096e-001	9.50323532640758e-004,-2.88268275138192e-003
1.54684684684684e+006	9.53476173312686e-001,1.36929678150500e-001	9.30476533746278e-004,-2.73859356301000e-003
1.55675675675675e+006	9.54084891585494e-001,1.29330686803318e-001	9.18302168290117e-004,-2.58661373606636e-003
1.56666666666666e+006	9.54144019452388e-001,1.21299431146072e-001	9.17119610952235e-004,-2.42598862292144e-003
1.57657657657657e+006	9.53396963050719e-001,1.12851881587026e-001	9.32060738985612e-004,-2.25703763174053e-003
1.58648648648648e+006	9.51482998844714e-001,1.04165102514102e-001	9.70340023105725e-004,-2.08330205028204e-003
1.59639639639639e+006	9.48064085349976e-001,9.57801904314255e-002	1.03871829300049e-003,-1.91560380862851e-003
1.60630630630630e+006	9.43364162603323e-001,8.86533931357258e-002	1.13271674793354e-003,-1.77306786271452e-003
1.61621621621621e+006	9.38708346628081e-001,8.31257375943408e-002	1.22583306743838e-003,-1.66251475188682e-003
1.62612612612612e+006	9.34802262835835e-001,7.76302069161211e-002	1.30395474328331e-003,-1.55260413832242e-003
1.63603603603603e+006	9.29672345057289e-001,7.11438399783981e-002	1.40655309885421e-003,-1.42287679956796e-003
1.64594594594594e+006	9.21236084990948e-001,6.59265657046686e-002	1.57527830018105e-003,-1.31853131409337e-003
1.65585585585585e+006	9.10941103770805e-001,6.61604057869604e-002	1.78117792458390e-003,-1.32320811573921e-003
1.66576576576576e+006	9.05055189037934e-001,7.29831745112919e-002	1.89889621924133e-003,-1.45966349022584e-003
1.67567567567567e+006	9.08202145503827e-001,7.98514695928816e-002	1.83595708992346e-003,-1.59702939185763e-003
1.68558558558558e+006	9.16301345315870e-001,7.98700093169223e-002	1.67397309368260e-003,-1.59740018633845e-003
1.69549549549549e+006	9.22949916000699e-001,7.30786481113544e-002	1.54100167998602e-003,-1.46157296222709e-003
1.70540540540540e+006	9.25067654538683e-001,6.28575937762724e-002	1.49864690922633e-003,-1.25715187552545e-003
1.71531531531531e+006	9.22155990603874e-001,5.28515450059057e-002	1.55688018792252e-003,-1.05703090011811e-003
1.72522522522522e+006	9.16143317732748e-001,4.65982431325790e-002	1.67713364534504e-003,-9.31964862651580e-004
1.73513513513513e+006	9.12164133560941e-001,4.48677358424449e-002	1.75671732878118e-003,-8.97354716848898e-004
1.74504504504504e+006	9.13569034326848e-001,4.23344839010773e-002	1.72861931346305e-003,-8.46689678021546e-004
1.75495495495495e+006	9.16565892759620e-001,3.38831819903488e-002	1.66868214480761e-003,-6.77663639806975e-004
1.76486486486486e+006	9.15975453424382e-001,2.00502650239299e-002	1.68049093151235e-003,-4.01005300478597e-004
1.77477477477477e+006	9.09189394806767e-001,3.45368978644500e-003	1.81621210386466e-003,-6.90737957289000e-005
1.78468468468468e+006	8.94593710526776e-001,-1.32999470332206e-002	2.10812578946448e-003,2.65998940664413e-004
1.79459459459459e+006	8.70615998891786e-001,-2.65351633295551e-002	2.58768002216428e-003,5.30703266591102e-004
1.80450450450450e+006	8.37135393804440e-001,-2.99272478790044e-002	3.25729212391120e-003,5.98544957580089e-004
1.81441441441441e+006	7.99631968866258e-001,-1.49723461025975e-002	4.00736062267484e-003,2.99446922051950e-004
1.82432432432432e+006	7.72788667101769e-001,2.17424556133824e-002	4.54422665796462e-003,-4.34849112267648e-004
1.83423423423423e+006	7.71682733432830e-001,6.79927369785261e-002	4.56634533134339e-003,-1.35985473957052e-003
1.84414414414414e+006	7.94530592548679e-001,1.03419868245951e-001	4.10938814902641e-003,-2.06839736491903e-003
1.85405405405405e+006	8.26352069098660e-001,1.19203280548530e-001	3.47295861802681e-003,-2.38406561097060e-003
1.86396396396396e+006	8.55343560622153e-001,1.19100598840497e-001	2.89312878755694e-003,-2.38201197680994e-003
