Freq.	V(1|1|1|a)	I(R129)
1.00000000000000e+005	5.69498840404325e-002,7.14534575456447e-002	1.88610023191914e-002,-1.42906915091289e-003
1.09909909909910e+005	5.81017937612183e-002,7.84601147902392e-002	1.88379641247756e-002,-1.56920229580478e-003
1.19819819819820e+005	5.93607805844459e-002,8.54458266810257e-002	1.88127843883111e-002,-1.70891653362051e-003
1.29729729729730e+005	6.07263920036553e-002,9.24087520196146e-002	1.87854721599269e-002,-1.84817504039229e-003
1.39639639639640e+005	6.21981380938663e-002,9.93470616975180e-002	1.87560372381227e-002,-1.98694123395036e-003
1.49549549549550e+005	6.37754919065855e-002,1.06258939631876e-001	1.87244901618683e-002,-2.12517879263752e-003
1.59459459459459e+005	6.54578898933443e-002,1.13142583686263e-001	1.86908422021331e-002,-2.26285167372526e-003
1.69369369369369e+005	6.72447323571396e-002,1.19996206575582e-001	1.86551053528572e-002,-2.39992413151163e-003
1.79279279279279e+005	6.91353839311079e-002,1.26818036754065e-001	1.86172923213778e-002,-2.53636073508130e-003
1.89189189189189e+005	7.11291740837303e-002,1.33606319285463e-001	1.85774165183254e-002,-2.67212638570926e-003
1.99099099099099e+005	7.32253976498275e-002,1.40359316694499e-001	1.85354920470035e-002,-2.80718633388997e-003
2.09009009009009e+005	7.54233153865713e-002,1.47075309798727e-001	1.84915336922686e-002,-2.94150619597454e-003
2.18918918918919e+005	7.77221545537085e-002,1.53752598519966e-001	1.84455569089258e-002,-3.07505197039931e-003
2.28828828828829e+005	8.01211095171629e-002,1.60389502674494e-001	1.83975778096567e-002,-3.20779005348987e-003
2.38738738738739e+005	8.26193423751511e-002,1.66984362741267e-001	1.83476131524970e-002,-3.33968725482534e-003
2.48648648648649e+005	8.52159836059249e-002,1.73535540607425e-001	1.82956803278815e-002,-3.47071081214851e-003
2.58558558558559e+005	8.79101327362281e-002,1.80041420290409e-001	1.82417973452754e-002,-3.60082840580817e-003
2.68468468468468e+005	9.07008590295310e-002,1.86500408636054e-001	1.81859828194094e-002,-3.73000817272108e-003
2.78378378378378e+005	9.35872021930915e-002,1.92910935992064e-001	1.81282559561382e-002,-3.85821871984129e-003
2.88288288288288e+005	9.65681731028669e-002,1.99271456856303e-001	1.80686365379427e-002,-3.98542913712605e-003
2.98198198198198e+005	9.96427545452927e-002,2.05580450499392e-001	1.80071449090941e-002,-4.11160900998784e-003
3.08108108108108e+005	1.02809901974922e-001,2.11836421561160e-001	1.79438019605016e-002,-4.23672843122321e-003
3.18018018018018e+005	1.06068544286920e-001,2.18037900620495e-001	1.78786291142616e-002,-4.36075801240991e-003
3.27927927927928e+005	1.09417584603380e-001,2.24183444738236e-001	1.78116483079324e-002,-4.48366889476472e-003
3.37837837837838e+005	1.12855901072442e-001,2.30271637972753e-001	1.77428819785512e-002,-4.60543275945506e-003
3.47747747747748e+005	1.16382347679179e-001,2.36301091867932e-001	1.76723530464164e-002,-4.72602183735864e-003
3.57657657657657e+005	1.19995755067202e-001,2.42270445913297e-001	1.76000848986560e-002,-4.84540891826594e-003
3.67567567567567e+005	1.23694931369955e-001,2.48178367976073e-001	1.75261013726009e-002,-4.96356735952147e-003
3.77477477477477e+005	1.27478663050661e-001,2.54023554705023e-001	1.74504267389868e-002,-5.08047109410046e-003
3.87387387387387e+005	1.31345715749884e-001,2.59804731905921e-001	1.73730856850023e-002,-5.19609463811843e-003
3.97297297297297e+005	1.35294835139666e-001,2.65520654888598e-001	1.72941032972067e-002,-5.31041309777195e-003
4.07207207207207e+005	1.39324747783237e-001,2.71170108785498e-001	1.72135050443353e-002,-5.42340217570996e-003
4.17117117117117e+005	1.43434161999262e-001,2.76751908841765e-001	1.71313167600148e-002,-5.53503817683530e-003
4.27027027027027e+005	1.47621768729632e-001,2.82264900676875e-001	1.70475646254074e-002,-5.64529801353751e-003
4.36936936936936e+005	1.51886242409806e-001,2.87707960517907e-001	1.69622751518039e-002,-5.75415921035815e-003
4.46846846846846e+005	1.56226241840719e-001,2.93079995404553e-001	1.68754751631856e-002,-5.86159990809106e-003
4.56756756756756e+005	1.60640411061302e-001,2.98379943366023e-001	1.67871917787740e-002,-5.96759886732046e-003
4.66666666666666e+005	1.65127380220661e-001,3.03606773570032e-001	1.66974523955868e-002,-6.07213547140065e-003
4.76576576576576e+005	1.69685766448985e-001,3.08759486444076e-001	1.66062846710203e-002,-6.17518972888152e-003
4.86486486486486e+005	1.74314174726288e-001,3.13837113769254e-001	1.65137165054742e-002,-6.27674227538507e-003
4.96396396396396e+005	1.79011198748077e-001,3.18838718746919e-001	1.64197760250385e-002,-6.37677437493839e-003
5.06306306306306e+005	1.83775421787102e-001,3.23763396038471e-001	1.63244915642579e-002,-6.47526792076942e-003
5.16216216216216e+005	1.88605417550340e-001,3.28610271778615e-001	1.62278916489932e-002,-6.57220543557229e-003
5.26126126126125e+005	1.93499751030381e-001,3.33378503562472e-001	1.61300049793924e-002,-6.66757007124943e-003
5.36036036036035e+005	1.98456979350458e-001,3.38067280406924e-001	1.60308604129908e-002,-6.76134560813847e-003
5.45945945945945e+005	2.03475652602319e-001,3.42675822686600e-001	1.59304869479536e-002,-6.85351645373201e-003
5.55855855855855e+005	2.08554314676244e-001,3.47203382044960e-001	1.58289137064751e-002,-6.94406764089921e-003
5.65765765765765e+005	2.13691504082459e-001,3.51649241280907e-001	1.57261699183508e-002,-7.03298482561813e-003
5.75675675675675e+005	2.18885754763301e-001,3.56012714211425e-001	1.56222849047340e-002,-7.12025428422849e-003
5.85585585585585e+005	2.24135596895467e-001,3.60293145510728e-001	1.55172880620907e-002,-7.20586291021455e-003
5.95495495495495e+005	2.29439557681736e-001,3.64489910526421e-001	1.54112088463653e-002,-7.28979821052842e-003
6.05405405405405e+005	2.34796162131563e-001,3.68602415073202e-001	1.53040767573687e-002,-7.37204830146403e-003
6.15315315315315e+005	2.40203933830016e-001,3.72630095204627e-001	1.51959213233997e-002,-7.45260190409253e-003
6.25225225225225e+005	2.45661395694496e-001,3.76572416963495e-001	1.50867720861101e-002,-7.53144833926989e-003
6.35135135135135e+005	2.51167070718779e-001,3.80428876111384e-001	1.49766585856244e-002,-7.60857752222768e-003
6.45045045045045e+005	2.56719482703896e-001,3.84198997837907e-001	1.48656103459221e-002,-7.68397995675814e-003
6.54954954954955e+005	2.62317156975443e-001,3.87882336450237e-001	1.47536568604911e-002,-7.75764672900475e-003
6.64864864864865e+005	2.67958621086911e-001,3.91478475043473e-001	1.46408275782618e-002,-7.82956950086946e-003
6.74774774774775e+005	2.73642405508681e-001,3.94987025152393e-001	1.45271518898264e-002,-7.89974050304786e-003
6.84684684684685e+005	2.79367044302359e-001,3.98407626385172e-001	1.44126591139528e-002,-7.96815252770343e-003
6.94594594594594e+005	2.85131075780147e-001,4.01739946039601e-001	1.42973784843971e-002,-8.03479892079201e-003
7.04504504504504e+005	2.90933043148995e-001,4.04983678702373e-001	1.41813391370201e-002,-8.09967357404746e-003
7.14414414414414e+005	2.96771495139305e-001,4.08138545831968e-001	1.40645700972139e-002,-8.16277091663937e-003
7.24324324324324e+005	3.02644986617981e-001,4.11204295325669e-001	1.39471002676404e-002,-8.22408590651338e-003
7.34234234234234e+005	3.08552079185681e-001,4.14180701071230e-001	1.38289584162864e-002,-8.28361402142461e-003
7.44144144144144e+005	3.14491341758121e-001,4.17067562483705e-001	1.37101731648376e-002,-8.34135124967411e-003
7.54054054054054e+005	3.20461351131357e-001,4.19864704027916e-001	1.35907729773729e-002,-8.39729408055831e-003
7.63963963963964e+005	3.26460692530955e-001,4.22571974727033e-001	1.34707861493809e-002,-8.45143949454065e-003
7.73873873873874e+005	3.32487960145049e-001,4.25189247657717e-001	1.33502407970990e-002,-8.50378495315434e-003
7.83783783783784e+005	3.38541757641273e-001,4.27716419432244e-001	1.32291648471745e-002,-8.55432838864488e-003
7.93693693693694e+005	3.44620698667603e-001,4.30153409667996e-001	1.31075860266479e-002,-8.60306819335992e-003
8.03603603603604e+005	3.50723407337189e-001,4.32500160444705e-001	1.29855318532562e-002,-8.65000320889410e-003
8.13513513513514e+005	3.56848518697283e-001,4.34756635749760e-001	1.28630296260543e-002,-8.69513271499520e-003
8.23423423423424e+005	3.62994679182387e-001,4.36922820911881e-001	1.27401064163523e-002,-8.73845641823763e-003
8.33333333333334e+005	3.69160547051811e-001,4.38998722023419e-001	1.26167890589638e-002,-8.77997444046838e-003
8.43243243243244e+005	3.75344792811848e-001,4.40984365351477e-001	1.24931041437630e-002,-8.81968730702954e-003
8.53153153153153e+005	3.81546099622796e-001,4.42879796738030e-001	1.23690780075441e-002,-8.85759593476060e-003
8.63063063063063e+005	3.87763163691131e-001,4.44685080989142e-001	1.22447367261774e-002,-8.89370161978285e-003
8.72972972972973e+005	3.93994694647129e-001,4.46400301253327e-001	1.21201061070574e-002,-8.92800602506654e-003
8.82882882882883e+005	4.00239415908312e-001,4.48025558389047e-001	1.19952116818338e-002,-8.96051116778093e-003
8.92792792792793e+005	4.06496065029111e-001,4.49560970321257e-001	1.18700786994178e-002,-8.99121940642515e-003
9.02702702702703e+005	4.12763394037182e-001,4.51006671386836e-001	1.17447321192564e-002,-9.02013342773671e-003
9.12612612612613e+005	4.19040169756870e-001,4.52362811668641e-001	1.16191966048626e-002,-9.04725623337281e-003
9.22522522522523e+005	4.25325174120348e-001,4.53629556317867e-001	1.14934965175930e-002,-9.07259112635733e-003
9.32432432432433e+005	4.31617204467016e-001,4.54807084864235e-001	1.13676559106597e-002,-9.09614169728471e-003
9.42342342342343e+005	4.37915073831796e-001,4.55895590513462e-001	1.12416985233641e-002,-9.11791181026924e-003
9.52252252252253e+005	4.44217611223014e-001,4.56895279431304e-001	1.11156477755397e-002,-9.13790558862608e-003
9.62162162162163e+005	4.50523661890625e-001,4.57806370013344e-001	1.09895267621875e-002,-9.15612740026688e-003
9.72072072072073e+005	4.56832087585602e-001,4.58629092139518e-001	1.08633582482880e-002,-9.17258184279035e-003
9.81981981981983e+005	4.63141766811384e-001,4.59363686412191e-001	1.07371646637723e-002,-9.18727372824382e-003
9.91891891891893e+005	4.69451595068352e-001,4.60010403376411e-001	1.06109680986330e-002,-9.20020806752822e-003
1.00180180180180e+006	4.75760485092408e-001,4.60569502720709e-001	1.04847902981518e-002,-9.21139005441417e-003
1.01171171171171e+006	4.82067367088801e-001,4.61041252456581e-001	1.03586526582240e-002,-9.22082504913162e-003
1.02162162162162e+006	4.88371188962473e-001,4.61425928074483e-001	1.02325762207505e-002,-9.22851856148966e-003
1.03153153153153e+006	4.94670916546317e-001,4.61723811673819e-001	1.01065816690737e-002,-9.23447623347639e-003
1.04144144144144e+006	5.00965533828857e-001,4.61935191064062e-001	9.98068932342286e-003,-9.23870382128125e-003
1.05135135135135e+006	5.07254043183036e-001,4.62060358833655e-001	9.85491913633929e-003,-9.24120717667311e-003
1.06126126126126e+006	5.13535465597933e-001,4.62099611382890e-001	9.72929068804135e-003,-9.24199222765780e-003
1.07117117117117e+006	5.19808840915457e-001,4.62053247916346e-001	9.60382318169086e-003,-9.24106495832692e-003
1.08108108108108e+006	5.26073228074251e-001,4.61921569389827e-001	9.47853543851498e-003,-9.23843138779655e-003
1.09099099099099e+006	5.32327705363296e-001,4.61704877405949e-001	9.35344589273409e-003,-9.23409754811897e-003
1.10090090090090e+006	5.38571370687976e-001,4.61403473051628e-001	9.22857258624047e-003,-9.22806946103257e-003
1.11081081081081e+006	5.44803341851690e-001,4.61017655669701e-001	9.10393316296620e-003,-9.22035311339402e-003
1.12072072072072e+006	5.51022756856418e-001,4.60547721555629e-001	8.97954486287165e-003,-9.21095443111258e-003
1.13063063063063e+006	5.57228774226098e-001,4.59993962568858e-001	8.85542451547804e-003,-9.19987925137716e-003
1.14054054054054e+006	5.63420573357098e-001,4.59356664646667e-001	8.73158853285803e-003,-9.18713329293334e-003
1.15045045045045e+006	5.69597354900605e-001,4.58636106206350e-001	8.60805290198790e-003,-9.17272212412699e-003
1.16036036036036e+006	5.75758341182350e-001,4.57832556419199e-001	8.48483317635300e-003,-9.15665112838399e-003
1.17027027027027e+006	5.81902776665784e-001,4.56946273336926e-001	8.36194446668432e-003,-9.13892546673853e-003
1.18018018018018e+006	5.88029928465570e-001,4.55977501847761e-001	8.23940143068861e-003,-9.11955003695521e-003
1.19009009009009e+006	5.94139086919192e-001,4.54926471435421e-001	8.11721826161615e-003,-9.09852942870843e-003
1.20000000000000e+006	6.00229566225450e-001,4.53793393709253e-001	7.99540867549101e-003,-9.07586787418506e-003
1.20990990990991e+006	6.06300705159782e-001,4.52578459667896e-001	7.87398589680436e-003,-9.05156919335792e-003
1.21981981981982e+006	6.12351867877667e-001,4.51281836651674e-001	7.75296264244665e-003,-9.02563673303348e-003
1.22972972972973e+006	6.18382444818799e-001,4.49903664930093e-001	7.63235110362402e-003,-8.99807329860186e-003
1.23963963963964e+006	6.24391853726381e-001,4.48444053860074e-001	7.51216292547238e-003,-8.96888107720148e-003
1.24954954954955e+006	6.30379540797708e-001,4.46903077537286e-001	7.39240918404585e-003,-8.93806155074572e-003
1.25945945945946e+006	6.36344981984161e-001,4.45280769846484e-001	7.27310036031677e-003,-8.90561539692967e-003
1.26936936936937e+006	6.42287684460881e-001,4.43577118796313e-001	7.15424631078237e-003,-8.87154237592625e-003
1.27927927927928e+006	6.48207188288538e-001,4.41792059998400e-001	7.03585623422925e-003,-8.83584119996800e-003
1.28918918918919e+006	6.54103068291772e-001,4.39925469118290e-001	6.91793863416457e-003,-8.79850938236581e-003
1.29909909909910e+006	6.59974936180747e-001,4.37977153084908e-001	6.80050127638507e-003,-8.75954306169816e-003
1.30900900900901e+006	6.65822442943508e-001,4.35946839793104e-001	6.68355114112984e-003,-8.71893679586208e-003
1.31891891891892e+006	6.71645281536974e-001,4.33834165966959e-001	6.56709436926052e-003,-8.67668331933918e-003
1.32882882882883e+006	6.77443189902426e-001,4.31638662765082e-001	6.45113620195147e-003,-8.63277325530163e-003
1.33873873873874e+006	6.83215954325884e-001,4.29359738596598e-001	6.33568091348233e-003,-8.58719477193197e-003
1.34864864864865e+006	6.88963413152526e-001,4.26996658468935e-001	6.22073173694948e-003,-8.53993316937870e-003
1.35855855855856e+006	6.94685460843587e-001,4.24548518993243e-001	6.10629078312825e-003,-8.49097037986486e-003
1.36846846846847e+006	7.00382052328134e-001,4.22014217913008e-001	5.99235895343732e-003,-8.44028435826016e-003
1.37837837837838e+006	7.06053207541406e-001,4.19392416671003e-001	5.87893584917188e-003,-8.38784833342007e-003
1.38828828828829e+006	7.11699015940713e-001,4.16681494053969e-001	5.76601968118573e-003,-8.33362988107937e-003
1.39819819819820e+006	7.17319640624322e-001,4.13879488301757e-001	5.65360718751357e-003,-8.27758976603515e-003
1.40810810810811e+006	7.22915321407232e-001,4.10984024163491e-001	5.54169357185536e-003,-8.21968048326982e-003
1.41801801801802e+006	7.28486375761399e-001,4.07992220117040e-001	5.43027248477201e-003,-8.15984440234080e-003
1.42792792792793e+006	7.34033195790149e-001,4.04900569175701e-001	5.31933608419703e-003,-8.09801138351403e-003
1.43783783783784e+006	7.39556238176348e-001,4.01704784140269e-001	5.20887523647303e-003,-8.03409568280537e-003
1.44774774774775e+006	7.45056001969279e-001,3.98399594441898e-001	5.09887996061443e-003,-7.96799188883796e-003
1.45765765765766e+006	7.50532985527438e-001,3.94978476292003e-001	4.98934028945125e-003,-7.89956952584006e-003
1.46756756756756e+006	7.55987607767941e-001,3.91433289843921e-001	4.88024784464118e-003,-7.82866579687842e-003
1.47747747747747e+006	7.61420067952213e-001,3.87753785173357e-001	4.77159864095574e-003,-7.75507570346713e-003
1.48738738738738e+006	7.66830098487014e-001,3.83926921198270e-001	4.66339803025972e-003,-7.67853842396540e-003
1.49729729729729e+006	7.72216528667119e-001,3.79935915625805e-001	4.55566942665762e-003,-7.59871831251610e-003
1.50720720720720e+006	7.77576507941710e-001,3.75758906951301e-001	4.44846984116581e-003,-7.51517813902601e-003
1.51711711711711e+006	7.82904102325582e-001,3.71367061446157e-001	4.34191795348836e-003,-7.42734122892314e-003
1.52702702702702e+006	7.88187708401243e-001,3.66721912434891e-001	4.23624583197513e-003,-7.33443824869781e-003
1.53693693693693e+006	7.93405182106554e-001,3.61771740695885e-001	4.13189635786892e-003,-7.23543481391770e-003
1.54684684684684e+006	7.98514462404105e-001,3.56447137509198e-001	4.02971075191791e-003,-7.12894275018397e-003
1.55675675675675e+006	8.03435273132622e-001,3.50657383467788e-001	3.93129453734755e-003,-7.01314766935577e-003
1.56666666666666e+006	8.08013849641768e-001,3.44294707467468e-001	3.83972300716463e-003,-6.88589414934937e-003
1.57657657657657e+006	8.11960910956251e-001,3.37270929648837e-001	3.76078178087498e-003,-6.74541859297674e-003
1.58648648648648e+006	8.14779556224082e-001,3.29654845121669e-001	3.70440887551837e-003,-6.59309690243338e-003
1.59639639639639e+006	8.15857345878978e-001,3.22007261133321e-001	3.68285308242045e-003,-6.44014522266642e-003
1.60630630630630e+006	8.15197978407800e-001,3.15603443234304e-001	3.69604043184401e-003,-6.31206886468608e-003
1.61621621621621e+006	8.14252356780692e-001,3.11168496414811e-001	3.71495286438617e-003,-6.22336992829621e-003
1.62612612612612e+006	8.13914486283258e-001,3.07385795258231e-001	3.72171027433484e-003,-6.14771590516461e-003
1.63603603603603e+006	8.12645011159166e-001,3.03741025776806e-001	3.74709977681669e-003,-6.07482051553612e-003
1.64594594594594e+006	8.09953425797289e-001,3.02679247121898e-001	3.80093148405422e-003,-6.05358494243796e-003
1.65585585585585e+006	8.09244435930894e-001,3.05663978878846e-001	3.81511128138213e-003,-6.11327957757692e-003
1.66576576576576e+006	8.13404238130808e-001,3.09413954272986e-001	3.73191523738384e-003,-6.18827908545972e-003
1.67567567567567e+006	8.20744430013611e-001,3.10366109700142e-001	3.58511139972778e-003,-6.20732219400285e-003
1.68558558558558e+006	8.28426406836850e-001,3.08118239582675e-001	3.43147186326299e-003,-6.16236479165350e-003
1.69549549549549e+006	8.34829134785420e-001,3.03762539821519e-001	3.30341730429159e-003,-6.07525079643039e-003
1.70540540540540e+006	8.39258185162419e-001,2.98753885556623e-001	3.21483629675162e-003,-5.97507771113245e-003
1.71531531531531e+006	8.42083836127340e-001,2.94868091459088e-001	3.15832327745320e-003,-5.89736182918176e-003
1.72522522522522e+006	8.45324468936114e-001,2.92946121570320e-001	3.09351062127772e-003,-5.85892243140640e-003
1.73513513513513e+006	8.50572150570262e-001,2.91386744159204e-001	2.98855698859476e-003,-5.82773488318409e-003
1.74504504504504e+006	8.57061111075631e-001,2.88509992482017e-001	2.85877777848738e-003,-5.77019984964035e-003
1.75495495495495e+006	8.63570877361278e-001,2.84239977011397e-001	2.72858245277445e-003,-5.68479954022794e-003
1.76486486486486e+006	8.69613436465721e-001,2.79105459234849e-001	2.60773127068558e-003,-5.58210918469698e-003
1.77477477477477e+006	8.75197989699147e-001,2.73505920926467e-001	2.49604020601707e-003,-5.47011841852933e-003
1.78468468468468e+006	8.80452440814663e-001,2.67569965540765e-001	2.39095118370675e-003,-5.35139931081530e-003
1.79459459459459e+006	8.85414945739155e-001,2.61305725590454e-001	2.29170108521690e-003,-5.22611451180907e-003
1.80450450450450e+006	8.90079402333102e-001,2.54734405359301e-001	2.19841195333796e-003,-5.09468810718601e-003
1.81441441441441e+006	8.94449629891502e-001,2.47873737318878e-001	2.11100740216995e-003,-4.95747474637757e-003
1.82432432432432e+006	8.98526858614887e-001,2.40715491866049e-001	2.02946282770226e-003,-4.81430983732099e-003
1.83423423423423e+006	9.02291112311039e-001,2.33227024275487e-001	1.95417775377923e-003,-4.66454048550974e-003
1.84414414414414e+006	9.05686156949930e-001,2.25357537988421e-001	1.88627686100140e-003,-4.50715075976842e-003
1.85405405405405e+006	9.08598693483799e-001,2.17047031475764e-001	1.82802613032402e-003,-4.34094062951528e-003
1.86396396396396e+006	9.10823555322336e-001,2.08249493943789e-001	1.78352889355328e-003,-4.16498987887579e-003
