Freq.	V(1|1|1|a)	I(R129)
1.00000000000000e+005	1.54067738764672e-002,5.88354535392961e-002	1.96918645224707e-002,-1.17670907078592e-003
1.09909909909910e+005	1.61443357247060e-002,6.46361894848198e-002	1.96771132855059e-002,-1.29272378969640e-003
1.19819819819820e+005	1.69512579649780e-002,7.04284854154753e-002	1.96609748407004e-002,-1.40856970830950e-003
1.29729729729730e+005	1.78274646375956e-002,7.62115814631282e-002	1.96434507072481e-002,-1.52423162926256e-003
1.39639639639640e+005	1.87728732092179e-002,8.19847180533344e-002	1.96245425358156e-002,-1.63969436106669e-003
1.49549549549550e+005	1.97873945682371e-002,8.77471359315288e-002	1.96042521086353e-002,-1.75494271863058e-003
1.59459459459459e+005	2.08709330199668e-002,9.34980761896590e-002	1.95825813396007e-002,-1.86996152379318e-003
1.69369369369369e+005	2.20233862816698e-002,9.92367802932910e-002	1.95595322743666e-002,-1.98473560586582e-003
1.79279279279279e+005	2.32446454774707e-002,1.04962490109220e-001	1.95351070904506e-002,-2.09924980218439e-003
1.89189189189189e+005	2.45345951331979e-002,1.10674447933610e-001	1.95093080973360e-002,-2.21348895867220e-003
1.99099099099099e+005	2.58931131712068e-002,1.16371896520697e-001	1.94821377365759e-002,-2.32743793041395e-003
2.09009009009009e+005	2.73200709052367e-002,1.22054079112077e-001	1.94535985818953e-002,-2.44108158224155e-003
2.18918918918919e+005	2.88153330353609e-002,1.27720239466603e-001	1.94236933392928e-002,-2.55440478933207e-003
2.28828828828829e+005	3.03787576430914e-002,1.33369621890924e-001	1.93924248471382e-002,-2.66739243781849e-003
2.38738738738739e+005	3.20101961867044e-002,1.39001471270680e-001	1.93597960762659e-002,-2.78002942541361e-003
2.48648648648649e+005	3.37094934968588e-002,1.44615033102382e-001	1.93258101300628e-002,-2.89230066204763e-003
2.58558558558559e+005	3.54764877725818e-002,1.50209553525990e-001	1.92904702445484e-002,-3.00419107051980e-003
2.68468468468468e+005	3.73110105777052e-002,1.55784279358224e-001	1.92537797884459e-002,-3.11568558716447e-003
2.78378378378378e+005	3.92128868378363e-002,1.61338458126600e-001	1.92157422632433e-002,-3.22676916253199e-003
2.88288288288288e+005	4.11819348379564e-002,1.66871338104235e-001	1.91763613032409e-002,-3.33742676208470e-003
2.98198198198198e+005	4.32179662207467e-002,1.72382168345419e-001	1.91356406755851e-002,-3.44764336690837e-003
3.08108108108108e+005	4.53207859857433e-002,1.77870198721966e-001	1.90935842802851e-002,-3.55740397443932e-003
3.18018018018018e+005	4.74901924894362e-002,1.83334679960368e-001	1.90501961502113e-002,-3.66669359920736e-003
3.27927927927928e+005	4.97259774464288e-002,1.88774863679747e-001	1.90054804510714e-002,-3.77549727359494e-003
3.37837837837838e+005	5.20279259317876e-002,1.94190002430619e-001	1.89594414813642e-002,-3.88380004861238e-003
3.47747747747748e+005	5.43958163847159e-002,1.99579349734473e-001	1.89120836723057e-002,-3.99158699468947e-003
3.57657657657657e+005	5.68294206136983e-002,2.04942160124171e-001	1.88634115877260e-002,-4.09884320248343e-003
3.67567567567567e+005	5.93285038032706e-002,2.10277689185160e-001	1.88134299239346e-002,-4.20555378370320e-003
3.77477477477477e+005	6.18928245225817e-002,2.15585193597502e-001	1.87621435095484e-002,-4.31170387195004e-003
3.87387387387387e+005	6.45221347359261e-002,2.20863931178718e-001	1.87095573052815e-002,-4.41727862357436e-003
3.97297297297297e+005	6.72161798154385e-002,2.26113160927425e-001	1.86556764036912e-002,-4.52226321854850e-003
4.07207207207207e+005	6.99746985561554e-002,2.31332143067771e-001	1.86005060288769e-002,-4.62664286135542e-003
4.17117117117117e+005	7.27974231936660e-002,2.36520139094642e-001	1.85440515361267e-002,-4.73040278189285e-003
4.27027027027027e+005	7.56840794245900e-002,2.41676411819629e-001	1.84863184115082e-002,-4.83352823639259e-003
4.36936936936936e+005	7.86343864301398e-002,2.46800225417731e-001	1.84273122713972e-002,-4.93600450835462e-003
4.46846846846846e+005	8.16480569030446e-002,2.51890845474767e-001	1.83670388619391e-002,-5.03781690949535e-003
4.56756756756756e+005	8.47247970781378e-002,2.56947539035478e-001	1.83055040584372e-002,-5.13895078070956e-003
4.66666666666666e+005	8.78643067669320e-002,2.61969574652266e-001	1.82427138646614e-002,-5.23939149304531e-003
4.76576576576576e+005	9.10662793965377e-002,2.66956222434549e-001	1.81786744120692e-002,-5.33912444869099e-003
4.86486486486486e+005	9.43304020533077e-002,2.71906754098686e-001	1.81133919589338e-002,-5.43813508197371e-003
4.96396396396396e+005	9.76563555316295e-002,2.76820443018406e-001	1.80468728893674e-002,-5.53640886036812e-003
5.06306306306306e+005	1.01043814388320e-001,2.81696564275714e-001	1.79791237122336e-002,-5.63393128551429e-003
5.16216216216216e+005	1.04492447003126e-001,2.86534394712188e-001	1.79101510599375e-002,-5.73068789424377e-003
5.26126126126125e+005	1.08001915645876e-001,2.91333212980612e-001	1.78399616870825e-002,-5.82666425961223e-003
5.36036036036035e+005	1.11571876550889e-001,2.96092299596866e-001	1.77685624689822e-002,-5.92184599193731e-003
5.45945945945945e+005	1.15201979999297e-001,3.00810936991992e-001	1.76959604000141e-002,-6.01621873983985e-003
5.55855855855855e+005	1.18891870410010e-001,3.05488409564342e-001	1.76221625917998e-002,-6.10976819128684e-003
5.65765765765765e+005	1.22641186440146e-001,3.10124003731697e-001	1.75471762711971e-002,-6.20248007463393e-003
5.75675675675675e+005	1.26449561095784e-001,3.14717007983265e-001	1.74710087780843e-002,-6.29434015966529e-003
5.85585585585585e+005	1.30316621854067e-001,3.19266712931413e-001	1.73936675629187e-002,-6.38533425862827e-003
5.95495495495495e+005	1.34241990797722e-001,3.23772411363008e-001	1.73151601840456e-002,-6.47544822726016e-003
6.05405405405405e+005	1.38225284763236e-001,3.28233398290201e-001	1.72354943047353e-002,-6.56466796580403e-003
6.15315315315315e+005	1.42266115504058e-001,3.32648971000508e-001	1.71546776899188e-002,-6.65297942001017e-003
6.25225225225225e+005	1.46364089870329e-001,3.37018429105976e-001	1.70727182025934e-002,-6.74036858211952e-003
6.35135135135135e+005	1.50518810006884e-001,3.41341074591241e-001	1.69896237998623e-002,-6.82682149182482e-003
6.45045045045045e+005	1.54729873571423e-001,3.45616211860249e-001	1.69054025285716e-002,-6.91232423720499e-003
6.54954954954955e+005	1.58996873975025e-001,3.49843147781372e-001	1.68200625204995e-002,-6.99686295562745e-003
6.64864864864865e+005	1.63319400647456e-001,3.54021191730640e-001	1.67336119870509e-002,-7.08042383461280e-003
6.74774774774775e+005	1.67697039330015e-001,3.58149655632765e-001	1.66460592133997e-002,-7.16299311265530e-003
6.84684684684685e+005	1.72129372399078e-001,3.62227853999597e-001	1.65574125520184e-002,-7.24455707999195e-003
6.94594594594594e+005	1.76615979223880e-001,3.66255103965605e-001	1.64676804155224e-002,-7.32510207931210e-003
7.04504504504504e+005	1.81156436562619e-001,3.70230725319919e-001	1.63768712687476e-002,-7.40461450639838e-003
7.14414414414414e+005	1.85750319001503e-001,3.74154040534417e-001	1.62849936199699e-002,-7.48308081068834e-003
7.24324324324324e+005	1.90397199442071e-001,3.78024374787264e-001	1.61920560111586e-002,-7.56048749574528e-003
7.34234234234234e+005	1.95096649642899e-001,3.81841055981221e-001	1.60980670071420e-002,-7.63682111962442e-003
7.44144144144144e+005	1.99848240822710e-001,3.85603414755949e-001	1.60030351835458e-002,-7.71206829511898e-003
7.54054054054054e+005	2.04651544333048e-001,3.89310784493413e-001	1.59069691133391e-002,-7.78621568986826e-003
7.63963963963964e+005	2.09506132409904e-001,3.92962501315351e-001	1.58098773518019e-002,-7.85925002630703e-003
7.73873873873874e+005	2.14411579015277e-001,3.96557904071605e-001	1.57117684196945e-002,-7.93115808143210e-003
7.83783783783784e+005	2.19367460781402e-001,4.00096334317904e-001	1.56126507843720e-002,-8.00192668635808e-003
7.93693693693694e+005	2.24373358072600e-001,4.03577136281465e-001	1.55125328385480e-002,-8.07154272562929e-003
8.03603603603604e+005	2.29428856182269e-001,4.06999656812453e-001	1.54114228763546e-002,-8.13999313624905e-003
8.13513513513514e+005	2.34533546685635e-001,4.10363245319016e-001	1.53093290662873e-002,-8.20726490638032e-003
8.23423423423424e+005	2.39687028972679e-001,4.13667253683147e-001	1.52062594205464e-002,-8.27334507366295e-003
8.33333333333334e+005	2.44888911990151e-001,4.16911036154098e-001	1.51022217601970e-002,-8.33822072308196e-003
8.43243243243244e+005	2.50138816227155e-001,4.20093949215396e-001	1.49972236754569e-002,-8.40187898430792e-003
8.53153153153153e+005	2.55436375985503e-001,4.23215351420690e-001	1.48912724802899e-002,-8.46430702841381e-003
8.63063063063063e+005	2.60781241984350e-001,4.26274603192610e-001	1.47843751603130e-002,-8.52549206385220e-003
8.72972972972973e+005	2.66173084358808e-001,4.29271066577506e-001	1.46765383128238e-002,-8.58542133155012e-003
8.82882882882883e+005	2.71611596124927e-001,4.32204104947301e-001	1.45677680775015e-002,-8.64408209894602e-003
8.92792792792793e+005	2.77096497199159e-001,4.35073082637558e-001	1.44580700560168e-002,-8.70146165275116e-003
9.02702702702703e+005	2.82627539080235e-001,4.37877364508167e-001	1.43474492183953e-002,-8.75754729016334e-003
9.12612612612613e+005	2.88204510326233e-001,4.40616315409566e-001	1.42359097934753e-002,-8.81232630819132e-003
9.22522522522523e+005	2.93827242991237e-001,4.43289299532861e-001	1.41234551401753e-002,-8.86578599065722e-003
9.32432432432433e+005	2.99495620226290e-001,4.45895679616244e-001	1.40100875954742e-002,-8.91791359232488e-003
9.42342342342343e+005	3.05209585301173e-001,4.48434815972251e-001	1.38958082939765e-002,-8.96869631944503e-003
9.52252252252253e+005	3.10969152370650e-001,4.50906065289898e-001	1.37806169525870e-002,-9.01812130579796e-003
9.62162162162163e+005	3.16774419396401e-001,4.53308779151626e-001	1.36645116120720e-002,-9.06617558303253e-003
9.72072072072073e+005	3.22625583751134e-001,4.55642302185854e-001	1.35474883249773e-002,-9.11284604371708e-003
9.81981981981983e+005	3.28522961184342e-001,4.57905969749666e-001	1.34295407763132e-002,-9.15811939499332e-003
9.91891891891893e+005	3.34467009034223e-001,4.60099104999812e-001	1.33106598193155e-002,-9.20198209999624e-003
1.00180180180180e+006	3.40458354847841e-001,4.62221015159188e-001	1.31908329030432e-002,-9.24442030318377e-003
1.01171171171171e+006	3.46497831951349e-001,4.64270986713631e-001	1.30700433609730e-002,-9.28541973427262e-003
1.02162162162162e+006	3.52586524037815e-001,4.66248279169829e-001	1.29482695192437e-002,-9.32496558339658e-003
1.03153153153153e+006	3.58725821577046e-001,4.68152116853487e-001	1.28254835684591e-002,-9.36304233706973e-003
1.04144144144144e+006	3.64917493898659e-001,4.69981678002231e-001	1.27016501220268e-002,-9.39963356004461e-003
1.05135135135135e+006	3.71163782308872e-001,4.71736080069587e-001	1.25767243538226e-002,-9.43472160139174e-003
1.06126126126126e+006	3.77467521812274e-001,4.73414359637850e-001	1.24506495637545e-002,-9.46828719275700e-003
1.07117117117117e+006	3.83832302305280e-001,4.75015444526813e-001	1.23233539538944e-002,-9.50030889053627e-003
1.08108108108108e+006	3.90262685114982e-001,4.76538114389344e-001	1.21947462977004e-002,-9.53076228778688e-003
1.09099099099099e+006	3.96764498527148e-001,4.77980943962806e-001	1.20647100294570e-002,-9.55961887925611e-003
1.10090090090090e+006	4.03345248290169e-001,4.79342219576757e-001	1.19330950341966e-002,-9.58684439153513e-003
1.11081081081081e+006	4.10014699208024e-001,4.80619813333242e-001	1.17997060158395e-002,-9.61239626666485e-003
1.12072072072072e+006	4.16785717729164e-001,4.81810988291266e-001	1.16642856454167e-002,-9.63621976582532e-003
1.13063063063063e+006	4.23675524094449e-001,4.82912087340282e-001	1.15264895181110e-002,-9.65824174680565e-003
1.14054054054054e+006	4.30707608345069e-001,4.83918018257241e-001	1.13858478330986e-002,-9.67836036514482e-003
1.15045045045045e+006	4.37914763597080e-001,4.84821365100517e-001	1.12417047280584e-002,-9.69642730201034e-003
1.16036036036036e+006	4.45344084449588e-001,4.85610776920521e-001	1.10931183110082e-002,-9.71221553841043e-003
1.17027027027027e+006	4.53065608169851e-001,4.86267865748779e-001	1.09386878366030e-002,-9.72535731497558e-003
1.18018018018018e+006	4.61188151679867e-001,4.86760775737347e-001	1.07762369664027e-002,-9.73521551474694e-003
1.19009009009009e+006	4.69890522324530e-001,4.87029533753277e-001	1.06021895535094e-002,-9.74059067506554e-003
1.20000000000000e+006	4.79488979179840e-001,4.86948251110497e-001	1.04102204164032e-002,-9.73896502220994e-003
1.20990990990991e+006	4.90601575504917e-001,4.86209124546732e-001	1.01879684899017e-002,-9.72418249093463e-003
1.21981981981982e+006	5.04612841931112e-001,4.83860797325352e-001	9.90774316137775e-003,-9.67721594650704e-003
1.22972972972973e+006	5.25054738429312e-001,4.75493752006270e-001	9.49890523141377e-003,-9.50987504012541e-003
1.23963963963964e+006	5.40798496971674e-001,4.29290652355039e-001	9.18403006056652e-003,-8.58581304710077e-003
1.24954954954955e+006	5.20898794529286e-001,4.34093918099812e-001	9.58202410941428e-003,-8.68187836199623e-003
1.25945945945946e+006	4.50094414993268e-001,3.97390368952462e-001	1.09981117001346e-002,-7.94780737904923e-003
1.26936936936937e+006	4.69248021265832e-001,4.66648159322737e-001	1.06150395746834e-002,-9.33296318645473e-003
1.27927927927928e+006	5.03402042709872e-001,4.57144967900317e-001	9.93195914580257e-003,-9.14289935800634e-003
1.28918918918919e+006	4.70196865170839e-001,4.63972871850009e-001	1.05960626965832e-002,-9.27945743700018e-003
1.29909909909910e+006	4.90212307063359e-001,4.79168831237887e-001	1.01957538587328e-002,-9.58337662475774e-003
1.30900900900901e+006	5.03423644078618e-001,4.85998104191349e-001	9.93152711842765e-003,-9.71996208382699e-003
1.31891891891892e+006	5.15519118170573e-001,4.87437903534580e-001	9.68961763658854e-003,-9.74875807069160e-003
1.32882882882883e+006	5.25605655275582e-001,4.87698722931547e-001	9.48788689448836e-003,-9.75397445863094e-003
1.33873873873874e+006	5.34672593926995e-001,4.87515072270571e-001	9.30654812146010e-003,-9.75030144541141e-003
1.34864864864865e+006	5.43140955907709e-001,4.87075897399545e-001	9.13718088184582e-003,-9.74151794799089e-003
1.35855855855856e+006	5.51224329714957e-001,4.86454036696945e-001	8.97551340570085e-003,-9.72908073393890e-003
1.36846846846847e+006	5.59045098642413e-001,4.85683458397063e-001	8.81909802715174e-003,-9.71366916794127e-003
1.37837837837838e+006	5.66679412599627e-001,4.84781755713155e-001	8.66641174800746e-003,-9.69563511426310e-003
1.38828828828829e+006	5.74177601424133e-001,4.83758552465188e-001	8.51644797151734e-003,-9.67517104930376e-003
1.39819819819820e+006	5.81574540194328e-001,4.82619166494018e-001	8.36850919611343e-003,-9.65238332988037e-003
1.40810810810811e+006	5.88895366197709e-001,4.81366381852662e-001	8.22209267604583e-003,-9.62732763705324e-003
1.41801801801802e+006	5.96158841526945e-001,4.80001370538553e-001	8.07682316946111e-003,-9.60002741077105e-003
1.42792792792793e+006	6.03379437698080e-001,4.78524194707424e-001	7.93241124603841e-003,-9.57048389414848e-003
1.43783783783784e+006	6.10568688105519e-001,4.76934085157221e-001	7.78862623788963e-003,-9.53868170314441e-003
1.44774774774775e+006	6.17736103082665e-001,4.75229591333341e-001	7.64527793834670e-003,-9.50459182666682e-003
1.45765765765766e+006	6.24889815516553e-001,4.73408651333786e-001	7.50220368966895e-003,-9.46817302667572e-003
1.46756756756756e+006	6.32037057465186e-001,4.71468606902167e-001	7.35925885069629e-003,-9.42937213804335e-003
1.47747747747747e+006	6.39184530835491e-001,4.69406175589704e-001	7.21630938329017e-003,-9.38812351179408e-003
1.48738738738738e+006	6.46338713938025e-001,4.67217384489464e-001	7.07322572123950e-003,-9.34434768978928e-003
1.49729729729729e+006	6.53506133655628e-001,4.64897464418130e-001	6.92987732688745e-003,-9.29794928836260e-003
1.50720720720720e+006	6.60693626453851e-001,4.62440698582828e-001	6.78612747092298e-003,-9.24881397165656e-003
1.51711711711711e+006	6.67908608694309e-001,4.59840214529354e-001	6.64182782611382e-003,-9.19680429058709e-003
1.52702702702702e+006	6.75159376873610e-001,4.57087701478339e-001	6.49681246252780e-003,-9.14175402956677e-003
1.53693693693693e+006	6.82455461369541e-001,4.54173025689743e-001	6.35089077260917e-003,-9.08346051379487e-003
1.54684684684684e+006	6.89808063501185e-001,4.51083702238106e-001	6.20383872997630e-003,-9.02167404476212e-003
1.55675675675675e+006	6.97230616370398e-001,4.47804159171723e-001	6.05538767259205e-003,-8.95608318343447e-003
1.56666666666666e+006	7.04739527234057e-001,4.44314693548413e-001	5.90520945531886e-003,-8.88629387096826e-003
1.57657657657657e+006	7.12355186892152e-001,4.40589957394101e-001	5.75289626215697e-003,-8.81179914788202e-003
1.58648648648648e+006	7.20103376412744e-001,4.36596704307920e-001	5.59793247174513e-003,-8.73193408615840e-003
1.59639639639639e+006	7.28017274992557e-001,4.32290332240294e-001	5.43965450014885e-003,-8.64580664480587e-003
1.60630630630630e+006	7.36140394799815e-001,4.27609386113613e-001	5.27719210400370e-003,-8.55218772227226e-003
1.61621621621621e+006	7.44530972369191e-001,4.22466436358794e-001	5.10938055261618e-003,-8.44932872717587e-003
1.62612612612612e+006	7.53268678541229e-001,4.16732147987708e-001	4.93462642917543e-003,-8.33464295975415e-003
1.63603603603603e+006	7.62464991375054e-001,4.10205654402667e-001	4.75070017249892e-003,-8.20411308805335e-003
1.64594594594594e+006	7.72278910316646e-001,4.02554979891687e-001	4.55442179366709e-003,-8.05109959783375e-003
1.65585585585585e+006	7.82937393082219e-001,3.93184718271863e-001	4.34125213835563e-003,-7.86369436543725e-003
1.66576576576576e+006	7.94737673980191e-001,3.80902028283937e-001	4.10524652039619e-003,-7.61804056567873e-003
1.67567567567567e+006	8.07831470950718e-001,3.62925120712011e-001	3.84337058098564e-003,-7.25850241424021e-003
1.68558558558558e+006	8.19890927789096e-001,3.31446847435840e-001	3.60218144421809e-003,-6.62893694871681e-003
1.69549549549549e+006	8.00313255916578e-001,2.70164348909662e-001	3.99373488166844e-003,-5.40328697819325e-003
1.70540540540540e+006	7.13462991610888e-001,3.07764436105635e-001	5.73074016778224e-003,-6.15528872211270e-003
1.71531531531531e+006	7.69126050816505e-001,3.43159432134946e-001	4.61747898366991e-003,-6.86318864269891e-003
1.72522522522522e+006	8.05696345537552e-001,2.94543554810554e-001	3.88607308924897e-003,-5.89087109621109e-003
1.73513513513513e+006	7.56829591180107e-001,1.93724677724894e-001	4.86340817639787e-003,-3.87449355449788e-003
1.74504504504504e+006	5.88433247945618e-001,2.77129846139507e-001	8.23133504108763e-003,-5.54259692279013e-003
1.75495495495495e+006	6.54020209970566e-001,3.94073263636531e-001	6.91959580058868e-003,-7.88146527273062e-003
1.76486486486486e+006	7.15773193415380e-001,4.05777663593080e-001	5.68453613169240e-003,-8.11555327186160e-003
1.77477477477477e+006	7.52706265171127e-001,3.97607449799320e-001	4.94587469657746e-003,-7.95214899598639e-003
1.78468468468468e+006	7.78722299759217e-001,3.83945139103197e-001	4.42555400481567e-003,-7.67890278206395e-003
1.79459459459459e+006	7.99885614359075e-001,3.64416903487194e-001	4.00228771281851e-003,-7.28833806974387e-003
1.80450450450450e+006	8.15614817857705e-001,3.29842575363000e-001	3.68770364284590e-003,-6.59685150726000e-003
1.81441441441441e+006	7.80398064011416e-001,2.62276893128965e-001	4.39203871977168e-003,-5.24553786257930e-003
1.82432432432432e+006	6.95848566389128e-001,3.43545244099474e-001	6.08302867221745e-003,-6.87090488198948e-003
1.83423423423423e+006	7.53541788076111e-001,3.84686918529648e-001	4.92916423847777e-003,-7.69373837059297e-003
1.84414414414414e+006	7.86885688037937e-001,3.80068577198942e-001	4.26228623924126e-003,-7.60137154397884e-003
1.85405405405405e+006	8.06887632378605e-001,3.70043020349101e-001	3.86224735242790e-003,-7.40086040698202e-003
1.86396396396396e+006	8.20037091854867e-001,3.56828247459806e-001	3.59925816290267e-003,-7.13656494919612e-003
