Freq.	V(1|1|1|b)	I(R129)
1.00000000000000e+005	4.54775930343059e-002,1.43918156765774e-001	1.90904481393139e-002,-2.87836313531547e-003
1.09909909909910e+005	4.99084528814389e-002,1.57505981469482e-001	1.90018309423712e-002,-3.15011962938964e-003
1.19819819819820e+005	5.47186052322851e-002,1.70909311393383e-001	1.89056278953543e-002,-3.41818622786766e-003
1.29729729729730e+005	5.98980662649871e-002,1.84114305717855e-001	1.88020386747003e-002,-3.68228611435710e-003
1.39639639639640e+005	6.54362271951347e-002,1.97107788908486e-001	1.86912754560973e-002,-3.94215577816971e-003
1.49549549549550e+005	7.13219064219248e-002,2.09877282309400e-001	1.85735618715615e-002,-4.19754564618800e-003
1.59459459459459e+005	7.75434031650734e-002,2.22411031230708e-001	1.84491319366985e-002,-4.44822062461416e-003
1.69369369369369e+005	8.40885521906434e-002,2.34698027449853e-001	1.83182289561871e-002,-4.69396054899707e-003
1.79279279279279e+005	9.09447792081123e-002,2.46728027106376e-001	1.81811044158378e-002,-4.93456054212751e-003
1.89189189189189e+005	9.80991565213623e-002,2.58491564022323e-001	1.80380168695728e-002,-5.16983128044645e-003
1.99099099099099e+005	1.05538458526770e-001,2.69979958527617e-001	1.78892308294646e-002,-5.39959917055234e-003
2.09009009009009e+005	1.13249216669068e-001,2.81185321911775e-001	1.77350156666186e-002,-5.62370643823551e-003
2.18918918918919e+005	1.21217773488301e-001,2.92100556660741e-001	1.75756445302340e-002,-5.84201113321482e-003
2.28828828828829e+005	1.29430335417733e-001,3.02719352670361e-001	1.74113932916453e-002,-6.05438705340721e-003
2.38738738738739e+005	1.37873024022061e-001,3.13036179656160e-001	1.72425395195588e-002,-6.26072359312320e-003
2.48648648648649e+005	1.46531925396884e-001,3.23046276002632e-001	1.70693614920623e-002,-6.46092552005264e-003
2.58558558558559e+005	1.55393137483455e-001,3.32745634314259e-001	1.68921372503309e-002,-6.65491268628518e-003
2.68468468468468e+005	1.64442815086517e-001,3.42130983945049e-001	1.67111436982697e-002,-6.84261967890098e-003
2.78378378378378e+005	1.73667212417105e-001,3.51199770793631e-001	1.65266557516579e-002,-7.02399541587261e-003
2.88288288288288e+005	1.83052723015832e-001,3.59950134657134e-001	1.63389455396834e-002,-7.19900269314268e-003
2.98198198198198e+005	1.92585916945119e-001,3.68380884439406e-001	1.61482816610976e-002,-7.36761768878811e-003
3.08108108108108e+005	2.02253575170517e-001,3.76491471507909e-001	1.59549284965897e-002,-7.52982943015817e-003
3.18018018018018e+005	2.12042721081400e-001,3.84281961489198e-001	1.57591455783720e-002,-7.68563922978395e-003
3.27927927927928e+005	2.21940649129643e-001,3.91753004785552e-001	1.55611870174071e-002,-7.83506009571103e-003
3.37837837837838e+005	2.31934950591114e-001,3.98905806085496e-001	1.53613009881777e-002,-7.97811612170992e-003
3.47747747747748e+005	2.42013536478844e-001,4.05742093128939e-001	1.51597292704231e-002,-8.11484186257879e-003
3.57657657657657e+005	2.52164657658369e-001,4.12264084973873e-001	1.49567068468326e-002,-8.24528169947746e-003
3.67567567567567e+005	2.62376922234991e-001,4.18474459996329e-001	1.47524615553002e-002,-8.36948919992657e-003
3.77477477477477e+005	2.72639310299494e-001,4.24376323838981e-001	1.45472137940101e-002,-8.48752647677962e-003
3.87387387387387e+005	2.82941186133237e-001,4.29973177506665e-001	1.43411762773353e-002,-8.59946355013330e-003
3.97297297297297e+005	2.93272307985570e-001,4.35268885789507e-001	1.41345538402886e-002,-8.70537771579015e-003
4.07207207207207e+005	3.03622835546278e-001,4.40267646176574e-001	1.39275432890744e-002,-8.80535292353148e-003
4.17117117117117e+005	3.13983335243329e-001,4.44973958405206e-001	1.37203332951334e-002,-8.89947916810411e-003
4.27027027027027e+005	3.24344783501811e-001,4.49392594773717e-001	1.35131043299638e-002,-8.98785189547433e-003
4.36936936936936e+005	3.34698568103589e-001,4.53528571328095e-001	1.33060286379282e-002,-9.07057142656191e-003
4.46846846846846e+005	3.45036487789225e-001,4.57387120016909e-001	1.30992702442155e-002,-9.14774240033818e-003
4.56756756756756e+005	3.55350750244077e-001,4.60973661892899e-001	1.28929849951185e-002,-9.21947323785797e-003
4.66666666666666e+005	3.65633968609580e-001,4.64293781424916e-001	1.26873206278084e-002,-9.28587562849831e-003
4.76576576576576e+005	3.75879156658461e-001,4.67353201969868e-001	1.24824168668308e-002,-9.34706403939736e-003
4.86486486486486e+005	3.86079722769424e-001,4.70157762441413e-001	1.22784055446115e-002,-9.40315524882825e-003
4.96396396396396e+005	3.96229462832697e-001,4.72713395200147e-001	1.20754107433461e-002,-9.45426790400295e-003
5.06306306306306e+005	4.06322552212920e-001,4.75026105179148e-001	1.18735489557416e-002,-9.50052210358295e-003
5.16216216216216e+005	4.16353536890350e-001,4.77101950248788e-001	1.16729292621930e-002,-9.54203900497575e-003
5.26126126126125e+005	4.26317323895407e-001,4.78947022815921e-001	1.14736535220919e-002,-9.57894045631842e-003
5.36036036036035e+005	4.36209171145205e-001,4.80567432644603e-001	1.12758165770959e-002,-9.61134865289206e-003
5.45945945945945e+005	4.46024676784189e-001,4.81969290878633e-001	1.10795064643162e-002,-9.63938581757267e-003
5.55855855855855e+005	4.55759768124222e-001,4.83158695240176e-001	1.08848046375156e-002,-9.66317390480352e-003
5.65765765765765e+005	4.65410690272736e-001,4.84141716373606e-001	1.06917861945453e-002,-9.68283432747212e-003
5.75675675675675e+005	4.74973994530747e-001,4.84924385299391e-001	1.05005201093851e-002,-9.69848770598782e-003
5.85585585585585e+005	4.84446526635911e-001,4.85512681939284e-001	1.03110694672818e-002,-9.71025363878569e-003
5.95495495495495e+005	4.93825414919202e-001,4.85912524671239e-001	1.01234917016160e-002,-9.71825049342477e-003
6.05405405405405e+005	5.03108058437513e-001,4.86129760870255e-001	9.93783883124974e-003,-9.72259521740509e-003
6.15315315315315e+005	5.12292115138287e-001,4.86170158389745e-001	9.75415769723426e-003,-9.72340316779491e-003
6.25225225225225e+005	5.21375490106499e-001,4.86039397936915e-001	9.57249019787002e-003,-9.72078795873831e-003
6.35135135135135e+005	5.30356323938660e-001,4.85743066295028e-001	9.39287352122681e-003,-9.71486132590055e-003
6.45045045045045e+005	5.39232981283282e-001,4.85286650345228e-001	9.21534037433435e-003,-9.70573300690457e-003
6.54954954954955e+005	5.48004039582248e-001,4.84675531840773e-001	9.03991920835503e-003,-9.69351063681547e-003
6.64864864864865e+005	5.56668278042868e-001,4.83914982886979e-001	8.86663443914265e-003,-9.67829965773959e-003
6.74774774774775e+005	5.65224666866085e-001,4.83010162080989e-001	8.69550666267830e-003,-9.66020324161977e-003
6.84684684684685e+005	5.73672356752268e-001,4.81966111266427e-001	8.52655286495463e-003,-9.63932222532853e-003
6.94594594594594e+005	5.82010668702291e-001,4.80787752859227e-001	8.35978662595419e-003,-9.61575505718453e-003
7.04504504504504e+005	5.90239084128232e-001,4.79479887702233e-001	8.19521831743535e-003,-9.58959775404465e-003
7.14414414414414e+005	5.98357235284904e-001,4.78047193407675e-001	8.03285529430192e-003,-9.56094386815350e-003
7.24324324324324e+005	6.06364896030562e-001,4.76494223148176e-001	7.87270207938877e-003,-9.52988446296352e-003
7.34234234234234e+005	6.14261972922650e-001,4.74825404858596e-001	7.71476054154701e-003,-9.49650809717191e-003
7.44144144144144e+005	6.22048496652069e-001,4.73045040812698e-001	7.55903006695863e-003,-9.46090081625397e-003
7.54054054054054e+005	6.29724613817457e-001,4.71157307540369e-001	7.40550772365087e-003,-9.42314615080738e-003
7.63963963963964e+005	6.37290579039100e-001,4.69166256052800e-001	7.25418841921800e-003,-9.38332512105600e-003
7.73873873873874e+005	6.44746747410504e-001,4.67075812344821e-001	7.10506505178991e-003,-9.34151624689641e-003
7.83783783783784e+005	6.52093567284226e-001,4.64889778145221e-001	6.95812865431548e-003,-9.29779556290441e-003
7.93693693693694e+005	6.59331573387342e-001,4.62611831887598e-001	6.81336853225316e-003,-9.25223663775196e-003
8.03603603603604e+005	6.66461380260871e-001,4.60245529875890e-001	6.67077239478258e-003,-9.20491059751780e-003
8.13513513513514e+005	6.73483676016549e-001,4.57794307620308e-001	6.53032647966903e-003,-9.15588615240617e-003
8.23423423423424e+005	6.80399216403619e-001,4.55261481320950e-001	6.39201567192763e-003,-9.10522962641900e-003
8.33333333333334e+005	6.87208819177645e-001,4.52650249477770e-001	6.25582361644710e-003,-9.05300498955541e-003
8.43243243243244e+005	6.93913358762861e-001,4.49963694607039e-001	6.12173282474277e-003,-8.99927389214079e-003
8.53153153153153e+005	7.00513761199158e-001,4.47204785045688e-001	5.98972477601683e-003,-8.94409570091376e-003
8.63063063063063e+005	7.07010999364504e-001,4.44376376826221e-001	5.85978001270993e-003,-8.88752753652442e-003
8.72972972972973e+005	7.13406088463373e-001,4.41481215606027e-001	5.73187823073255e-003,-8.82962431212055e-003
8.82882882882883e+005	7.19700081771618e-001,4.38521938636025e-001	5.60599836456763e-003,-8.77043877272050e-003
8.92792792792793e+005	7.25894066628139e-001,4.35501076754586e-001	5.48211866743722e-003,-8.71002153509173e-003
9.02702702702703e+005	7.31989160663680e-001,4.32421056393627e-001	5.36021678672639e-003,-8.64842112787254e-003
9.12612612612613e+005	7.37986508257158e-001,4.29284201584608e-001	5.24026983485684e-003,-8.58568403169217e-003
9.22522522522523e+005	7.43887277209959e-001,4.26092735952957e-001	5.12225445580081e-003,-8.52185471905913e-003
9.32432432432433e+005	7.49692655628814e-001,4.22848784690134e-001	5.00614688742372e-003,-8.45697569380267e-003
9.42342342342343e+005	7.55403849007984e-001,4.19554376493175e-001	4.89192301984032e-003,-8.39108752986349e-003
9.52252252252253e+005	7.61022077501703e-001,4.16211445462065e-001	4.77955844996594e-003,-8.32422890924130e-003
9.62162162162163e+005	7.66548573378021e-001,4.12821832945767e-001	4.66902853243957e-003,-8.25643665891534e-003
9.72072072072073e+005	7.71984578645428e-001,4.09387289328079e-001	4.56030842709145e-003,-8.18774578656159e-003
9.81981981981983e+005	7.77331342843894e-001,4.05909475744782e-001	4.45337314312212e-003,-8.11818951489564e-003
9.91891891891893e+005	7.82590120992222e-001,4.02389965723726e-001	4.34819758015555e-003,-8.04779931447452e-003
1.00180180180180e+006	7.87762171683875e-001,3.98830246739595e-001	4.24475656632249e-003,-7.97660493479190e-003
1.01171171171171e+006	7.92848755323733e-001,3.95231721675103e-001	4.14302489352535e-003,-7.90463443350205e-003
1.02162162162162e+006	7.97851132498512e-001,3.91595710180243e-001	4.04297735002976e-003,-7.83191420360487e-003
1.03153153153153e+006	8.02770562473879e-001,3.87923449921038e-001	3.94458875052242e-003,-7.75846899842075e-003
1.04144144144144e+006	8.07608301811569e-001,3.84216097708850e-001	3.84783396376862e-003,-7.68432195417700e-003
1.05135135135135e+006	8.12365603100116e-001,3.80474730500912e-001	3.75268793799767e-003,-7.60949461001824e-003
1.06126126126126e+006	8.17043713793100e-001,3.76700346262063e-001	3.65912572413799e-003,-7.53400692524125e-003
1.07117117117117e+006	8.21643875149083e-001,3.72893864676972e-001	3.56712249701833e-003,-7.45787729353945e-003
1.08108108108108e+006	8.26167321267705e-001,3.69056127701142e-001	3.47665357464589e-003,-7.38112255402284e-003
1.09099099099099e+006	8.30615278216679e-001,3.65187899937859e-001	3.38769443566643e-003,-7.30375799875718e-003
1.10090090090090e+006	8.34988963244691e-001,3.61289868826893e-001	3.30022073510618e-003,-7.22579737653786e-003
1.11081081081081e+006	8.39289584075488e-001,3.57362644629090e-001	3.21420831849024e-003,-7.14725289258179e-003
1.12072072072072e+006	8.43518338278665e-001,3.53406760189075e-001	3.12963323442670e-003,-7.06813520378150e-003
1.13063063063063e+006	8.47676412712935e-001,3.49422670455997e-001	3.04647174574130e-003,-6.98845340911994e-003
1.14054054054054e+006	8.51764983037868e-001,3.45410751739513e-001	2.96470033924263e-003,-6.90821503479025e-003
1.15045045045045e+006	8.55785213290331e-001,3.41371300675048e-001	2.88429573419339e-003,-6.82742601350095e-003
1.16036036036036e+006	8.59738255522027e-001,3.37304532868588e-001	2.80523488955946e-003,-6.74609065737176e-003
1.17027027027027e+006	8.63625249494757e-001,3.33210581186805e-001	2.72749501010487e-003,-6.66421162373611e-003
1.18018018018018e+006	8.67447322430119e-001,3.29089493653062e-001	2.65105355139761e-003,-6.58178987306124e-003
1.19009009009009e+006	8.71205588810562e-001,3.24941230903591e-001	2.57588822378876e-003,-6.49882461807183e-003
1.20000000000000e+006	8.74901150228708e-001,3.20765663150724e-001	2.50197699542583e-003,-6.41531326301448e-003
1.20990990990991e+006	8.78535095281973e-001,3.16562566591172e-001	2.42929809436055e-003,-6.33125133182345e-003
1.21981981981982e+006	8.82108499509403e-001,3.12331619186775e-001	2.35783000981195e-003,-6.24663238373550e-003
1.22972972972973e+006	8.85622425367595e-001,3.08072395732361e-001	2.28755149264810e-003,-6.16144791464722e-003
1.23963963963964e+006	8.89077922242264e-001,3.03784362110014e-001	2.21844155515473e-003,-6.07568724220028e-003
1.24954954954955e+006	8.92476026491676e-001,2.99466868610364e-001	2.15047947016649e-003,-5.98933737220727e-003
1.25945945945946e+006	8.95817761517546e-001,2.95119142178847e-001	2.08364476964908e-003,-5.90238284357693e-003
1.26936936936937e+006	8.99104137858117e-001,2.90740277417068e-001	2.01791724283767e-003,-5.81480554834136e-003
1.27927927927928e+006	9.02336153296867e-001,2.86329226135202e-001	1.95327693406267e-003,-5.72658452270404e-003
1.28918918918919e+006	9.05514792978524e-001,2.81884785209035e-001	1.88970414042952e-003,-5.63769570418070e-003
1.29909909909910e+006	9.08641029521523e-001,2.77405582442525e-001	1.82717940956954e-003,-5.54811164885050e-003
1.30900900900901e+006	9.11715823112533e-001,2.72890060070672e-001	1.76568353774934e-003,-5.45780120141345e-003
1.31891891891892e+006	9.14740121563761e-001,2.68336455454095e-001	1.70519756872478e-003,-5.36672910908190e-003
1.32882882882883e+006	9.17714860306790e-001,2.63742778410665e-001	1.64570279386420e-003,-5.27485556821330e-003
1.33873873873874e+006	9.20640962286995e-001,2.59106784493710e-001	1.58718075426010e-003,-5.18213568987419e-003
1.34864864864865e+006	9.23519337708749e-001,2.54425943350763e-001	1.52961324582501e-003,-5.08851886701527e-003
1.35855855855856e+006	9.26350883561963e-001,2.49697401068054e-001	1.47298232876074e-003,-4.99394802136107e-003
1.36846846846847e+006	9.29136482832180e-001,2.44917935104852e-001	1.41727034335640e-003,-4.89835870209705e-003
1.37837837837838e+006	9.31877003255432e-001,2.40083900021529e-001	1.36245993489137e-003,-4.80167800043058e-003
1.38828828828829e+006	9.34573295418813e-001,2.35191161667148e-001	1.30853409162375e-003,-4.70382323334296e-003
1.39819819819820e+006	9.37226189918509e-001,2.30235016760630e-001	1.25547620162982e-003,-4.60470033521259e-003
1.40810810810811e+006	9.39836493152818e-001,2.25210093791241e-001	1.20327013694364e-003,-4.50420187582483e-003
1.41801801801802e+006	9.42404981123155e-001,2.20110229755533e-001	1.15190037753690e-003,-4.40220459511067e-003
1.42792792792793e+006	9.44932390299132e-001,2.14928315249646e-001	1.10135219401736e-003,-4.29856630499292e-003
1.43783783783784e+006	9.47419404103910e-001,2.09656097553988e-001	1.05161191792179e-003,-4.19312195107977e-003
1.44774774774775e+006	9.49866632771740e-001,2.04283927114084e-001	1.00266734456520e-003,-4.08567854228168e-003
1.45765765765766e+006	9.52274583006385e-001,1.98800426476836e-001	9.54508339872293e-004,-3.97600852953671e-003
1.46756756756756e+006	9.54643611637209e-001,1.93192051017501e-001	9.07127767255824e-004,-3.86384102035001e-003
1.47747747747747e+006	9.56973853597614e-001,1.87442495513351e-001	8.60522928047718e-004,-3.74884991026701e-003
1.48738738738738e+006	9.59265107615448e-001,1.81531875931419e-001	8.14697847691039e-004,-3.63063751862838e-003
1.49729729729729e+006	9.61516650123960e-001,1.75435574628704e-001	7.69666997520797e-004,-3.50871149257407e-003
1.50720720720720e+006	9.63726922956149e-001,1.69122566013606e-001	7.25461540877028e-004,-3.38245132027211e-003
1.51711711711711e+006	9.65892989678552e-001,1.62552911628924e-001	6.82140206428967e-004,-3.25105823257849e-003
1.52702702702702e+006	9.68009546344627e-001,1.55673871944056e-001	6.39809073107467e-004,-3.11347743888112e-003
1.53693693693693e+006	9.70067021563432e-001,1.48413600769089e-001	5.98659568731368e-004,-2.96827201538179e-003
1.54684684684684e+006	9.72047675524882e-001,1.40670367303337e-001	5.59046489502355e-004,-2.81340734606675e-003
1.55675675675675e+006	9.73916889631999e-001,1.32292923614871e-001	5.21662207360016e-004,-2.64585847229741e-003
1.56666666666666e+006	9.75601511032949e-001,1.23041884543743e-001	4.87969779341026e-004,-2.46083769087487e-003
1.57657657657657e+006	9.76927860906532e-001,1.12506598476408e-001	4.61442781869361e-004,-2.25013196952816e-003
1.58648648648648e+006	9.77407151171808e-001,9.99098550808281e-002	4.51856976563847e-004,-1.99819710161656e-003
1.59639639639639e+006	9.75274341509554e-001,8.36736590135439e-002	4.94513169808921e-004,-1.67347318027088e-003
1.60630630630630e+006	9.61908297198369e-001,6.25437304766265e-002	7.61834056032615e-004,-1.25087460953253e-003
1.61621621621621e+006	9.27331299922657e-001,7.50364923618900e-002	1.45337400154686e-003,-1.50072984723780e-003
1.62612612612612e+006	9.55338296164954e-001,8.67295454644531e-002	8.93234076700928e-004,-1.73459090928906e-003
1.63603603603603e+006	9.64716336597538e-001,5.96895706811870e-002	7.05673268049238e-004,-1.19379141362374e-003
1.64594594594594e+006	9.54383558114785e-001,2.57048720808802e-002	9.12328837704302e-004,-5.14097441617604e-004
1.65585585585585e+006	9.00717129433407e-001,-1.39730822114480e-002	1.98565741133186e-003,2.79461644228959e-004
1.66576576576576e+006	7.99716490359311e-001,6.74041127906488e-002	4.00567019281378e-003,-1.34808225581298e-003
1.67567567567567e+006	8.87402636459856e-001,1.49275643948421e-001	2.25194727080288e-003,-2.98551287896843e-003
1.68558558558558e+006	9.41999309124624e-001,1.24107162518580e-001	1.16001381750753e-003,-2.48214325037159e-003
1.69549549549549e+006	9.61603216968646e-001,9.32896983274841e-002	7.67935660627082e-004,-1.86579396654968e-003
1.70540540540540e+006	9.67651572431494e-001,6.32471621227966e-002	6.46968551370124e-004,-1.26494324245593e-003
1.71531531531531e+006	9.61842807177270e-001,2.96867877508967e-002	7.63143856454598e-004,-5.93735755017935e-004
1.72522522522522e+006	9.25248104775489e-001,-6.43535123779695e-003	1.49503790449023e-003,1.28707024755939e-004
1.73513513513513e+006	8.54542112175237e-001,4.57973929202377e-002	2.90915775649526e-003,-9.15947858404755e-004
1.74504504504504e+006	9.23835880868735e-001,8.90879032516265e-002	1.52328238262530e-003,-1.78175806503253e-003
1.75495495495495e+006	9.58388120938605e-001,5.56397706752998e-002	8.32237581227902e-004,-1.11279541350600e-003
1.76486486486486e+006	9.65960521917239e-001,2.08896302267065e-002	6.80789561655226e-004,-4.17792604534129e-004
1.77477477477477e+006	9.65127219114200e-001,-1.32761204786654e-002	6.97455617716005e-004,2.65522409573309e-004
1.78468468468468e+006	9.55312954557670e-001,-5.39703969182856e-002	8.93740908846592e-004,1.07940793836571e-003
1.79459459459459e+006	9.29133491756542e-001,-1.03611548664537e-001	1.41733016486916e-003,2.07223097329074e-003
1.80450450450450e+006	8.68880541826584e-001,-1.62433714289106e-001	2.62238916346831e-003,3.24867428578213e-003
1.81441441441441e+006	7.32997284891201e-001,-2.02256564455093e-001	5.34005430217598e-003,4.04513128910186e-003
1.82432432432432e+006	5.31397810062963e-001,-8.03186990584398e-002	9.37204379874075e-003,1.60637398116880e-003
1.83423423423423e+006	5.62988167312844e-001,1.91216718541646e-001	8.74023665374312e-003,-3.82433437083292e-003
1.84414414414414e+006	7.38937726638064e-001,2.68545203263844e-001	5.22124546723872e-003,-5.37090406527688e-003
1.85405405405405e+006	8.47212884517705e-001,2.40917073168568e-001	3.05574230964590e-003,-4.81834146337135e-003
1.86396396396396e+006	9.03177814057703e-001,1.98657657446438e-001	1.93644371884594e-003,-3.97315314892877e-003
