Freq.	V(1|1|1|b)	I(R129)
1.00000000000000e+005	1.00087019799518e-001,1.25945161631199e-001	1.79982596040096e-002,-2.51890323262398e-003
1.09909909909910e+005	1.03742410695384e-001,1.37910073453817e-001	1.79251517860923e-002,-2.75820146907634e-003
1.19819819819820e+005	1.07715163161377e-001,1.49733041916013e-001	1.78456967367725e-002,-2.99466083832026e-003
1.29729729729730e+005	1.11998121441453e-001,1.61403121203973e-001	1.77600375711709e-002,-3.22806242407947e-003
1.39639639639640e+005	1.16583658444594e-001,1.72909810327253e-001	1.76683268311081e-002,-3.45819620654505e-003
1.49549549549550e+005	1.21463708397937e-001,1.84243076727408e-001	1.75707258320413e-002,-3.68486153454815e-003
1.59459459459459e+005	1.26629800725818e-001,1.95393377126163e-001	1.74674039854836e-002,-3.90786754252326e-003
1.69369369369369e+005	1.32073094898893e-001,2.06351675573855e-001	1.73585381020221e-002,-4.12703351147710e-003
1.79279279279279e+005	1.37784416001301e-001,2.17109458678764e-001	1.72443116799740e-002,-4.34218917357527e-003
1.89189189189189e+005	1.43754290768021e-001,2.27658748019051e-001	1.71249141846396e-002,-4.55317496038103e-003
1.99099099099099e+005	1.49972983850495e-001,2.37992109760460e-001	1.70005403229901e-002,-4.75984219520920e-003
2.09009009009009e+005	1.56430534076395e-001,2.48102661523973e-001	1.68713893184721e-002,-4.96205323047945e-003
2.18918918918919e+005	1.63116790479362e-001,2.57984076567742e-001	1.67376641904128e-002,-5.15968153135484e-003
2.28828828828829e+005	1.70021447886251e-001,2.67630585366308e-001	1.65995710422750e-002,-5.35261170732616e-003
2.38738738738739e+005	1.77134081862889e-001,2.77036974687219e-001	1.64573183627422e-002,-5.54073949374439e-003
2.48648648648649e+005	1.84444182834128e-001,2.86198584280388e-001	1.63111163433174e-002,-5.72397168560775e-003
2.58558558558559e+005	1.91941189209902e-001,2.95111301308763e-001	1.61611762158020e-002,-5.90222602617526e-003
2.68468468468468e+005	1.99614519365740e-001,3.03771552660121e-001	1.60077096126852e-002,-6.07543105320243e-003
2.78378378378378e+005	2.07453602343510e-001,3.12176295288873e-001	1.58509279531298e-002,-6.24352590577745e-003
2.88288288288288e+005	2.15447907155728e-001,3.20323004743872e-001	1.56910418568854e-002,-6.40646009487744e-003
2.98198198198198e+005	2.23586970594477e-001,3.28209662043276e-001	1.55282605881105e-002,-6.56419324086552e-003
3.08108108108108e+005	2.31860423463390e-001,3.35834739060606e-001	1.53627915307322e-002,-6.71669478121212e-003
3.18018018018018e+005	2.40258015168307e-001,3.43197182587483e-001	1.51948396966339e-002,-6.86394365174966e-003
3.27927927927928e+005	2.48769636618721e-001,3.50296397238090e-001	1.50246072676256e-002,-7.00592794476181e-003
3.37837837837838e+005	2.57385341407944e-001,3.57132227358443e-001	1.48522931718411e-002,-7.14264454716886e-003
3.47747747747748e+005	2.66095365254909e-001,3.63704938100137e-001	1.46780926949018e-002,-7.27409876200273e-003
3.57657657657657e+005	2.74890143704527e-001,3.70015195813611e-001	1.45021971259095e-002,-7.40030391627221e-003
3.67567567567567e+005	2.83760328096459e-001,3.76064047910165e-001	1.43247934380708e-002,-7.52128095820330e-003
3.77477477477477e+005	2.92696799824062e-001,3.81852902335298e-001	1.41460640035188e-002,-7.63705804670596e-003
3.87387387387387e+005	3.01690682915920e-001,3.87383506788423e-001	1.39661863416816e-002,-7.74767013576846e-003
3.97297297297297e+005	3.10733354981985e-001,3.92657927815925e-001	1.37853329003603e-002,-7.85315855631850e-003
4.07207207207207e+005	3.19816456574657e-001,3.97678529895913e-001	1.36036708685069e-002,-7.95357059791826e-003
4.17117117117117e+005	3.28931899022400e-001,4.02447954624115e-001	1.34213620195520e-002,-8.04895909248230e-003
4.27027027027027e+005	3.38071870799551e-001,4.06969100101205e-001	1.32385625840090e-002,-8.13938200202411e-003
4.36936936936936e+005	3.47228842501018e-001,4.11245100612648e-001	1.30554231499796e-002,-8.22490201225296e-003
4.46846846846846e+005	3.56395570494481e-001,4.15279306682925e-001	1.28720885901104e-002,-8.30558613365850e-003
4.56756756756756e+005	3.65565099325768e-001,4.19075265576943e-001	1.26886980134846e-002,-8.38150531153887e-003
4.66666666666666e+005	3.74730762955092e-001,4.22636702312519e-001	1.25053847408982e-002,-8.45273404625039e-003
4.76576576576576e+005	3.83886184903126e-001,4.25967501239242e-001	1.23222763019375e-002,-8.51935002478484e-003
4.86486486486486e+005	3.93025277386319e-001,4.29071688230731e-001	1.21394944522736e-002,-8.58143376461463e-003
4.96396396396396e+005	4.02142239520679e-001,4.31953413529436e-001	1.19571552095864e-002,-8.63906827058872e-003
5.06306306306306e+005	4.11231554672338e-001,4.34616935275634e-001	1.17753689065532e-002,-8.69233870551269e-003
5.16216216216216e+005	4.20287987031878e-001,4.37066603745317e-001	1.15942402593624e-002,-8.74133207490633e-003
5.26126126126125e+005	4.29306577487497e-001,4.39306846315086e-001	1.14138684502501e-002,-8.78613692630172e-003
5.36036036036035e+005	4.38282638869815e-001,4.41342153166178e-001	1.12343472226037e-002,-8.82684306332356e-003
5.45945945945945e+005	4.47211750638516e-001,4.43177063734162e-001	1.10557649872297e-002,-8.86354127468323e-003
5.55855855855855e+005	4.56089753078117e-001,4.44816153905827e-001	1.08782049384377e-002,-8.89632307811654e-003
5.65765765765765e+005	4.64912741067044e-001,4.46264023960209e-001	1.07017451786591e-002,-8.92528047920418e-003
5.75675675675675e+005	4.73677057480902e-001,4.47525287246608e-001	1.05264588503820e-002,-8.95050574493215e-003
5.85585585585585e+005	4.82379286287422e-001,4.48604559588848e-001	1.03524142742516e-002,-8.97209119177696e-003
5.95495495495495e+005	4.91016245387103e-001,4.49506449401832e-001	1.01796750922579e-002,-8.99012898803663e-003
6.05405405405405e+005	4.99584979250046e-001,4.50235548503678e-001	1.00083004149991e-002,-9.00471097007355e-003
6.15315315315315e+005	5.08082751395948e-001,4.50796423604389e-001	9.83834497208104e-003,-9.01592847208779e-003
6.25225225225225e+005	5.16507036760772e-001,4.51193608449992e-001	9.66985926478456e-003,-9.02387216899984e-003
6.35135135135135e+005	5.24855513990167e-001,4.51431596599440e-001	9.50288972019666e-003,-9.02863193198880e-003
6.45045045045045e+005	5.33126057696361e-001,4.51514834810291e-001	9.33747884607278e-003,-9.03029669620581e-003
6.54954954954955e+005	5.41316730712031e-001,4.51447717008091e-001	9.17366538575938e-003,-9.02895434016182e-003
6.64864864864865e+005	5.49425776371488e-001,4.51234578813696e-001	9.01148447257023e-003,-9.02469157627391e-003
6.74774774774775e+005	5.57451610846552e-001,4.50879692602207e-001	8.85096778306896e-003,-9.01759385204413e-003
6.84684684684685e+005	5.65392815561590e-001,4.50387263066946e-001	8.69214368876820e-003,-9.00774526133892e-003
6.94594594594594e+005	5.73248129709501e-001,4.49761423261768e-001	8.53503740580998e-003,-8.99522846523536e-003
7.04504504504504e+005	5.81016442887830e-001,4.49006231095109e-001	8.37967114224340e-003,-8.98012462190218e-003
7.14414414414414e+005	5.88696787871792e-001,4.48125666249389e-001	8.22606424256416e-003,-8.96251332498779e-003
7.24324324324324e+005	5.96288333538713e-001,4.47123627499759e-001	8.07423332922575e-003,-8.94247254999518e-003
7.34234234234234e+005	6.03790377956270e-001,4.46003930406638e-001	7.92419244087460e-003,-8.92007860813275e-003
7.44144144144144e+005	6.11202341644958e-001,4.44770305357082e-001	7.77595316710085e-003,-8.89540610714164e-003
7.54054054054054e+005	6.18523761023373e-001,4.43426395930658e-001	7.62952477953253e-003,-8.86852791861316e-003
7.63963963963964e+005	6.25754282043246e-001,4.41975757566201e-001	7.48491435913508e-003,-8.83951515132403e-003
7.73873873873874e+005	6.32893654019587e-001,4.40421856506621e-001	7.34212691960826e-003,-8.80843713013241e-003
7.83783783783784e+005	6.39941723659935e-001,4.38768068999692e-001	7.20116552680130e-003,-8.77536137999384e-003
7.93693693693694e+005	6.46898429295380e-001,4.37017680733621e-001	7.06203141409240e-003,-8.74035361467243e-003
8.03603603603604e+005	6.53763795314896e-001,4.35173886486986e-001	6.92472409370207e-003,-8.70347772973972e-003
8.13513513513514e+005	6.60537926803460e-001,4.33239789973529e-001	6.78924146393081e-003,-8.66479579947057e-003
8.23423423423424e+005	6.67221004383484e-001,4.31218403863103e-001	6.65557991233033e-003,-8.62436807726205e-003
8.33333333333334e+005	6.73813279258272e-001,4.29112649960931e-001	6.52373441483457e-003,-8.58225299921862e-003
8.43243243243244e+005	6.80315068455424e-001,4.26925359528136e-001	6.39369863089151e-003,-8.53850719056272e-003
8.53153153153153e+005	6.86726750267495e-001,4.24659273727315e-001	6.26546499465011e-003,-8.49318547454629e-003
8.63063063063063e+005	6.93048759886581e-001,4.22317044177709e-001	6.13902480226838e-003,-8.44634088355418e-003
8.72972972972973e+005	6.99281585229071e-001,4.19901233605250e-001	6.01436829541859e-003,-8.39802467210500e-003
8.82882882882883e+005	7.05425762946269e-001,4.17414316573474e-001	5.89148474107462e-003,-8.34828633146948e-003
8.92792792792793e+005	7.11481874616307e-001,4.14858680281977e-001	5.77036250767385e-003,-8.29717360563955e-003
9.02702702702703e+005	7.17450543112372e-001,4.12236625419688e-001	5.65098913775256e-003,-8.24473250839377e-003
9.12612612612613e+005	7.23332429142044e-001,4.09550367060840e-001	5.53335141715913e-003,-8.19100734121679e-003
9.22522522522523e+005	7.29128227952288e-001,4.06802035592029e-001	5.41743544095424e-003,-8.13604071184059e-003
9.32432432432433e+005	7.34838666194469e-001,4.03993677659258e-001	5.30322667611063e-003,-8.07987355318516e-003
9.42342342342343e+005	7.40464498943580e-001,4.01127257124248e-001	5.19071002112839e-003,-8.02254514248497e-003
9.52252252252253e+005	7.46006506865783e-001,3.98204656019723e-001	5.07986986268434e-003,-7.96409312039446e-003
9.62162162162163e+005	7.51465493528206e-001,3.95227675493615e-001	4.97069012943587e-003,-7.90455350987231e-003
9.72072072072073e+005	7.56842282844921e-001,3.92198036732451e-001	4.86315434310158e-003,-7.84396073464902e-003
9.81981981981983e+005	7.62137716652883e-001,3.89117381854287e-001	4.75724566694234e-003,-7.78234763708573e-003
9.91891891891893e+005	7.67352652411619e-001,3.85987274761718e-001	4.65294695176762e-003,-7.71974549523437e-003
1.00180180180180e+006	7.72487961020346e-001,3.82809201945478e-001	4.55024077959307e-003,-7.65618403890956e-003
1.01171171171171e+006	7.77544524746165e-001,3.79584573229084e-001	4.44910950507670e-003,-7.59169146458167e-003
1.02162162162162e+006	7.82523235256913e-001,3.76314722444865e-001	4.34953529486174e-003,-7.52629444889731e-003
1.03153153153153e+006	7.87424991752175e-001,3.73000908031419e-001	4.25150016495649e-003,-7.46001816062837e-003
1.04144144144144e+006	7.92250699185858e-001,3.69644313542199e-001	4.15498601628285e-003,-7.39288627084397e-003
1.05135135135135e+006	7.97001266573624e-001,3.66246048054477e-001	4.05997466852753e-003,-7.32492096108953e-003
1.06126126126126e+006	8.01677605378327e-001,3.62807146467266e-001	3.96644789243345e-003,-7.25614292934533e-003
1.07117117117117e+006	8.06280627966397e-001,3.59328569676069e-001	3.87438744067206e-003,-7.18657139352138e-003
1.08108108108108e+006	8.10811246127865e-001,3.55811204611342e-001	3.78377507744270e-003,-7.11622409222684e-003
1.09099099099099e+006	8.15270369652462e-001,3.52255864126480e-001	3.69459260695077e-003,-7.04511728252961e-003
1.10090090090090e+006	8.19658904953769e-001,3.48663286719739e-001	3.60682190092463e-003,-6.97326573439477e-003
1.11081081081081e+006	8.23977753732988e-001,3.45034136072935e-001	3.52044492534025e-003,-6.90068272145869e-003
1.12072072072072e+006	8.28227811673261e-001,3.41369000387873e-001	3.43544376653478e-003,-6.82738000775746e-003
1.13063063063063e+006	8.32409967154773e-001,3.37668391499201e-001	3.35180065690454e-003,-6.75336782998403e-003
1.14054054054054e+006	8.36525099979942e-001,3.33932743739786e-001	3.26949800040117e-003,-6.67865487479572e-003
1.15045045045045e+006	8.40574080096926e-001,3.30162412531600e-001	3.18851839806148e-003,-6.60324825063201e-003
1.16036036036036e+006	8.44557766308314e-001,3.26357672671486e-001	3.10884467383371e-003,-6.52715345342971e-003
1.17027027027027e+006	8.48477004950190e-001,3.22518716276874e-001	3.03045990099620e-003,-6.45037432553749e-003
1.18018018018018e+006	8.52332628524751e-001,3.18645650351502e-001	2.95334742950498e-003,-6.37291300703003e-003
1.19009009009009e+006	8.56125454267145e-001,3.14738493925193e-001	2.87749091465710e-003,-6.29476987850386e-003
1.20000000000000e+006	8.59856282624097e-001,3.10797174714749e-001	2.80287434751807e-003,-6.21594349429498e-003
1.20990990990991e+006	8.63525895618123e-001,3.06821525244587e-001	2.72948208763753e-003,-6.13643050489175e-003
1.21981981981982e+006	8.67135055066405e-001,3.02811278355838e-001	2.65729889867190e-003,-6.05622556711676e-003
1.22972972972973e+006	8.70684500617562e-001,2.98766062020708e-001	2.58630998764876e-003,-5.97532124041416e-003
1.23963963963964e+006	8.74174947562312e-001,2.94685393364674e-001	2.51650104875377e-003,-5.89370786729348e-003
1.24954954954955e+006	8.77607084364874e-001,2.90568671781969e-001	2.44785831270252e-003,-5.81137343563938e-003
1.25945945945946e+006	8.80981569850573e-001,2.86415171009128e-001	2.38036860298853e-003,-5.72830342018257e-003
1.26936936936937e+006	8.84299029970623e-001,2.82224029996367e-001	2.31401940058754e-003,-5.64448059992734e-003
1.27927927927928e+006	8.87560054046761e-001,2.77994242386034e-001	2.24879891906478e-003,-5.55988484772069e-003
1.28918918918919e+006	8.90765190374937e-001,2.73724644370181e-001	2.18469619250125e-003,-5.47449288740362e-003
1.29909909909910e+006	8.93914941037179e-001,2.69413900653460e-001	2.12170117925642e-003,-5.38827801306920e-003
1.30900900900901e+006	8.97009755731757e-001,2.65060488191117e-001	2.05980488536486e-003,-5.30120976382234e-003
1.31891891891892e+006	9.00050024381035e-001,2.60662677301703e-001	1.99899951237931e-003,-5.21325354603406e-003
1.32882882882883e+006	9.03036068209714e-001,2.56218509666713e-001	1.93927863580571e-003,-5.12437019333426e-003
1.33873873873874e+006	9.05968128898037e-001,2.51725772619702e-001	1.88063742203927e-003,-5.03451545239403e-003
1.34864864864865e+006	9.08846355296777e-001,2.47181968989163e-001	1.82307289406445e-003,-4.94363937978325e-003
1.35855855855856e+006	9.11670787032486e-001,2.42584281584117e-001	1.76658425935029e-003,-4.85168563168235e-003
1.36846846846847e+006	9.14441334115997e-001,2.37929531187779e-001	1.71117331768005e-003,-4.75859062375557e-003
1.37837837837838e+006	9.17157751371520e-001,2.33214126637944e-001	1.65684497256961e-003,-4.66428253275887e-003
1.38828828828829e+006	9.19819606093004e-001,2.28434005203209e-001	1.60360787813992e-003,-4.56868010406417e-003
1.39819819819820e+006	9.22426236758011e-001,2.23584560985367e-001	1.55147526483977e-003,-4.47169121970733e-003
1.40810810810811e+006	9.24976699809657e-001,2.18660558455758e-001	1.50046600380685e-003,-4.37321116911515e-003
1.41801801801802e+006	9.27469700336656e-001,2.13656027421390e-001	1.45060599326688e-003,-4.27312054842780e-003
1.42792792792793e+006	9.29903500757024e-001,2.08564134657203e-001	1.40192998485952e-003,-4.17128269314406e-003
1.43783783783784e+006	9.32275799054029e-001,2.03377026062786e-001	1.35448401891941e-003,-4.06754052125571e-003
1.44774774774775e+006	9.34583564260807e-001,1.98085631426117e-001	1.30832871478387e-003,-3.96171262852234e-003
1.45765765765766e+006	9.36822810987156e-001,1.92679421636219e-001	1.26354378025689e-003,-3.85358843272439e-003
1.46756756756756e+006	9.38988285573195e-001,1.87146105481228e-001	1.22023428853610e-003,-3.74292210962455e-003
1.47747747747747e+006	9.41073021815031e-001,1.81471250211040e-001	1.17853956369937e-003,-3.62942500422081e-003
1.48738738738738e+006	9.43067700478555e-001,1.75637807620901e-001	1.13864599042889e-003,-3.51275615241803e-003
1.49729729729729e+006	9.44959707599525e-001,1.69625527776473e-001	1.10080584800950e-003,-3.39251055552947e-003
1.50720720720720e+006	9.46731720551316e-001,1.63410251584291e-001	1.06536558897367e-003,-3.26820503168581e-003
1.51711711711711e+006	9.48359538065694e-001,1.56963106386148e-001	1.03280923868612e-003,-3.13926212772296e-003
1.52702702702702e+006	9.49808676401075e-001,1.50249724236928e-001	1.00382647197850e-003,-3.00499448473855e-003
1.53693693693693e+006	9.51028924562735e-001,1.43229859359200e-001	9.79421508745306e-004,-2.86459718718399e-003
1.54684684684684e+006	9.51945527122149e-001,1.35858453963965e-001	9.61089457557025e-004,-2.71716907927930e-003
1.55675675675675e+006	9.52445005723835e-001,1.28090938933310e-001	9.51099885523303e-004,-2.56181877866619e-003
1.56666666666666e+006	9.52353676524926e-001,1.19899908554707e-001	9.52926469501472e-004,-2.39799817109414e-003
1.57657657657657e+006	9.51412037865976e-001,1.11320119888744e-001	9.71759242680477e-004,-2.22640239777488e-003
1.58648648648648e+006	9.49275271535566e-001,1.02553062080189e-001	1.01449456928868e-003,-2.05106124160378e-003
1.59639639639639e+006	9.45657140341446e-001,9.41353500749040e-002	1.08685719317108e-003,-1.88270700149808e-003
1.60630630630630e+006	9.40803537564450e-001,8.69036167015078e-002	1.18392924871100e-003,-1.73807233403016e-003
1.61621621621621e+006	9.35774639042603e-001,8.10711012779481e-002	1.28450721914795e-003,-1.62142202555896e-003
1.62612612612612e+006	9.30881845303564e-001,7.54755690865474e-002	1.38236309392872e-003,-1.50951138173095e-003
1.63603603603603e+006	9.24413112250340e-001,6.98850092619832e-002	1.51173775499319e-003,-1.39770018523966e-003
1.64594594594594e+006	9.15374698373170e-001,6.70082309510934e-002	1.69250603253660e-003,-1.34016461902187e-003
1.65585585585585e+006	9.06905823637444e-001,7.00809520702474e-002	1.86188352725113e-003,-1.40161904140495e-003
1.66576576576576e+006	9.05012346076263e-001,7.72498064335219e-002	1.89975307847474e-003,-1.54499612867044e-003
1.67567567567567e+006	9.10726209979668e-001,8.13549033937698e-002	1.78547580040664e-003,-1.62709806787540e-003
1.68558558558558e+006	9.18696867707504e-001,7.85196342358234e-002	1.62606264584993e-003,-1.57039268471647e-003
1.69549549549549e+006	9.24170189715643e-001,7.02846189313330e-002	1.51659620568715e-003,-1.40569237862666e-003
1.70540540540540e+006	9.25300277795917e-001,5.97314213859485e-002	1.49399444408166e-003,-1.19462842771897e-003
1.71531531531531e+006	9.22132557806088e-001,4.99440422244707e-002	1.55734884387823e-003,-9.98880844489415e-004
1.72522522522522e+006	9.16907730833278e-001,4.36368770252926e-002	1.66184538333443e-003,-8.72737540505852e-004
1.73513513513513e+006	9.14076292041641e-001,4.04054001596185e-002	1.71847415916718e-003,-8.08108003192371e-004
1.74504504504504e+006	9.15261705485670e-001,3.52432094232178e-002	1.69476589028660e-003,-7.04864188464357e-004
1.75495495495495e+006	9.16555163163055e-001,2.46916930514780e-002	1.66889673673889e-003,-4.93833861029561e-004
1.76486486486486e+006	9.13813651328848e-001,9.73933438051522e-003	1.72372697342304e-003,-1.94786687610304e-004
1.77477477477477e+006	9.04908162178999e-001,-7.31471371905837e-003	1.90183675642001e-003,1.46294274381167e-004
1.78468468468468e+006	8.88327900209515e-001,-2.40723323802000e-002	2.23344199580971e-003,4.81446647603999e-004
1.79459459459459e+006	8.62633841208254e-001,-3.69989794006116e-002	2.74732317583493e-003,7.39979588012231e-004
1.80450450450450e+006	8.27819363262551e-001,-4.01615318367908e-002	3.44361273474897e-003,8.03230636735816e-004
1.81441441441441e+006	7.88841015456323e-001,-2.57242929588742e-002	4.22317969087354e-003,5.14485859177485e-004
1.82432432432432e+006	7.58772535767047e-001,1.01003772517470e-002	4.82454928465907e-003,-2.02007545034940e-004
1.83423423423423e+006	7.52395693373063e-001,5.77904159308466e-002	4.95208613253873e-003,-1.15580831861693e-003
1.84414414414414e+006	7.71120027665305e-001,9.84101505828886e-002	4.57759944669390e-003,-1.96820301165777e-003
1.85405405405405e+006	8.02391356221956e-001,1.20702847240159e-001	3.95217287556088e-003,-2.41405694480318e-003
1.86396396396396e+006	8.33636278805707e-001,1.25876640374532e-001	3.32727442388586e-003,-2.51753280749064e-003
