Freq.	V(1|1|1|a)	I(R129)
1.00000000000000e+005	1.66557419286307e-002,6.84650968566541e-002	1.96668851614274e-002,-1.36930193713308e-003
1.09909909909910e+005	1.76511238827976e-002,7.51940591608445e-002	1.96469775223440e-002,-1.50388118321689e-003
1.19819819819820e+005	1.87394280892787e-002,8.19072530278036e-002	1.96252114382144e-002,-1.63814506055607e-003
1.29729729729730e+005	1.99203690144787e-002,8.86032821159587e-002	1.96015926197104e-002,-1.77206564231917e-003
1.39639639639640e+005	2.11936372685105e-002,9.52807565950515e-002	1.95761272546298e-002,-1.90561513190103e-003
1.49549549549550e+005	2.25588997959915e-002,1.01938293658588e-001	1.95488220040802e-002,-2.03876587317177e-003
1.59459459459459e+005	2.40158000811195e-002,1.08574518030180e-001	1.95196839983776e-002,-2.17149036060359e-003
1.69369369369369e+005	2.55639583668327e-002,1.15188062463342e-001	1.94887208326633e-002,-2.30376124926684e-003
1.79279279279279e+005	2.72029718878502e-002,1.21777568234342e-001	1.94559405622430e-002,-2.43555136468684e-003
1.89189189189189e+005	2.89324151173746e-002,1.28341685627671e-001	1.94213516976525e-002,-2.56683371255342e-003
1.99099099099099e+005	3.07518400272321e-002,1.34879074413749e-001	1.93849631994554e-002,-2.69758148827499e-003
2.09009009009009e+005	3.26607763612099e-002,1.41388404318471e-001	1.93467844727758e-002,-2.82776808636942e-003
2.18918918918919e+005	3.46587319213470e-002,1.47868355484200e-001	1.93068253615731e-002,-2.95736710968400e-003
2.28828828828829e+005	3.67451928669222e-002,1.54317618921852e-001	1.92650961426616e-002,-3.08635237843705e-003
2.38738738738739e+005	3.89196240258758e-002,1.60734896953704e-001	1.92216075194825e-002,-3.21469793907407e-003
2.48648648648649e+005	4.11814692183960e-002,1.67118903646566e-001	1.91763706156321e-002,-3.34237807293132e-003
2.58558558558559e+005	4.35301515923922e-002,1.73468365235002e-001	1.91293969681522e-002,-3.46936730470003e-003
2.68468468468468e+005	4.59650739705742e-002,1.79782020534246e-001	1.90806985205885e-002,-3.59564041068493e-003
2.78378378378378e+005	4.84856192088495e-002,1.86058621342522e-001	1.90302876158230e-002,-3.72117242685043e-003
2.88288288288288e+005	5.10911505657502e-002,1.92296932832442e-001	1.89781769886850e-002,-3.84593865664883e-003
2.98198198198198e+005	5.37810120825941e-002,1.98495733931215e-001	1.89243797583481e-002,-3.96991467862430e-003
3.08108108108108e+005	5.65545289740887e-002,2.04653817689370e-001	1.88689094205182e-002,-4.09307635378740e-003
3.18018018018018e+005	5.94110080290791e-002,2.10769991637732e-001	1.88117798394184e-002,-4.21539983275463e-003
3.27927927927928e+005	6.23497380211505e-002,2.16843078132403e-001	1.87530052395770e-002,-4.33686156264806e-003
3.37837837837838e+005	6.53699901287878e-002,2.22871914687501e-001	1.86926001974242e-002,-4.45743829375002e-003
3.47747747747748e+005	6.84710183648079e-002,2.28855354295425e-001	1.86305796327038e-002,-4.57710708590849e-003
3.57657657657657e+005	7.16520600147771e-002,2.34792265734438e-001	1.85669587997045e-002,-4.69584531468875e-003
3.67567567567567e+005	7.49123360841369e-002,2.40681533863358e-001	1.85017532783173e-002,-4.81363067726717e-003
3.77477477477477e+005	7.82510517537681e-002,2.46522059903164e-001	1.84349789649246e-002,-4.93044119806329e-003
3.87387387387387e+005	8.16673968437312e-002,2.52312761705336e-001	1.83666520631254e-002,-5.04625523410671e-003
3.97297297297297e+005	8.51605462849344e-002,2.58052574006760e-001	1.82967890743013e-002,-5.16105148013520e-003
4.07207207207207e+005	8.87296605984920e-002,2.63740448671049e-001	1.82254067880302e-002,-5.27480897342098e-003
4.17117117117117e+005	9.23738863825536e-002,2.69375354916108e-001	1.81525222723489e-002,-5.38750709832216e-003
4.27027027027027e+005	9.60923568063991e-002,2.74956279527836e-001	1.80781528638720e-002,-5.49912559055672e-003
4.36936936936936e+005	9.98841921116179e-002,2.80482227059812e-001	1.80023161577676e-002,-5.60964454119624e-003
4.46846846846846e+005	1.03748500120212e-001,2.85952220018860e-001	1.79250299975958e-002,-5.71904440037721e-003
4.56756756756756e+005	1.07684376749487e-001,2.91365299036379e-001	1.78463124650103e-002,-5.82730598072759e-003
4.66666666666666e+005	1.11690906533629e-001,2.96720523025334e-001	1.77661818693274e-002,-5.93441046050667e-003
4.76576576576576e+005	1.15767163151897e-001,3.02016969322810e-001	1.76846567369621e-002,-6.04033938645620e-003
4.86486486486486e+005	1.19912209963384e-001,3.07253733818048e-001	1.76017558007323e-002,-6.14507467636096e-003
4.96396396396396e+005	1.24125100548372e-001,3.12429931065860e-001	1.75174979890326e-002,-6.24859862131720e-003
5.06306306306306e+005	1.28404879256316e-001,3.17544694385357e-001	1.74319024148737e-002,-6.35089388770713e-003
5.16216216216216e+005	1.32750581760572e-001,3.22597175943898e-001	1.73449883647886e-002,-6.45194351887796e-003
5.26126126126125e+005	1.37161235620031e-001,3.27586546826187e-001	1.72567752875994e-002,-6.55173093652374e-003
5.36036036036035e+005	1.41635860847877e-001,3.32511997088428e-001	1.71672827830425e-002,-6.65023994176856e-003
5.45945945945945e+005	1.46173470487783e-001,3.37372735797456e-001	1.70765305902443e-002,-6.74745471594913e-003
5.55855855855855e+005	1.50773071197924e-001,3.42167991054760e-001	1.69845385760415e-002,-6.84335982109521e-003
5.65765765765765e+005	1.55433663843273e-001,3.46897010005280e-001	1.68913267231345e-002,-6.93794020010561e-003
5.75675675675675e+005	1.60154244096778e-001,3.51559058830890e-001	1.67969151180644e-002,-7.03118117661780e-003
5.85585585585585e+005	1.64933803050094e-001,3.56153422728419e-001	1.67013239389981e-002,-7.12306845456839e-003
5.95495495495495e+005	1.69771327834722e-001,3.60679405872090e-001	1.66045734433056e-002,-7.21358811744181e-003
6.05405405405405e+005	1.74665802254514e-001,3.65136331360187e-001	1.65066839549097e-002,-7.30272662720375e-003
6.15315315315315e+005	1.79616207430706e-001,3.69523541145778e-001	1.64076758513859e-002,-7.39047082291555e-003
6.25225225225225e+005	1.84621522460816e-001,3.73840395951251e-001	1.63075695507837e-002,-7.47680791902502e-003
6.35135135135135e+005	1.89680725092969e-001,3.78086275166418e-001	1.62063854981406e-002,-7.56172550332836e-003
6.45045045045045e+005	1.94792792417465e-001,3.82260576729847e-001	1.61041441516507e-002,-7.64521153459694e-003
6.54954954954955e+005	1.99956701577689e-001,3.86362716993084e-001	1.60008659684462e-002,-7.72725433986168e-003
6.64864864864865e+005	2.05171430502800e-001,3.90392130567313e-001	1.58965713899440e-002,-7.80784261134626e-003
6.74774774774775e+005	2.10435958665001e-001,3.94348270151947e-001	1.57912808267000e-002,-7.88696540303894e-003
6.84684684684685e+005	2.15749267864649e-001,3.98230606344555e-001	1.56850146427070e-002,-7.96461212689111e-003
6.94594594594594e+005	2.21110343046969e-001,4.02038627431412e-001	1.55777931390606e-002,-8.04077254862824e-003
7.04504504504504e+005	2.26518173154695e-001,4.05771839157828e-001	1.54696365369061e-002,-8.11543678315655e-003
7.14414414414414e+005	2.31971752021695e-001,4.09429764477283e-001	1.53605649595661e-002,-8.18859528954567e-003
7.24324324324324e+005	2.37470079313394e-001,4.13011943278203e-001	1.52505984137321e-002,-8.26023886556406e-003
7.34234234234234e+005	2.43012161520772e-001,4.16517932086984e-001	1.51397567695846e-002,-8.33035864173968e-003
7.44144144144144e+005	2.48597013015784e-001,4.19947303745671e-001	1.50280597396843e-002,-8.39894607491342e-003
7.54054054054054e+005	2.54223657177385e-001,4.23299647062347e-001	1.49155268564523e-002,-8.46599294124693e-003
7.63963963963964e+005	2.59891127598831e-001,4.26574566431968e-001	1.48021774480234e-002,-8.53149132863936e-003
7.73873873873874e+005	2.65598469388758e-001,4.29771681424947e-001	1.46880306122248e-002,-8.59543362849894e-003
7.83783783783784e+005	2.71344740580721e-001,4.32890626340265e-001	1.45731051883856e-002,-8.65781252680531e-003
7.93693693693694e+005	2.77129013668419e-001,4.35931049719300e-001	1.44574197266316e-002,-8.71862099438600e-003
8.03603603603604e+005	2.82950377286954e-001,4.38892613815789e-001	1.43409924542609e-002,-8.77785227631578e-003
8.13513513513514e+005	2.88807938064200e-001,4.41774994016461e-001	1.42238412387160e-002,-8.83549988032923e-003
8.23423423423424e+005	2.94700822670846e-001,4.44577878205758e-001	1.41059835465831e-002,-8.89155756411515e-003
8.33333333333334e+005	3.00628180103170e-001,4.47300966066694e-001	1.39874363979366e-002,-8.94601932133389e-003
8.43243243243244e+005	3.06589184239273e-001,4.49943968308284e-001	1.38682163152145e-002,-8.99887936616568e-003
8.53153153153153e+005	3.12583036717670e-001,4.52506605807829e-001	1.37483392656466e-002,-9.05013211615658e-003
8.63063063063063e+005	3.18608970197232e-001,4.54988608653847e-001	1.36278205960554e-002,-9.09977217307694e-003
8.72972972972973e+005	3.24666252069911e-001,4.57389715072166e-001	1.35066749586018e-002,-9.14779430144332e-003
8.82882882882883e+005	3.30754188713233e-001,4.59709670213659e-001	1.33849162257353e-002,-9.19419340427319e-003
8.92792792792793e+005	3.36872130388908e-001,4.61948224776956e-001	1.32625573922218e-002,-9.23896449553912e-003
9.02702702702703e+005	3.43019476918390e-001,4.64105133432905e-001	1.31396104616322e-002,-9.28210266865810e-003
9.12612612612613e+005	3.49195684297101e-001,4.66180153009151e-001	1.30160863140580e-002,-9.32360306018303e-003
9.22522522522523e+005	3.55400272448544e-001,4.68173040382284e-001	1.28919945510291e-002,-9.36346080764567e-003
9.32432432432433e+005	3.61632834370082e-001,4.70083550010830e-001	1.27673433125984e-002,-9.40167100021660e-003
9.42342342342343e+005	3.67893046987671e-001,4.71911431023715e-001	1.26421390602466e-002,-9.43822862047429e-003
9.52252252252253e+005	3.74180684122073e-001,4.73656423754080e-001	1.25163863175586e-002,-9.47312847508159e-003
9.62162162162163e+005	3.80495632081130e-001,4.75318255575306e-001	1.23900873583774e-002,-9.50636511150612e-003
9.72072072072073e+005	3.86837908541142e-001,4.76896635851439e-001	1.22632418291772e-002,-9.53793271702878e-003
9.81981981981983e+005	3.93207685578955e-001,4.78391249753290e-001	1.21358462884209e-002,-9.56782499506580e-003
9.91891891891893e+005	3.99605317984686e-001,4.79801750607449e-001	1.20078936403063e-002,-9.59603501214898e-003
1.00180180180180e+006	4.06031378351335e-001,4.81127750328100e-001	1.18793724329733e-002,-9.62255500656200e-003
1.01171171171171e+006	4.12486700943549e-001,4.82368807315560e-001	1.17502659811290e-002,-9.64737614631120e-003
1.02162162162162e+006	4.18972437055409e-001,4.83524410967533e-001	1.16205512588918e-002,-9.67048821935066e-003
1.03153153153153e+006	4.25490125569958e-001,4.84593961602748e-001	1.14901974886008e-002,-9.69187923205496e-003
1.04144144144144e+006	4.32041783875139e-001,4.85576744084366e-001	1.13591643224972e-002,-9.71153488168732e-003
1.05135135135135e+006	4.38630026397141e-001,4.86471892659216e-001	1.12273994720572e-002,-9.72943785318433e-003
1.06126126126126e+006	4.45258221142416e-001,4.87278343344849e-001	1.10948355771517e-002,-9.74556686689697e-003
1.07117117117117e+006	4.51930699380203e-001,4.87994768339460e-001	1.09613860123959e-002,-9.75989536678919e-003
1.08108108108108e+006	4.58653040928071e-001,4.88619483948155e-001	1.08269391814386e-002,-9.77238967896309e-003
1.09099099099099e+006	4.65432469103527e-001,4.89150318604218e-001	1.06913506179295e-002,-9.78300637208436e-003
1.10090090090090e+006	4.72278408240875e-001,4.89584419221114e-001	1.05544318351825e-002,-9.79168838442229e-003
1.11081081081081e+006	4.79203288153895e-001,4.89917959471469e-001	1.04159342369221e-002,-9.79835918942937e-003
1.12072072072072e+006	4.86223734286478e-001,4.90145686914782e-001	1.02755253142704e-002,-9.80291373829563e-003
1.13063063063063e+006	4.93362379723321e-001,4.90260195143091e-001	1.01327524055336e-002,-9.80520390286182e-003
1.14054054054054e+006	5.00650717489878e-001,4.90250705572525e-001	9.98698565020244e-003,-9.80501411145051e-003
1.15045045045045e+006	5.08133769910701e-001,4.90100927975605e-001	9.83732460178598e-003,-9.80201855951211e-003
1.16036036036036e+006	5.15878098839967e-001,4.89785077808873e-001	9.68243802320066e-003,-9.79570155617745e-003
1.17027027027027e+006	5.23986350631384e-001,4.89259908741190e-001	9.52027298737232e-003,-9.78519817482380e-003
1.18018018018018e+006	5.32625591775988e-001,4.88447243358169e-001	9.34748816448024e-003,-9.76894486716338e-003
1.19009009009009e+006	5.42087638832016e-001,4.87190739351390e-001	9.15824722335968e-003,-9.74381478702779e-003
1.20000000000000e+006	5.52932918492667e-001,4.85129280654220e-001	8.94134163014665e-003,-9.70258561308439e-003
1.20990990990991e+006	5.66383130367040e-001,4.81220389777512e-001	8.67233739265921e-003,-9.62440779555024e-003
1.21981981981982e+006	5.85389287818657e-001,4.71039068626460e-001	8.29221424362686e-003,-9.42078137252920e-003
1.22972972972973e+006	5.99305684044559e-001,4.24393532673280e-001	8.01388631910883e-003,-8.48787065346559e-003
1.23963963963964e+006	5.70854504246571e-001,4.37033172041165e-001	8.58290991506857e-003,-8.74066344082330e-003
1.24954954954955e+006	5.22713281881463e-001,3.74653504118916e-001	9.54573436237073e-003,-7.49307008237831e-003
1.25945945945946e+006	5.16906141751370e-001,4.65435930033769e-001	9.66187716497260e-003,-9.30871860067538e-003
1.26936936936937e+006	5.53345892050052e-001,4.72454850478170e-001	8.93308215899895e-003,-9.44909700956339e-003
1.27927927927928e+006	5.58375902567512e-001,4.34171992799897e-001	8.83248194864975e-003,-8.68343985599794e-003
1.28918918918919e+006	5.42157837837910e-001,4.74452192672231e-001	9.15684324324180e-003,-9.48904385344462e-003
1.29909909909910e+006	5.58611233188351e-001,4.78250019471389e-001	8.82777533623298e-003,-9.56500038942778e-003
1.30900900900901e+006	5.72008065655899e-001,4.82829768188784e-001	8.55983868688202e-003,-9.65659536377569e-003
1.31891891891892e+006	5.83295464288986e-001,4.82424058979943e-001	8.33409071422028e-003,-9.64848117959886e-003
1.32882882882883e+006	5.92763930335289e-001,4.81299023242225e-001	8.14472139329422e-003,-9.62598046484450e-003
1.33873873873874e+006	6.01308057380989e-001,4.79919767217509e-001	7.97383885238022e-003,-9.59839534435018e-003
1.34864864864865e+006	6.09298042696428e-001,4.78390212775939e-001	7.81403914607144e-003,-9.56780425551878e-003
1.35855855855856e+006	6.16921834366563e-001,4.76745320584337e-001	7.66156331266873e-003,-9.53490641168674e-003
1.36846846846847e+006	6.24287837137266e-001,4.74999111767142e-001	7.51424325725468e-003,-9.49998223534284e-003
1.37837837837838e+006	6.31464102248933e-001,4.73157532979855e-001	7.37071795502134e-003,-9.46315065959710e-003
1.38828828828829e+006	6.38496063659260e-001,4.71222900144520e-001	7.23007872681481e-003,-9.42445800289041e-003
1.39819819819820e+006	6.45415557980087e-001,4.69195686114800e-001	7.09168884039826e-003,-9.38391372229600e-003
1.40810810810811e+006	6.52245818978823e-001,4.67075311033603e-001	6.95508362042353e-003,-9.34150622067207e-003
1.41801801801802e+006	6.59004431420129e-001,4.64860508429617e-001	6.81991137159741e-003,-9.29721016859234e-003
1.42792792792793e+006	6.65705174992844e-001,4.62549491544917e-001	6.68589650014313e-003,-9.25098983089834e-003
1.43783783783784e+006	6.72359231075513e-001,4.60140015850211e-001	6.55281537848975e-003,-9.20280031700422e-003
1.44774774774775e+006	6.78976008591602e-001,4.57629380889662e-001	6.42047982816796e-003,-9.15258761779324e-003
1.45765765765766e+006	6.85563735858432e-001,4.55014390706121e-001	6.28872528283136e-003,-9.10028781412242e-003
1.46756756756756e+006	6.92129907199383e-001,4.52291280071387e-001	6.15740185601235e-003,-9.04582560142773e-003
1.47747747747747e+006	6.98681641049909e-001,4.49455606700389e-001	6.02636717900182e-003,-8.98911213400778e-003
1.48738738738738e+006	7.05225988383348e-001,4.46502104452811e-001	5.89548023233303e-003,-8.93004208905621e-003
1.49729729729729e+006	7.11770220582849e-001,4.43424487545321e-001	5.76459558834302e-003,-8.86848975090642e-003
1.50720720720720e+006	7.18322121432283e-001,4.40215189794399e-001	5.63355757135434e-003,-8.80430379588798e-003
1.51711711711711e+006	7.24890307338545e-001,4.36865014597235e-001	5.50219385322909e-003,-8.73730029194471e-003
1.52702702702702e+006	7.31484602891196e-001,4.33362658936699e-001	5.37030794217607e-003,-8.66725317873398e-003
1.53693693693693e+006	7.38116505904695e-001,4.29694055251025e-001	5.23766988190611e-003,-8.59388110502049e-003
1.54684684684684e+006	7.44799788596991e-001,4.25841443458863e-001	5.10400422806018e-003,-8.51682886917727e-003
1.55675675675675e+006	7.51551302288572e-001,4.21782032479076e-001	4.96897395422855e-003,-8.43564064958152e-003
1.56666666666666e+006	7.58392086857126e-001,4.17486018471612e-001	4.83215826285748e-003,-8.34972036943223e-003
1.57657657657657e+006	7.65348941677225e-001,4.12913560242825e-001	4.69302116645549e-003,-8.25827120485650e-003
1.58648648648648e+006	7.72456706479343e-001,4.08009996110506e-001	4.55086587041315e-003,-8.16019992221011e-003
1.59639639639639e+006	7.79761652116892e-001,4.02697954424979e-001	4.40476695766215e-003,-8.05395908849958e-003
1.60630630630630e+006	7.87326624187462e-001,3.96863664183330e-001	4.25346751625076e-003,-7.93727328366659e-003
1.61621621621621e+006	7.95238921186833e-001,3.90331683806887e-001	4.09522157626333e-003,-7.80663367613775e-003
1.62612612612612e+006	8.03622062768561e-001,3.82814505183784e-001	3.92755874462878e-003,-7.65629010367567e-003
1.63603603603603e+006	8.12650637559936e-001,3.73801691893670e-001	3.74698724880127e-003,-7.47603383787340e-003
1.64594594594594e+006	8.22550061303687e-001,3.62282995854778e-001	3.54899877392627e-003,-7.24565991709557e-003
1.65585585585585e+006	8.33429697140901e-001,3.45933879958645e-001	3.33140605718198e-003,-6.91867759917290e-003
1.66576576576576e+006	8.43547232361512e-001,3.18254796446810e-001	3.12905535276976e-003,-6.36509592893621e-003
1.67567567567567e+006	8.29077117063801e-001,2.62738726829791e-001	3.41845765872399e-003,-5.25477453659582e-003
1.68558558558558e+006	7.38505163710323e-001,2.94269886866753e-001	5.22989672579353e-003,-5.88539773733507e-003
1.69549549549549e+006	7.93890197096497e-001,3.35148383589819e-001	4.12219605807006e-003,-6.70296767179638e-003
1.70540540540540e+006	8.30570438203512e-001,2.96984195585917e-001	3.38859123592976e-003,-5.93968391171835e-003
1.71531531531531e+006	8.14510963249628e-001,2.08661101727706e-001	3.70978073500744e-003,-4.17322203455412e-003
1.72522522522522e+006	6.33080723980616e-001,2.22307693646604e-001	7.33838552038769e-003,-4.44615387293209e-003
1.73513513513513e+006	6.74141066901303e-001,3.75407401055534e-001	6.51717866197393e-003,-7.50814802111067e-003
1.74504504504504e+006	7.42680596158612e-001,3.91704140823126e-001	5.14638807682775e-003,-7.83408281646252e-003
1.75495495495495e+006	7.79778524304092e-001,3.83603503577560e-001	4.40442951391817e-003,-7.67207007155120e-003
1.76486486486486e+006	8.03533631803085e-001,3.71810031544565e-001	3.92932736393831e-003,-7.43620063089130e-003
1.77477477477477e+006	8.21454782817251e-001,3.58348059024669e-001	3.57090434365499e-003,-7.16696118049337e-003
1.78468468468468e+006	8.36588786111594e-001,3.41549219992677e-001	3.26822427776811e-003,-6.83098439985354e-003
1.79459459459459e+006	8.48750026346259e-001,3.15388014602923e-001	3.02499947307482e-003,-6.30776029205845e-003
1.80450450450450e+006	8.36349340512394e-001,2.62697234396535e-001	3.27301318975211e-003,-5.25394468793069e-003
1.81441441441441e+006	7.37458688316261e-001,2.97540474026997e-001	5.25082623367478e-003,-5.95080948053995e-003
1.82432432432432e+006	7.89396316503972e-001,3.57416734320128e-001	4.21207366992057e-003,-7.14833468640257e-003
1.83423423423423e+006	8.23596465869977e-001,3.52727977851898e-001	3.52807068260045e-003,-7.05455955703795e-003
1.84414414414414e+006	8.42125286799388e-001,3.42526559337602e-001	3.15749426401224e-003,-6.85053118675204e-003
1.85405405405405e+006	8.54680148293186e-001,3.31425748285701e-001	2.90639703413627e-003,-6.62851496571403e-003
1.86396396396396e+006	8.61400726949713e-001,3.17458882860873e-001	2.77198546100573e-003,-6.34917765721745e-003
