Freq.	V(1|1|1|b)	I(R129)
1.00000000000000e+005	4.57806123363176e-002,1.42189146640680e-001	1.90843877532736e-002,-2.84378293281360e-003
1.09909909909910e+005	5.01297709156642e-002,1.55657047729607e-001	1.89974045816867e-002,-3.11314095459214e-003
1.19819819819820e+005	5.48559588148210e-002,1.68953652237086e-001	1.89028808237036e-002,-3.37907304474172e-003
1.29729729729730e+005	5.99505151851162e-002,1.82065764180689e-001	1.88009896962977e-002,-3.64131528361378e-003
1.39639639639640e+005	6.54042104714775e-002,1.94980727773105e-001	1.86919157905704e-002,-3.89961455546211e-003
1.49549549549550e+005	7.12072861476305e-002,2.07686455803310e-001	1.85758542770474e-002,-4.15372911606620e-003
1.59459459459459e+005	7.73494959326707e-002,2.20171454695829e-001	1.84530100813466e-002,-4.40342909391658e-003
1.69369369369369e+005	8.38201481819903e-002,2.32424846181802e-001	1.83235970363602e-002,-4.64849692363603e-003
1.79279279279279e+005	9.06081491451682e-002,2.44436385547236e-001	1.81878370170966e-002,-4.88872771094471e-003
1.89189189189189e+005	9.77020467868708e-002,2.56196476454482e-001	1.80459590642626e-002,-5.12392952908964e-003
1.99099099099099e+005	1.05090074873623e-001,2.67696182362214e-001	1.78981985025275e-002,-5.35392364724428e-003
2.09009009009009e+005	1.12760197039126e-001,2.78927234596823e-001	1.77447960592175e-002,-5.57854469193645e-003
2.18918918918919e+005	1.20700150553302e-001,2.89882037153827e-001	1.75859969889340e-002,-5.79764074307655e-003
2.28828828828829e+005	1.28897489535074e-001,3.00553668331498e-001	1.74220502092985e-002,-6.01107336662995e-003
2.38738738738739e+005	1.37339627365736e-001,3.10935879320090e-001	1.72532074526853e-002,-6.21871758640180e-003
2.48648648648649e+005	1.46013878078259e-001,3.21023089888938e-001	1.70797224384348e-002,-6.42046179777877e-003
2.58558558558559e+005	1.54907496517667e-001,3.30810381329841e-001	1.69018500696467e-002,-6.61620762659681e-003
2.68468468468468e+005	1.64007717088399e-001,3.40293486828857e-001	1.67198456582320e-002,-6.80586973657713e-003
2.78378378378378e+005	1.73301790925967e-001,3.49468779449664e-001	1.65339641814807e-002,-6.98937558899328e-003
2.88288288288288e+005	1.82777021351937e-001,3.58333257920113e-001	1.63444595729613e-002,-7.16666515840227e-003
2.98198198198198e+005	1.92420797493001e-001,3.66884530419616e-001	1.61515840501400e-002,-7.33769060839232e-003
3.08108108108108e+005	2.02220625966408e-001,3.75120796568620e-001	1.59555874806718e-002,-7.50241593137240e-003
3.18018018018018e+005	2.12164160554987e-001,3.83040827822785e-001	1.57567167889003e-002,-7.66081655645570e-003
3.27927927927928e+005	2.22239229815284e-001,3.90643946473752e-001	1.55552154036943e-002,-7.81287892947503e-003
3.37837837837838e+005	2.32433862581684e-001,3.97930003455754e-001	1.53513227483663e-002,-7.95860006911508e-003
3.47747747747748e+005	2.42736311347664e-001,4.04899355152920e-001	1.51452737730467e-002,-8.09798710305841e-003
3.57657657657657e+005	2.53135073522423e-001,4.11552839396229e-001	1.49372985295516e-002,-8.23105678792458e-003
3.67567567567567e+005	2.63618910576905e-001,4.17891750831792e-001	1.47276217884619e-002,-8.35783501663585e-003
3.77477477477477e+005	2.74176865107649e-001,4.23917815833773e-001	1.45164626978470e-002,-8.47835631667546e-003
3.87387387387387e+005	2.84798275859873e-001,4.29633167125887e-001	1.43040344828025e-002,-8.59266334251775e-003
3.97297297297297e+005	2.95472790762747e-001,4.35040318265377e-001	1.40905441847451e-002,-8.70080636530753e-003
4.07207207207207e+005	3.06190378039922e-001,4.40142138132668e-001	1.38761924392016e-002,-8.80284276265336e-003
4.17117117117117e+005	3.16941335467033e-001,4.44941825558907e-001	1.36611732906593e-002,-8.89883651117814e-003
4.27027027027027e+005	3.27716297855218e-001,4.49442884212257e-001	1.34456740428956e-002,-8.98885768424514e-003
4.36936936936936e+005	3.38506242845616e-001,4.53649097852494e-001	1.32298751430877e-002,-9.07298195704987e-003
4.46846846846846e+005	3.49302495104546e-001,4.57564506052098e-001	1.30139500979091e-002,-9.15129012104197e-003
4.56756756756756e+005	3.60096729012515e-001,4.61193380470880e-001	1.27980654197497e-002,-9.22386760941760e-003
4.66666666666666e+005	3.70880969942623e-001,4.64540201760255e-001	1.25823806011475e-002,-9.29080403520511e-003
4.76576576576576e+005	3.81647594225284e-001,4.67609637162767e-001	1.23670481154943e-002,-9.35219274325533e-003
4.86486486486486e+005	3.92389327896588e-001,4.70406518862273e-001	1.21522134420683e-002,-9.40813037724545e-003
4.96396396396396e+005	4.03099244327252e-001,4.72935823130619e-001	1.19380151134550e-002,-9.45871646261239e-003
5.06306306306306e+005	4.13770760827885e-001,4.75202650307460e-001	1.17245847834423e-002,-9.50405300614919e-003
5.16216216216216e+005	4.24397634324516e-001,4.77212205641349e-001	1.15120473135097e-002,-9.54424411282697e-003
5.26126126126125e+005	4.34973956195910e-001,4.78969781012282e-001	1.13005208760818e-002,-9.57939562024563e-003
5.36036036036035e+005	4.45494146361295e-001,4.80480737548460e-001	1.10901170727741e-002,-9.60961475096920e-003
5.45945945945945e+005	4.55952946703892e-001,4.81750489143336e-001	1.08809410659222e-002,-9.63500978286672e-003
5.55855855855855e+005	4.66345413911941e-001,4.82784486872822e-001	1.06730917217612e-002,-9.65568973745644e-003
5.65765765765765e+005	4.76666911815099e-001,4.83588204306992e-001	1.04666617636980e-002,-9.67176408613984e-003
5.75675675675675e+005	4.86913103289984e-001,4.84167123705632e-001	1.02617379342003e-002,-9.68334247411263e-003
5.85585585585585e+005	4.97079941804436e-001,4.84526723082561e-001	1.00584011639113e-002,-9.69053446165123e-003
5.95495495495495e+005	5.07163662665771e-001,4.84672464119773e-001	9.85672674668458e-003,-9.69344928239547e-003
6.05405405405405e+005	5.17160774033993e-001,4.84609780909035e-001	9.65678451932014e-003,-9.69219561818070e-003
6.15315315315315e+005	5.27068047756599e-001,4.84344069495705e-001	9.45863904486803e-003,-9.68688138991410e-003
6.25225225225225e+005	5.36882510077359e-001,4.83880678197041e-001	9.26234979845282e-003,-9.67761356394082e-003
6.35135135135135e+005	5.46601432267246e-001,4.83224898665219e-001	9.06797135465508e-003,-9.66449797330438e-003
6.45045045045045e+005	5.56222321221615e-001,4.82381957663600e-001	8.87555357556769e-003,-9.64763915327201e-003
6.54954954954955e+005	5.65742910063770e-001,4.81357009523460e-001	8.68514179872460e-003,-9.62714019046919e-003
6.64864864864865e+005	5.75161148791239e-001,4.80155129247333e-001	8.49677702417523e-003,-9.60310258494665e-003
6.74774774774775e+005	5.84475194997421e-001,4.78781306224402e-001	8.31049610005157e-003,-9.57562612448803e-003
6.84684684684685e+005	5.93683404697809e-001,4.77240438522825e-001	8.12633190604382e-003,-9.54480877045650e-003
6.94594594594594e+005	6.02784323286633e-001,4.75537327723599e-001	7.94431353426734e-003,-9.51074655447197e-003
7.04504504504504e+005	6.11776676646723e-001,4.73676674260431e-001	7.76446646706553e-003,-9.47353348520863e-003
7.14414414414414e+005	6.20659362432389e-001,4.71663073230126e-001	7.58681275135223e-003,-9.43326146460251e-003
7.24324324324324e+005	6.29431441542395e-001,4.69501010638119e-001	7.41137116915211e-003,-9.39002021276237e-003
7.34234234234234e+005	6.38092129797556e-001,4.67194860044061e-001	7.23815740404888e-003,-9.34389720088122e-003
7.44144144144144e+005	6.46640789835068e-001,4.64748879572634e-001	7.06718420329865e-003,-9.29497759145268e-003
7.54054054054054e+005	6.55076923229501e-001,4.62167209255151e-001	6.89846153540998e-003,-9.24334418510302e-003
7.63963963963964e+005	6.63400162848355e-001,4.59453868667842e-001	6.73199674303290e-003,-9.18907737335684e-003
7.73873873873874e+005	6.71610265448182e-001,4.56612754833099e-001	6.56779469103637e-003,-9.13225509666198e-003
7.83783783783784e+005	6.79707104515591e-001,4.53647640350269e-001	6.40585790968818e-003,-9.07295280700537e-003
7.93693693693694e+005	6.87690663355882e-001,4.50562171722845e-001	6.24618673288235e-003,-9.01124343445690e-003
8.03603603603604e+005	6.95561028430603e-001,4.47359867849118e-001	6.08877943138794e-003,-8.94719735698237e-003
8.13513513513514e+005	7.03318382944067e-001,4.44044118643395e-001	5.93363234111865e-003,-8.88088237286791e-003
8.23423423423424e+005	7.10963000677661e-001,4.40618183754872e-001	5.78073998644678e-003,-8.81236367509745e-003
8.33333333333334e+005	7.18495240069708e-001,4.37085191351013e-001	5.63009519860584e-003,-8.74170382702027e-003
8.43243243243244e+005	7.25915538537697e-001,4.33448136931898e-001	5.48168922924607e-003,-8.66896273863795e-003
8.53153153153153e+005	7.33224407038778e-001,4.29709882141349e-001	5.33551185922444e-003,-8.59419764282697e-003
8.63063063063063e+005	7.40422424863640e-001,4.25873153539795e-001	5.19155150272719e-003,-8.51746307079590e-003
8.72972972972973e+005	7.47510234658120e-001,4.21940541302591e-001	5.04979530683761e-003,-8.43881082605182e-003
8.82882882882883e+005	7.54488537666203e-001,4.17914497805997e-001	4.91022924667593e-003,-8.35828995611995e-003
8.92792792792793e+005	7.61358089187418e-001,4.13797336061065e-001	4.77283821625164e-003,-8.27594672122130e-003
9.02702702702703e+005	7.68119694240957e-001,4.09591227953234e-001	4.63760611518086e-003,-8.19182455906468e-003
9.12612612612613e+005	7.74774203428242e-001,4.05298202242500e-001	4.50451593143516e-003,-8.10596404484999e-003
9.22522522522523e+005	7.81322508984972e-001,4.00920142275385e-001	4.37354982030056e-003,-8.01840284550769e-003
9.32432432432433e+005	7.87765541012985e-001,3.96458783355606e-001	4.24468917974031e-003,-7.92917566711213e-003
9.42342342342343e+005	7.94104263881499e-001,3.91915709715112e-001	4.11791472237002e-003,-7.83831419430224e-003
9.52252252252253e+005	8.00339672786437e-001,3.87292351020913e-001	3.99320654427126e-003,-7.74584702041827e-003
9.62162162162163e+005	8.06472790455500e-001,3.82589978345704e-001	3.87054419089000e-003,-7.65179956691409e-003
9.72072072072073e+005	8.12504663985505e-001,3.77809699521380e-001	3.74990672028989e-003,-7.55619399042759e-003
9.81981981981983e+005	8.18436361797053e-001,3.72952453783979e-001	3.63127276405895e-003,-7.45904907567959e-003
9.91891891891893e+005	8.24268970689859e-001,3.68019005606001e-001	3.51462058620282e-003,-7.36038011212002e-003
1.00180180180180e+006	8.30003592979989e-001,3.63009937596967e-001	3.39992814040023e-003,-7.26019875193933e-003
1.01171171171171e+006	8.35641343697581e-001,3.57925642335144e-001	3.28717312604838e-003,-7.15851284670288e-003
1.02162162162162e+006	8.41183347820428e-001,3.52766312971784e-001	3.17633304359143e-003,-7.05532625943569e-003
1.03153153153153e+006	8.46630737514710e-001,3.47531932423345e-001	3.06738524970580e-003,-6.95063864846690e-003
1.04144144144144e+006	8.51984649349083e-001,3.42222260935964e-001	2.96030701301834e-003,-6.84444521871928e-003
1.05135135135135e+006	8.57246221441961e-001,3.36836821768727e-001	2.85507557116079e-003,-6.73673643537454e-003
1.06126126126126e+006	8.62416590493691e-001,3.31374884696431e-001	2.75166819012618e-003,-6.62749769392862e-003
1.07117117117117e+006	8.67496888645098e-001,3.25835446976656e-001	2.65006222709805e-003,-6.51670893953311e-003
1.08108108108108e+006	8.72488240090739e-001,3.20217211357452e-001	2.55023519818523e-003,-6.40434422714905e-003
1.09099099099099e+006	8.77391757358458e-001,3.14518560617530e-001	2.45216485283083e-003,-6.29037121235061e-003
1.10090090090090e+006	8.82208537145170e-001,3.08737528026232e-001	2.35582925709660e-003,-6.17475056052465e-003
1.11081081081081e+006	8.86939655570788e-001,3.02871762980142e-001	2.26120688858425e-003,-6.05743525960284e-003
1.12072072072072e+006	8.91586162675637e-001,2.96918490909429e-001	2.16827674648726e-003,-5.93836981818858e-003
1.13063063063063e+006	8.96149075938639e-001,2.90874466339972e-001	2.07701848122722e-003,-5.81748932679945e-003
1.14054054054054e+006	9.00629372529942e-001,2.84735917733366e-001	1.98741254940116e-003,-5.69471835466731e-003
1.15045045045045e+006	9.05027979926740e-001,2.78498482387555e-001	1.89944040146521e-003,-5.56996964775109e-003
1.16036036036036e+006	9.09345764406440e-001,2.72157129240422e-001	1.81308471187120e-003,-5.44314258480844e-003
1.17027027027027e+006	9.13583516775382e-001,2.65706066841040e-001	1.72832966449237e-003,-5.31412133682079e-003
1.18018018018018e+006	9.17741934476123e-001,2.59138632987217e-001	1.64516131047755e-003,-5.18277265974434e-003
1.19009009009009e+006	9.21821598915998e-001,2.52447161499205e-001	1.56356802168003e-003,-5.04894322998410e-003
1.20000000000000e+006	9.25822946433899e-001,2.45622820198570e-001	1.48354107132203e-003,-4.91245640397139e-003
1.20990990990991e+006	9.29746230708935e-001,2.38655412224744e-001	1.40507538582130e-003,-4.77310824449488e-003
1.21981981981982e+006	9.33591473514525e-001,2.31533130098857e-001	1.32817052970951e-003,-4.63066260197713e-003
1.22972972972973e+006	9.37358399372230e-001,2.24242248043090e-001	1.25283201255540e-003,-4.48484496086179e-003
1.23963963963964e+006	9.41046347588473e-001,2.16766732355305e-001	1.17907304823054e-003,-4.33533464710610e-003
1.24954954954955e+006	9.44654151889766e-001,2.09087741086735e-001	1.10691696220468e-003,-4.18175482173471e-003
1.25945945945946e+006	9.48179972554608e-001,2.01182971116289e-001	1.03640054890784e-003,-4.02365942232577e-003
1.26936936936937e+006	9.51621056972540e-001,1.93025789871549e-001	9.67578860549199e-004,-3.86051579743098e-003
1.27927927927928e+006	9.54973388806534e-001,1.84584054794714e-001	9.00532223869324e-004,-3.69168109589428e-003
1.28918918918919e+006	9.58231156924695e-001,1.75818465535234e-001	8.35376861506107e-004,-3.51636931070468e-003
1.29909909909910e+006	9.61385918862240e-001,1.66680190616088e-001	7.72281622755209e-004,-3.33360381232176e-003
1.30900900900901e+006	9.64425216738887e-001,1.57107317765495e-001	7.11495665222268e-004,-3.14214635530990e-003
1.31891891891892e+006	9.67330142833568e-001,1.47019297409450e-001	6.53397143328647e-004,-2.94038594818901e-003
1.32882882882883e+006	9.70070716041971e-001,1.36307751319696e-001	5.98585679160575e-004,-2.72615502639392e-003
1.33873873873874e+006	9.72596201004698e-001,1.24820221815689e-001	5.48075979906046e-004,-2.49640443631378e-003
1.34864864864865e+006	9.74812111706045e-001,1.12329093773833e-001	5.03757765879089e-004,-2.24658187547667e-003
1.35855855855856e+006	9.76515609104138e-001,9.84670486869110e-002	4.69687817917230e-004,-1.96934097373822e-003
1.36846846846847e+006	9.77167394537353e-001,8.25901472158388e-002	4.56652109252931e-004,-1.65180294431678e-003
1.37837837837838e+006	9.74823713188440e-001,6.37058905893400e-002	5.03525736231194e-004,-1.27411781178680e-003
1.38828828828829e+006	9.63250775427049e-001,4.60777241232101e-002	7.34984491459021e-004,-9.21554482464202e-004
1.39819819819820e+006	9.57605746893307e-001,3.42418144760326e-002	8.47885062133857e-004,-6.84836289520651e-004
1.40810810810811e+006	9.29073417309777e-001,2.32211377215802e-002	1.41853165380445e-003,-4.64422754431604e-004
1.41801801801802e+006	9.42279669435199e-001,4.61372261897429e-002	1.15440661129602e-003,-9.22744523794858e-004
1.42792792792793e+006	9.55437380461008e-001,1.91239704807165e-002	8.91252390779840e-004,-3.82479409614330e-004
1.43783783783784e+006	9.52107033208258e-001,7.05564212837753e-003	9.57859335834836e-004,-1.41112842567551e-004
1.44774774774775e+006	9.62977930592409e-001,-2.07960429551306e-002	7.40441388151825e-004,4.15920859102612e-004
1.45765765765766e+006	9.58780097726699e-001,-5.94745575969218e-002	8.24398045466013e-004,1.18949115193844e-003
1.46756756756756e+006	9.43661389830891e-001,-1.02732076463130e-001	1.12677220338217e-003,2.05464152926260e-003
1.47747747747747e+006	9.14816920650372e-001,-1.52434816281692e-001	1.70366158699255e-003,3.04869632563384e-003
1.48738738738738e+006	8.62923940428256e-001,-2.08630059367559e-001	2.74152119143487e-003,4.17260118735118e-003
1.49729729729729e+006	7.70510629189934e-001,-2.63129042792378e-001	4.58978741620131e-003,5.26258085584757e-003
1.50720720720720e+006	6.16383981215730e-001,-2.81335743147954e-001	7.67232037568540e-003,5.62671486295907e-003
1.51711711711711e+006	4.23901261744720e-001,-1.82841054008107e-001	1.15219747651056e-002,3.65682108016213e-003
1.52702702702702e+006	3.38143419841938e-001,5.67746976097110e-002	1.32371316031612e-002,-1.13549395219422e-003
1.53693693693693e+006	4.34944872389248e-001,2.65813892042598e-001	1.13011025522150e-002,-5.31627784085196e-003
1.54684684684684e+006	5.84318919058045e-001,3.47391666578320e-001	8.31362161883911e-003,-6.94783333156641e-003
1.55675675675675e+006	7.01743121790844e-001,3.52843466581385e-001	5.96513756418311e-003,-7.05686933162770e-003
1.56666666666666e+006	7.81407925328150e-001,3.31049616285190e-001	4.37184149343700e-003,-6.62099232570379e-003
1.57657657657657e+006	8.34905145299382e-001,3.02490642617765e-001	3.30189709401236e-003,-6.04981285235530e-003
1.58648648648648e+006	8.71844125741974e-001,2.74004103964585e-001	2.56311748516053e-003,-5.48008207929171e-003
1.59639639639639e+006	8.98268821949878e-001,2.47503029909063e-001	2.03462356100244e-003,-4.95006059818127e-003
1.60630630630630e+006	9.17815850520685e-001,2.23254505732014e-001	1.64368298958630e-003,-4.46509011464028e-003
1.61621621621621e+006	9.32696867291359e-001,2.01010610445421e-001	1.34606265417281e-003,-4.02021220890843e-003
1.62612612612612e+006	9.44289724305516e-001,1.80388244534663e-001	1.11420551388969e-003,-3.60776489069326e-003
1.63603603603603e+006	9.53470865938923e-001,1.60986466497822e-001	9.30582681221546e-004,-3.21972932995644e-003
1.64594594594594e+006	9.60797726608442e-001,1.42406867472968e-001	7.84045467831160e-004,-2.84813734945936e-003
1.65585585585585e+006	9.66598689486154e-001,1.24228907374482e-001	6.68026210276915e-004,-2.48457814748963e-003
1.66576576576576e+006	9.70981881200900e-001,1.05944079817721e-001	5.80362375982009e-004,-2.11888159635442e-003
1.67567567567567e+006	9.73688123050287e-001,8.68164865919739e-002	5.26237538994268e-004,-1.73632973183948e-003
1.68558558558558e+006	9.73337184428908e-001,6.56493954171080e-002	5.33256311421844e-004,-1.31298790834216e-003
1.69549549549549e+006	9.63574709635286e-001,4.22877495135290e-002	7.28505807294284e-004,-8.45754990270580e-004
1.70540540540540e+006	9.40305757630046e-001,4.32014788711730e-002	1.19388484739909e-003,-8.64029577423461e-004
1.71531531531531e+006	9.58957221226908e-001,4.21723008212638e-002	8.20855575461841e-004,-8.43446016425277e-004
1.72522522522522e+006	9.60545164390547e-001,1.12562146790280e-002	7.89096712189068e-004,-2.25124293580561e-004
1.73513513513513e+006	9.31302884139812e-001,-2.38957510321297e-002	1.37394231720375e-003,4.77915020642595e-004
1.74504504504504e+006	8.51945666681797e-001,2.72883753137680e-003	2.96108666636407e-003,-5.45767506275359e-005
1.75495495495495e+006	9.01569384790890e-001,8.38048115469522e-002	1.96861230418220e-003,-1.67609623093904e-003
1.76486486486486e+006	9.52753571439900e-001,6.02105219075020e-002	9.44928571202006e-004,-1.20421043815004e-003
1.77477477477477e+006	9.66510601769059e-001,2.73841836411920e-002	6.69787964618826e-004,-5.47683672823840e-004
1.78468468468468e+006	9.59719685540543e-001,-3.49132684948624e-003	8.05606289189140e-004,6.98265369897248e-005
1.79459459459459e+006	9.23290247613682e-001,-6.10036905384993e-003	1.53419504772636e-003,1.22007381076999e-004
1.80450450450450e+006	9.49106789069355e-001,2.52724591534697e-002	1.01786421861290e-003,-5.05449183069395e-004
1.81441441441441e+006	9.73512395933533e-001,3.22336014361874e-003	5.29752081329340e-004,-6.44672028723748e-005
1.82432432432432e+006	9.80270298370793e-001,-1.91875902593131e-002	3.94594032584139e-004,3.83751805186261e-004
1.83423423423423e+006	9.81915464678049e-001,-3.92674340956799e-002	3.61690706439008e-004,7.85348681913599e-004
1.84414414414414e+006	9.81167270103300e-001,-5.78295525844417e-002	3.76654597934007e-004,1.15659105168883e-003
1.85405405405405e+006	9.79039929114159e-001,-7.56823914741553e-002	4.19201417716828e-004,1.51364782948311e-003
1.86396396396396e+006	9.75821005087923e-001,-9.33549305863854e-002	4.83579898241548e-004,1.86709861172771e-003
