Freq.	V(1|1|1|a)	I(R129)
1.00000000000000e+005	1.66664945157831e-002,6.84858846597995e-002	1.96666701096843e-002,-1.36971769319599e-003
1.09909909909910e+005	1.76648806516072e-002,7.52217400610320e-002	1.96467023869679e-002,-1.50443480122064e-003
1.19819819819820e+005	1.87567732833429e-002,8.19431655551095e-002	1.96248645343331e-002,-1.63886331110219e-003
1.29729729729730e+005	1.99419668789860e-002,8.86488718424925e-002	1.96011606624203e-002,-1.77297743684985e-003
1.39639639639640e+005	2.12202383947624e-002,9.53375726627323e-002	1.95755952321048e-002,-1.90675145325465e-003
1.49549549549550e+005	2.25913473306059e-002,1.02007985044102e-001	1.95481730533879e-002,-2.04015970088204e-003
1.59459459459459e+005	2.40550357903672e-002,1.08658829552795e-001	1.95188992841927e-002,-2.17317659105590e-003
1.69369369369369e+005	2.56110285468283e-002,1.15288830541648e-001	1.94877794290634e-002,-2.30577661083295e-003
1.79279279279279e+005	2.72590331116123e-002,1.21896716398349e-001	1.94548193377678e-002,-2.43793432796697e-003
1.89189189189189e+005	2.89987398100796e-002,1.28481219793081e-001	1.94200252037984e-002,-2.56962439586163e-003
1.99099099099099e+005	3.08298218613146e-002,1.35041077925560e-001	1.93834035627737e-002,-2.70082155851119e-003
2.09009009009009e+005	3.27519354633161e-002,1.41575032771404e-001	1.93449612907337e-002,-2.83150065542807e-003
2.18918918918919e+005	3.47647198835102e-002,1.48081831327805e-001	1.93047056023298e-002,-2.96163662655610e-003
2.28828828828829e+005	3.68677975547218e-002,1.54560225858427e-001	1.92626440489056e-002,-3.09120451716853e-003
2.38738738738739e+005	3.90607741767459e-002,1.61008974137484e-001	1.92187845164651e-002,-3.22017948274967e-003
2.48648648648649e+005	4.13432388236784e-002,1.67426839692941e-001	1.91731352235264e-002,-3.34853679385881e-003
2.58558558558559e+005	4.37147640571746e-002,1.73812592048771e-001	1.91257047188565e-002,-3.47625184097543e-003
2.68468468468468e+005	4.61749060458231e-002,1.80165006966208e-001	1.90765018790835e-002,-3.60330013932415e-003
2.78378378378378e+005	4.87232046908367e-002,1.86482866683919e-001	1.90255359061833e-002,-3.72965733367838e-003
2.88288288288288e+005	5.13591837582814e-002,1.92764960157046e-001	1.89728163248344e-002,-3.85529920314092e-003
2.98198198198198e+005	5.40823510180852e-002,1.99010083295016e-001	1.89183529796383e-002,-3.98020166590032e-003
3.08108108108108e+005	5.68921983900897e-002,2.05217039198069e-001	1.88621560321982e-002,-4.10434078396138e-003
3.18018018018018e+005	5.97882020974340e-002,2.11384638392409e-001	1.88042359580513e-002,-4.22769276784818e-003
3.27927927927928e+005	6.27698228275878e-002,2.17511699063899e-001	1.87446035434482e-002,-4.35023398127797e-003
3.37837837837838e+005	6.58365059013822e-002,2.23597047290217e-001	1.86832698819724e-002,-4.47194094580434e-003
3.47747747747748e+005	6.89876814504216e-002,2.29639517271383e-001	1.86202463709916e-002,-4.59279034542767e-003
3.57657657657657e+005	7.22227646032998e-002,2.35637951558562e-001	1.85555447079340e-002,-4.71275903117124e-003
3.67567567567567e+005	7.55411556810881e-002,2.41591201281046e-001	1.84891768863782e-002,-4.83182402562092e-003
3.77477477477477e+005	7.89422404026153e-002,2.47498126371325e-001	1.84211551919477e-002,-4.94996252742651e-003
3.87387387387387e+005	8.24253901001118e-002,2.53357595788132e-001	1.83514921979978e-002,-5.06715191576265e-003
3.97297297297297e+005	8.59899619458618e-002,2.59168487737364e-001	1.82802007610828e-002,-5.18336975474728e-003
4.07207207207207e+005	8.96352991905763e-002,2.64929689890765e-001	1.82072940161885e-002,-5.29859379781531e-003
4.17117117117117e+005	9.33607314142837e-002,2.70640099602264e-001	1.81327853717143e-002,-5.41280199204529e-003
4.27027027027027e+005	9.71655747906376e-002,2.76298624121841e-001	1.80566885041872e-002,-5.52597248243681e-003
4.36936936936936e+005	1.01049132365642e-001,2.81904180806807e-001	1.79790173526872e-002,-5.63808361613614e-003
4.46846846846846e+005	1.05010694351927e-001,2.87455697330382e-001	1.78997861129615e-002,-5.74911394660765e-003
4.56756756756756e+005	1.09049538439860e-001,2.92952111887426e-001	1.78190092312028e-002,-5.85904223774852e-003
4.66666666666666e+005	1.13164930126923e-001,2.98392373397202e-001	1.77367013974615e-002,-5.96784746794405e-003
4.76576576576576e+005	1.17356123067016e-001,3.03775441703047e-001	1.76528775386597e-002,-6.07550883406094e-003
4.86486486486486e+005	1.21622359441538e-001,3.09100287768787e-001	1.75675528111693e-002,-6.18200575537573e-003
4.96396396396396e+005	1.25962870354381e-001,3.14365893871780e-001	1.74807425929124e-002,-6.28731787743560e-003
5.06306306306306e+005	1.30376876253280e-001,3.19571253792431e-001	1.73924624749344e-002,-6.39142507584861e-003
5.16216216216216e+005	1.34863587380297e-001,3.24715373000020e-001	1.73027282523941e-002,-6.49430746000041e-003
5.26126126126125e+005	1.39422204254658e-001,3.29797268834715e-001	1.72115559149068e-002,-6.59594537669431e-003
5.36036036036035e+005	1.44051918191664e-001,3.34815970685579e-001	1.71189616361667e-002,-6.69631941371158e-003
5.45945945945945e+005	1.48751911861932e-001,3.39770520164435e-001	1.70249617627614e-002,-6.79541040328871e-003
5.55855855855855e+005	1.53521359895969e-001,3.44659971275411e-001	1.69295728020806e-002,-6.89319942550822e-003
5.65765765765765e+005	1.58359429539861e-001,3.49483390579978e-001	1.68328114092028e-002,-6.98966781159957e-003
5.75675675675675e+005	1.63265281368826e-001,3.54239857357318e-001	1.67346943726235e-002,-7.08479714714635e-003
5.85585585585585e+005	1.68238070066581e-001,3.58928463759800e-001	1.66352385986684e-002,-7.17856927519599e-003
5.95495495495495e+005	1.73276945279813e-001,3.63548314963385e-001	1.65344610944037e-002,-7.27096629926769e-003
6.05405405405405e+005	1.78381052558759e-001,3.68098529312705e-001	1.64323789488248e-002,-7.36197058625409e-003
6.15315315315315e+005	1.83549534396921e-001,3.72578238460581e-001	1.63290093120616e-002,-7.45156476921162e-003
6.25225225225225e+005	1.88781531385370e-001,3.76986587501696e-001	1.62243693722926e-002,-7.53973175003392e-003
6.35135135135135e+005	1.94076183500138e-001,3.81322735100087e-001	1.61184763299972e-002,-7.62645470200174e-003
6.45045045045045e+005	1.99432631544824e-001,3.85585853610084e-001	1.60113473691035e-002,-7.71171707220168e-003
6.54954954954955e+005	2.04850018775087e-001,3.89775129190224e-001	1.59029996244983e-002,-7.79550258380447e-003
6.64864864864865e+005	2.10327492737259e-001,3.93889761909561e-001	1.57934501452548e-002,-7.87779523819121e-003
6.74774774774775e+005	2.15864207360256e-001,3.97928965845659e-001	1.56827158527949e-002,-7.95857931691318e-003
6.84684684684685e+005	2.21459325348658e-001,4.01891969173316e-001	1.55708134930268e-002,-8.03783938346633e-003
6.94594594594594e+005	2.27112020935679e-001,4.05778014242801e-001	1.54577595812864e-002,-8.11556028485601e-003
7.04504504504504e+005	2.32821483068591e-001,4.09586357645960e-001	1.53435703386282e-002,-8.19172715291920e-003
7.14414414414414e+005	2.38586919116648e-001,4.13316270268002e-001	1.52282616176670e-002,-8.26632540536004e-003
7.24324324324324e+005	2.44407559214083e-001,4.16967037321936e-001	1.51118488157183e-002,-8.33934074643872e-003
7.34234234234234e+005	2.50282661379701e-001,4.20537958361534e-001	1.49943467724060e-002,-8.41075916723067e-003
7.44144144144144e+005	2.56211517592348e-001,4.24028347267047e-001	1.48757696481530e-002,-8.48056694534094e-003
7.54054054054054e+005	2.62193461050911e-001,4.27437532195606e-001	1.47561307789818e-002,-8.54875064391212e-003
7.63963963963964e+005	2.68227874912871e-001,4.30764855484873e-001	1.46354425017426e-002,-8.61529710969746e-003
7.73873873873874e+005	2.74314202892534e-001,4.34009673493659e-001	1.45137159421493e-002,-8.68019346987318e-003
7.83783783783784e+005	2.80451962217440e-001,4.37171356356075e-001	1.43909607556512e-002,-8.74342712712151e-003
7.93693693693694e+005	2.86640759601149e-001,4.40249287615197e-001	1.42671848079770e-002,-8.80498575230394e-003
8.03603603603604e+005	2.92880311110324e-001,4.43242863686384e-001	1.41423937777935e-002,-8.86485727372768e-003
8.13513513513514e+005	2.99170467109995e-001,4.46151493076407e-001	1.40165906578001e-002,-8.92302986152814e-003
8.23423423423424e+005	3.05511243902418e-001,4.48974595247715e-001	1.38897751219516e-002,-8.97949190495430e-003
8.33333333333334e+005	3.11902864292022e-001,4.51711598959937e-001	1.37619427141596e-002,-9.03423197919874e-003
8.43243243243244e+005	3.18345810204826e-001,4.54361939830299e-001	1.36330837959035e-002,-9.08723879660598e-003
8.53153153153153e+005	3.24840891812705e-001,4.56925056709362e-001	1.35031821637459e-002,-9.13850113418724e-003
8.63063063063063e+005	3.31389339599007e-001,4.59400386230717e-001	1.33722132080199e-002,-9.18800772461434e-003
8.72972972972973e+005	3.37992928844921e-001,4.61787354495817e-001	1.32401414231016e-002,-9.23574708991633e-003
8.82882882882883e+005	3.44654150780119e-001,4.64085364175191e-001	1.31069169843976e-002,-9.28170728350381e-003
8.92792792792793e+005	3.51376452281277e-001,4.66293774113342e-001	1.29724709543745e-002,-9.32587548226684e-003
9.02702702702703e+005	3.58164578586703e-001,4.68411866365845e-001	1.28367084282659e-002,-9.36823732731690e-003
9.12612612612613e+005	3.65025074856865e-001,4.70438791561975e-001	1.26994985028627e-002,-9.40877583123950e-003
9.22522522522523e+005	3.71967039924219e-001,4.72373475652419e-001	1.25606592015156e-002,-9.44746951304838e-003
9.32432432432433e+005	3.79003294059361e-001,4.74214455215486e-001	1.24199341188128e-002,-9.48428910430972e-003
9.42342342342343e+005	3.86152253314173e-001,4.75959574603090e-001	1.22769549337165e-002,-9.51919149206179e-003
9.52252252252253e+005	3.93441065909509e-001,4.77605401448519e-001	1.21311786818098e-002,-9.55210802897039e-003
9.62162162162163e+005	4.00911128379876e-001,4.79146030331470e-001	1.19817774324025e-002,-9.58292060662939e-003
9.72072072072073e+005	4.08628393685891e-001,4.80570448785771e-001	1.18274321262822e-002,-9.61140897571541e-003
9.81981981981983e+005	4.16704145372073e-001,4.81856172919155e-001	1.16659170925585e-002,-9.63712345838310e-003
9.91891891891893e+005	4.25341111520435e-001,4.82951861420111e-001	1.14931777695913e-002,-9.65903722840222e-003
1.00180180180180e+006	4.34949742585943e-001,4.83721006694521e-001	1.13010051482811e-002,-9.67442013389041e-003
1.01171171171171e+006	4.46496251665594e-001,4.83706757197378e-001	1.10700749666881e-002,-9.67413514394756e-003
1.02162162162162e+006	4.62764376076029e-001,4.80628785818715e-001	1.07447124784794e-002,-9.61257571637431e-003
1.03153153153153e+006	4.84616016795957e-001,4.53240418159989e-001	1.03076796640809e-002,-9.06480836319978e-003
1.04144144144144e+006	4.44806956606466e-001,4.20585489497346e-001	1.11038608678707e-002,-8.41170978994693e-003
1.05135135135135e+006	4.39348833306406e-001,4.57012603289616e-001	1.12130233338719e-002,-9.14025206579233e-003
1.06126126126126e+006	4.35180528151148e-001,4.73860609579444e-001	1.12963894369770e-002,-9.47721219158889e-003
1.07117117117117e+006	4.50479195439667e-001,4.84042788393796e-001	1.09904160912067e-002,-9.68085576787592e-003
1.08108108108108e+006	4.62356789694064e-001,4.86922769011951e-001	1.07528642061187e-002,-9.73845538023902e-003
1.09099099099099e+006	4.72192011715551e-001,4.88289231329344e-001	1.05561597656890e-002,-9.76578462658687e-003
1.10090090090090e+006	4.81055338597058e-001,4.89076500145023e-001	1.03788932280589e-002,-9.78153000290046e-003
1.11081081081081e+006	4.89384804959920e-001,4.89546224906066e-001	1.02123039008016e-002,-9.79092449812133e-003
1.12072072072072e+006	4.97391376767697e-001,4.89799534739230e-001	1.00521724646461e-002,-9.79599069478459e-003
1.13063063063063e+006	5.05189519857082e-001,4.89883160999842e-001	9.89620960285836e-003,-9.79766321999683e-003
1.14054054054054e+006	5.12846893084396e-001,4.89821265566814e-001	9.74306213831208e-003,-9.79642531133627e-003
1.15045045045045e+006	5.20406175727494e-001,4.89627284710136e-001	9.59187648545013e-003,-9.79254569420272e-003
1.16036036036036e+006	5.27895737058737e-001,4.89309016437994e-001	9.44208525882526e-003,-9.78618032875988e-003
1.17027027027027e+006	5.35335299492038e-001,4.88871041490461e-001	9.29329401015924e-003,-9.77742082980923e-003
1.18018018018018e+006	5.42739150340707e-001,4.88315965209109e-001	9.14521699318587e-003,-9.76631930418218e-003
1.19009009009009e+006	5.50118068245101e-001,4.87645089071978e-001	8.99763863509798e-003,-9.75290178143955e-003
1.20000000000000e+006	5.57480538361884e-001,4.86858784596496e-001	8.85038923276232e-003,-9.73717569192993e-003
1.20990990990991e+006	5.64833557473544e-001,4.85956700441563e-001	8.70332885052911e-003,-9.71913400883126e-003
1.21981981981982e+006	5.72183196102611e-001,4.84937868548250e-001	8.55633607794777e-003,-9.69875737096501e-003
1.22972972972973e+006	5.79535015470379e-001,4.83800743073707e-001	8.40929969059242e-003,-9.67601486147415e-003
1.23963963963964e+006	5.86894400092907e-001,4.82543188697243e-001	8.26211199814186e-003,-9.65086377394486e-003
1.24954954954955e+006	5.94266846744096e-001,4.81162424623366e-001	8.11466306511808e-003,-9.62324849246732e-003
1.25945945945946e+006	6.01658240066434e-001,4.79654923383520e-001	7.96683519867131e-003,-9.59309846767039e-003
1.26936936936937e+006	6.09075140690028e-001,4.78016257156483e-001	7.81849718619945e-003,-9.56032514312967e-003
1.27927927927928e+006	6.16525111752080e-001,4.76240877199041e-001	7.66949776495840e-003,-9.52481754398082e-003
1.28918918918919e+006	6.24017113869942e-001,4.74321802478796e-001	7.51965772260116e-003,-9.48643604957593e-003
1.29909909909910e+006	6.31562007632528e-001,4.72250179498028e-001	7.36875984734944e-003,-9.44500358996056e-003
1.30900900900901e+006	6.39173218480353e-001,4.70014652956652e-001	7.21653563039294e-003,-9.40029305913304e-003
1.31891891891892e+006	6.46867645230145e-001,4.67600449861319e-001	7.06264709539710e-003,-9.35200899722639e-003
1.32882882882883e+006	6.54666937436794e-001,4.64988015794251e-001	6.90666125126411e-003,-9.29976031588502e-003
1.33873873873874e+006	6.62599341136900e-001,4.62150927334313e-001	6.74801317726199e-003,-9.24301854668626e-003
1.34864864864865e+006	6.70702441532467e-001,4.59052589356043e-001	6.58595116935067e-003,-9.18105178712086e-003
1.35855855855856e+006	6.79027361814646e-001,4.55640801088828e-001	6.41945276370708e-003,-9.11281602177656e-003
1.36846846846847e+006	6.87645402870574e-001,4.51838385251493e-001	6.24709194258852e-003,-9.03676770502986e-003
1.37837837837838e+006	6.96658916295687e-001,4.47526075450069e-001	6.06682167408625e-003,-8.95052150900138e-003
1.38828828828829e+006	7.06219753330316e-001,4.42508960086016e-001	5.87560493339368e-003,-8.85017920172032e-003
1.39819819819820e+006	7.16561439896748e-001,4.36444427793894e-001	5.66877120206503e-003,-8.72888855587787e-003
1.40810810810811e+006	7.28054311384507e-001,4.28667823081552e-001	5.43891377230986e-003,-8.57335646163104e-003
1.41801801801802e+006	7.41274359770654e-001,4.17696473551404e-001	5.17451280458691e-003,-8.35392947102807e-003
1.42792792792793e+006	7.56749872985966e-001,3.99475770237641e-001	4.86500254028067e-003,-7.98951540475282e-003
1.43783783783784e+006	7.68574198797271e-001,3.60265764446118e-001	4.62851602405457e-003,-7.20531528892235e-003
1.44774774774775e+006	7.12895920832504e-001,3.25355157413573e-001	5.74208158334992e-003,-6.50710314827146e-003
1.45765765765766e+006	7.31945206036167e-001,3.35824331290903e-001	5.36109587927667e-003,-6.71648662581806e-003
1.46756756756756e+006	6.40049928138565e-001,2.79107772256690e-001	7.19900143722869e-003,-5.58215544513380e-003
1.47747747747747e+006	6.26293443543347e-001,4.03762897663698e-001	7.47413112913306e-003,-8.07525795327396e-003
1.48738738738738e+006	6.84189140288086e-001,4.21010104047373e-001	6.31621719423827e-003,-8.42020208094746e-003
1.49729729729729e+006	7.18044059870008e-001,3.97514267591238e-001	5.63911880259984e-003,-7.95028535182475e-003
1.50720720720720e+006	6.77783794726381e-001,3.58854028763716e-001	6.44432410547239e-003,-7.17708057527432e-003
1.51711711711711e+006	6.79567033517326e-001,4.20902809813286e-001	6.40865932965349e-003,-8.41805619626573e-003
1.52702702702702e+006	7.08889849887008e-001,4.22665183354760e-001	5.82220300225984e-003,-8.45330366709519e-003
1.53693693693693e+006	7.23048380090281e-001,4.25710614342120e-001	5.53903239819437e-003,-8.51421228684239e-003
1.54684684684684e+006	7.39831869728040e-001,4.22557402727517e-001	5.20336260543920e-003,-8.45114805455034e-003
1.55675675675675e+006	7.52430305951589e-001,4.17381126335905e-001	4.95139388096822e-003,-8.34762252671809e-003
1.56666666666666e+006	7.62930264594331e-001,4.12022915104027e-001	4.74139470811337e-003,-8.24045830208053e-003
1.57657657657657e+006	7.72231803331933e-001,4.06672518163094e-001	4.55536393336134e-003,-8.13345036326189e-003
1.58648648648648e+006	7.80756875742086e-001,4.01338931932184e-001	4.38486248515828e-003,-8.02677863864369e-003
1.59639639639639e+006	7.88735948021485e-001,3.96004114051558e-001	4.22528103957030e-003,-7.92008228103115e-003
1.60630630630630e+006	7.96308281015476e-001,3.90647801077172e-001	4.07383437969047e-003,-7.81295602154345e-003
1.61621621621621e+006	8.03564066677230e-001,3.85252080127256e-001	3.92871866645541e-003,-7.70504160254513e-003
1.62612612612612e+006	8.10564735621273e-001,3.79801832382422e-001	3.78870528757454e-003,-7.59603664764844e-003
1.63603603603603e+006	8.17353759220246e-001,3.74284302808802e-001	3.65292481559509e-003,-7.48568605617605e-003
1.64594594594594e+006	8.23962834469422e-001,3.68688557310970e-001	3.52074331061156e-003,-7.37377114621940e-003
1.65585585585585e+006	8.30415632885174e-001,3.63005003008964e-001	3.39168734229653e-003,-7.26010006017928e-003
1.66576576576576e+006	8.36730178545956e-001,3.57224997026498e-001	3.26539642908087e-003,-7.14449994052996e-003
1.67567567567567e+006	8.42920413572780e-001,3.51340531703029e-001	3.14159172854441e-003,-7.02681063406058e-003
1.68558558558558e+006	8.48997260921481e-001,3.45343977526725e-001	3.02005478157038e-003,-6.90687955053450e-003
1.69549549549549e+006	8.54969364774002e-001,3.39227866491359e-001	2.90061270451997e-003,-6.78455732982717e-003
1.70540540540540e+006	8.60843617634212e-001,3.32984701400906e-001	2.78312764731577e-003,-6.65969402801811e-003
1.71531531531531e+006	8.66625542378035e-001,3.26606779026434e-001	2.66748915243931e-003,-6.53213558052868e-003
1.72522522522522e+006	8.72319573141226e-001,3.20086016511226e-001	2.55360853717549e-003,-6.40172033022452e-003
1.73513513513513e+006	8.77929263877929e-001,3.13413770942753e-001	2.44141472244143e-003,-6.26827541885505e-003
1.74504504504504e+006	8.83457443795534e-001,3.06580641516028e-001	2.33085112408931e-003,-6.13161283032055e-003
1.75495495495495e+006	8.88906332453134e-001,2.99576242054121e-001	2.22187335093732e-003,-5.99152484108242e-003
1.76486486486486e+006	8.94277622767042e-001,2.92388928493404e-001	2.11444754465917e-003,-5.84777856986809e-003
1.77477477477477e+006	8.99572536606276e-001,2.85005460645928e-001	2.00854926787449e-003,-5.70010921291857e-003
1.78468468468468e+006	9.04791854360137e-001,2.77410568973138e-001	1.90416291279726e-003,-5.54821137946275e-003
1.79459459459459e+006	9.09935916019024e-001,2.69586383196439e-001	1.80128167961952e-003,-5.39172766392878e-003
1.80450450450450e+006	9.15004585712100e-001,2.61511656605479e-001	1.69990828575801e-003,-5.23023313210958e-003
1.81441441441441e+006	9.19997161998158e-001,2.53160680908565e-001	1.60005676003685e-003,-5.06321361817130e-003
1.82432432432432e+006	9.24912197621523e-001,2.44501717725625e-001	1.50175604756954e-003,-4.89003435451249e-003
1.83423423423423e+006	9.29747153609142e-001,2.35494646315297e-001	1.40505692781717e-003,-4.70989292630593e-003
1.84414414414414e+006	9.34497725295248e-001,2.26087282130190e-001	1.31004549409505e-003,-4.52174564260380e-003
1.85405405405405e+006	9.39156465985763e-001,2.16209317224696e-001	1.21687068028474e-003,-4.32418634449392e-003
1.86396396396396e+006	9.43709772103665e-001,2.05761724045544e-001	1.12580455792669e-003,-4.11523448091089e-003
