Freq.	V(1|1|1|b)	I(R129)
1.00000000000000e+005	6.84881543653760e-002,1.99016763785457e-001	1.86302369126925e-002,-3.98033527570913e-003
1.09909909909910e+005	7.70059575516812e-002,2.16934302936805e-001	1.84598808489664e-002,-4.33868605873610e-003
1.19819819819820e+005	8.61903225848472e-002,2.34381900511245e-001	1.82761935483031e-002,-4.68763801022490e-003
1.29729729729730e+005	9.60081729478713e-002,2.51329428368262e-001	1.80798365410426e-002,-5.02658856736524e-003
1.39639639639640e+005	1.06424924939960e-001,2.67749738820268e-001	1.78715015012008e-002,-5.35499477640536e-003
1.49549549549550e+005	1.17404795268236e-001,2.83618676999665e-001	1.76519040946353e-002,-5.67237353999330e-003
1.59459459459459e+005	1.28911094392522e-001,2.98915077679349e-001	1.74217781121496e-002,-5.97830155358698e-003
1.69369369369369e+005	1.40906507161690e-001,3.13620742314628e-001	1.71818698567662e-002,-6.27241484629255e-003
1.79279279279279e+005	1.53353360262542e-001,3.27720394844710e-001	1.69329327947492e-002,-6.55440789689419e-003
1.89189189189189e+005	1.66213875208216e-001,3.41201616444044e-001	1.66757224958357e-002,-6.82403232888088e-003
1.99099099099099e+005	1.79450405390847e-001,3.54054760428693e-001	1.64109918921831e-002,-7.08109520857387e-003
2.09009009009009e+005	1.93025655816544e-001,3.66272849151423e-001	1.61394868836691e-002,-7.32545698302845e-003
2.18918918918919e+005	2.06902884381378e-001,3.77851455097815e-001	1.58619423123724e-002,-7.55702910195630e-003
2.28828828828829e+005	2.21046083855886e-001,3.88788568602851e-001	1.55790783228823e-002,-7.77577137205703e-003
2.38738738738739e+005	2.35420144077634e-001,3.99084454691091e-001	1.52915971184473e-002,-7.98168909382183e-003
2.48648648648649e+005	2.49990994179968e-001,4.08741501535586e-001	1.50001801164006e-002,-8.17483003071172e-003
2.58558558558559e+005	2.64725724993768e-001,4.17764062953500e-001	1.47054855001246e-002,-8.35528125907000e-003
2.68468468468468e+005	2.79592692037807e-001,4.26158297227434e-001	1.44081461592439e-002,-8.52316594454868e-003
2.78378378378378e+005	2.94561599756350e-001,4.33932004374497e-001	1.41087680048730e-002,-8.67864008748994e-003
2.88288288288288e+005	3.09603567867009e-001,4.41094463791782e-001	1.38079286426598e-002,-8.82188927583564e-003
2.98198198198198e+005	3.24691180846981e-001,4.47656273996842e-001	1.35061763830604e-002,-8.95312547993684e-003
3.08108108108108e+005	3.39798521712340e-001,4.53629195963226e-001	1.32040295657532e-002,-9.07258391926452e-003
3.18018018018018e+005	3.54901191335183e-001,4.59026001330981e-001	1.29019761732963e-002,-9.18052002661961e-003
3.27927927927928e+005	3.69976314599993e-001,4.63860326555963e-001	1.26004737080001e-002,-9.27720653111926e-003
3.37837837837838e+005	3.85002534726907e-001,4.68146533854256e-001	1.22999493054619e-002,-9.36293067708511e-003
3.47747747747748e+005	3.99959997089490e-001,4.71899579602492e-001	1.20008000582102e-002,-9.43799159204983e-003
3.57657657657657e+005	4.14830323831865e-001,4.75134890673976e-001	1.17033935233627e-002,-9.50269781347951e-003
3.67567567567567e+005	4.29596580548599e-001,4.77868249025832e-001	1.14080683890280e-002,-9.55736498051665e-003
3.77477477477477e+005	4.44243236234096e-001,4.80115684705026e-001	1.11151352753181e-002,-9.60231369410051e-003
3.87387387387387e+005	4.58756117640072e-001,4.81893377311316e-001	1.08248776471986e-002,-9.63786754622631e-003
3.97297297297297e+005	4.73122359102918e-001,4.83217565842915e-001	1.05375528179416e-002,-9.66435131685831e-003
4.07207207207207e+005	4.87330348820433e-001,4.84104466755236e-001	1.02533930235913e-002,-9.68208933510471e-003
4.17117117117117e+005	5.01369672471844e-001,4.84570199983765e-001	9.97260655056312e-003,-9.69140399967530e-003
4.27027027027027e+005	5.15231054988420e-001,4.84630722617765e-001	9.69537890023160e-003,-9.69261445235531e-003
4.36936936936936e+005	5.28906301196097e-001,4.84301769860773e-001	9.42187397607805e-003,-9.68603539721546e-003
4.46846846846846e+005	5.42388235967793e-001,4.83598802875572e-001	9.15223528064413e-003,-9.67197605751144e-003
4.56756756756756e+005	5.55670644442633e-001,4.82536963083929e-001	8.88658711114733e-003,-9.65073926167859e-003
4.66666666666666e+005	5.68748212793005e-001,4.81131032473583e-001	8.62503574413990e-003,-9.62262064947167e-003
4.76576576576576e+005	5.81616469948848e-001,4.79395399455400e-001	8.36767060102304e-003,-9.58790798910801e-003
4.86486486486486e+005	5.94271730622208e-001,4.77344029810971e-001	8.11456538755584e-003,-9.54688059621941e-003
4.96396396396396e+005	6.06711039914145e-001,4.74990442273988e-001	7.86577920171710e-003,-9.49980884547975e-003
5.06306306306306e+005	6.18932119730573e-001,4.72347688296442e-001	7.62135760538853e-003,-9.44695376592883e-003
5.16216216216216e+005	6.30933317183581e-001,4.69428335561892e-001	7.38133365632838e-003,-9.38856671123784e-003
5.26126126126125e+005	6.42713555109896e-001,4.66244454822009e-001	7.14572889780209e-003,-9.32488909644019e-003
5.36036036036035e+005	6.54272284798444e-001,4.62807609648266e-001	6.91455430403113e-003,-9.25615219296531e-003
5.45945945945945e+005	6.65609440983874e-001,4.59128848707461e-001	6.68781118032251e-003,-9.18257697414923e-003
5.55855855855855e+005	6.76725399132299e-001,4.55218700186967e-001	6.46549201735401e-003,-9.10437400373934e-003
5.65765765765765e+005	6.87620935018919e-001,4.51087168012596e-001	6.24758129962162e-003,-9.02174336025192e-003
5.75675675675675e+005	6.98297186574299e-001,4.46743729518371e-001	6.03405626851401e-003,-8.93487459036743e-003
5.85585585585585e+005	7.08755617956447e-001,4.42197334242624e-001	5.82488764087106e-003,-8.84394668485248e-003
5.95495495495495e+005	7.18997985789099e-001,4.37456403538477e-001	5.62004028421801e-003,-8.74912807076954e-003
6.05405405405405e+005	7.29026307492417e-001,4.32528830698382e-001	5.41947385015166e-003,-8.65057661396764e-003
6.15315315315315e+005	7.38842831620169e-001,4.27421981301632e-001	5.22314336759663e-003,-8.54843962603265e-003
6.25225225225225e+005	7.48450010107111e-001,4.22142693500282e-001	5.03099979785778e-003,-8.44285387000564e-003
6.35135135135135e+005	7.57850472321204e-001,4.16697277962255e-001	4.84299055357593e-003,-8.33394555924510e-003
6.45045045045045e+005	7.67047000807213e-001,4.11091517190189e-001	4.65905998385574e-003,-8.22183034380377e-003
6.54954954954955e+005	7.76042508600691e-001,4.05330663930249e-001	4.47914982798617e-003,-8.10661327860499e-003
6.64864864864865e+005	7.84840017983853e-001,3.99419438376173e-001	4.30319964032293e-003,-7.98838876752346e-003
6.74774774774775e+005	7.93442640547095e-001,3.93362023859498e-001	4.13114718905810e-003,-7.86724047718997e-003
6.84684684684685e+005	8.01853558411248e-001,3.87162060696491e-001	3.96292883177503e-003,-7.74324121392982e-003
6.94594594594594e+005	8.10076006455608e-001,3.80822637834640e-001	3.79847987088785e-003,-7.61645275669281e-003
7.04504504504504e+005	8.18113255384622e-001,3.74346281905573e-001	3.63773489230756e-003,-7.48692563811146e-003
7.14414414414414e+005	8.25968595451099e-001,3.67734943245218e-001	3.48062809097802e-003,-7.35469886490437e-003
7.24324324324324e+005	8.33645320634914e-001,3.60989978384139e-001	3.32709358730172e-003,-7.21979956768278e-003
7.34234234234234e+005	8.41146713052251e-001,3.54112128438610e-001	3.17706573895499e-003,-7.08224256877219e-003
7.44144144144144e+005	8.48476027339915e-001,3.47101492743197e-001	3.03047945320169e-003,-6.94202985486394e-003
7.54054054054054e+005	8.55636474720230e-001,3.39957496954203e-001	2.88727050559541e-003,-6.79914993908405e-003
7.63963963963964e+005	8.62631206402001e-001,3.32678854715301e-001	2.74737587195998e-003,-6.65357709430602e-003
7.73873873873874e+005	8.69463295908748e-001,3.25263521805287e-001	2.61073408182505e-003,-6.50527043610574e-003
7.83783783783784e+005	8.76135719842490e-001,3.17708641474356e-001	2.47728560315021e-003,-6.35417282948713e-003
7.93693693693694e+005	8.82651336484206e-001,3.10010479408243e-001	2.34697327031588e-003,-6.20020958816486e-003
8.03603603603604e+005	8.89012861492898e-001,3.02164346423471e-001	2.21974277014203e-003,-6.04328692846943e-003
8.13513513513514e+005	8.95222839783593e-001,2.94164506571152e-001	2.09554320432814e-003,-5.88329013142304e-003
8.23423423423424e+005	9.01283612426299e-001,2.86004067782841e-001	1.97432775147403e-003,-5.72008135565682e-003
8.33333333333334e+005	9.07197277093123e-001,2.77674851490360e-001	1.85605445813753e-003,-5.55349702980720e-003
8.43243243243244e+005	9.12965640161579e-001,2.69167236736371e-001	1.74068719676841e-003,-5.38334473472741e-003
8.53153153153153e+005	9.18590158018863e-001,2.60469973082996e-001	1.62819683962274e-003,-5.20939946165991e-003
8.63063063063063e+005	9.24071864346960e-001,2.51569955002762e-001	1.51856271306079e-003,-5.03139910005523e-003
8.72972972972973e+005	9.29411279116350e-001,2.42451948218504e-001	1.41177441767300e-003,-4.84903896437009e-003
8.82882882882883e+005	9.34608293546925e-001,2.33098255364566e-001	1.30783412906150e-003,-4.66196510729132e-003
8.92792792792793e+005	9.39662023205217e-001,2.23488303915441e-001	1.20675953589566e-003,-4.46976607830881e-003
9.02702702702703e+005	9.44570618366677e-001,2.13598132809524e-001	1.10858763266645e-003,-4.27196265619048e-003
9.12612612612613e+005	9.49331016220371e-001,2.03399744261878e-001	1.01337967559257e-003,-4.06799488523756e-003
9.22522522522523e+005	9.53938612429433e-001,1.92860271505240e-001	9.21227751411349e-004,-3.85720543010480e-003
9.32432432432433e+005	9.58386818080843e-001,1.81940887029264e-001	8.32263638383142e-004,-3.63881774058528e-003
9.42342342342343e+005	9.62666448277943e-001,1.70595330042461e-001	7.46671034441133e-004,-3.41190660084922e-003
9.52252252252253e+005	9.66764851947222e-001,1.58767846514992e-001	6.64702961055570e-004,-3.17535693029984e-003
9.62162162162163e+005	9.70664617953343e-001,1.46390164713759e-001	5.86707640933135e-004,-2.92780329427518e-003
9.72072072072073e+005	9.74341523932065e-001,1.33376760319505e-001	5.13169521358694e-004,-2.66753520639010e-003
9.81981981981983e+005	9.77760959060326e-001,1.19616788333641e-001	4.44780818793473e-004,-2.39233576667282e-003
9.91891891891893e+005	9.80870738889212e-001,1.04958724335399e-001	3.82585222215766e-004,-2.09917448670799e-003
1.00180180180180e+006	9.83583406878504e-001,8.91766034069651e-002	3.28331862429927e-004,-1.78353206813930e-003
1.01171171171171e+006	9.85717921642969e-001,7.18805444165313e-002	2.85641567140620e-004,-1.43761088833063e-003
1.02162162162162e+006	9.86700646104936e-001,5.22188998972915e-002	2.65987077901284e-004,-1.04437799794583e-003
1.03153153153153e+006	9.82450865109963e-001,2.86233948717399e-002	3.50982697800744e-004,-5.72467897434798e-004
1.04144144144144e+006	9.70638002856989e-001,9.93972115424509e-003	5.87239942860216e-004,-1.98794423084902e-004
1.05135135135135e+006	9.74224445768361e-001,1.30476314304891e-002	5.15511084632774e-004,-2.60952628609781e-004
1.06126126126126e+006	9.81492771694399e-001,-8.38773179637730e-003	3.70144566112027e-004,1.67754635927546e-004
1.07117117117117e+006	9.83677543366322e-001,-3.99839951407931e-002	3.26449132673563e-004,7.99679902815861e-004
1.08108108108108e+006	9.79046661209164e-001,-7.22245183307587e-002	4.19066775816725e-004,1.44449036661517e-003
1.09099099099099e+006	9.70335472828962e-001,-1.07119754424552e-001	5.93290543420755e-004,2.14239508849105e-003
1.10090090090090e+006	9.56471939446946e-001,-1.46046518118203e-001	8.70561211061074e-004,2.92093036236406e-003
1.11081081081081e+006	9.35183495713504e-001,-1.89962825096599e-001	1.29633008572992e-003,3.79925650193197e-003
1.12072072072072e+006	9.02758060900565e-001,-2.39372243332775e-001	1.94483878198870e-003,4.78744486665550e-003
1.13063063063063e+006	8.53343910339274e-001,-2.93575129741831e-001	2.93312179321453e-003,5.87150259483661e-003
1.14054054054054e+006	7.78172964066740e-001,-3.48644031189980e-001	4.43654071866521e-003,6.97288062379961e-003
1.15045045045045e+006	6.66041706309075e-001,-3.92913511909752e-001	6.67916587381851e-003,7.85827023819505e-003
1.16036036036036e+006	5.09715204288356e-001,-3.99646866011636e-001	9.80569591423288e-003,7.99293732023273e-003
1.17027027027027e+006	3.26743426328640e-001,-3.25780633206809e-001	1.34651314734272e-002,6.51561266413618e-003
1.18018018018018e+006	1.84066284160338e-001,-1.45689866961691e-001	1.63186743167932e-002,2.91379733923382e-003
1.19009009009009e+006	1.59247502691313e-001,8.82933671127162e-002	1.68150499461737e-002,-1.76586734225432e-003
1.20000000000000e+006	2.47627321968423e-001,2.78842491990154e-001	1.50474535606315e-002,-5.57684983980308e-003
1.20990990990991e+006	3.80082719851462e-001,3.85336701062500e-001	1.23983456029708e-002,-7.70673402125000e-003
1.21981981981982e+006	5.05204473276298e-001,4.25956309463398e-001	9.89591053447404e-003,-8.51912618926796e-003
1.22972972972973e+006	6.06416473514848e-001,4.29404460537886e-001	7.87167052970305e-003,-8.58808921075772e-003
1.23963963963964e+006	6.84184240642679e-001,4.15061024668944e-001	6.31631518714642e-003,-8.30122049337887e-003
1.24954954954955e+006	7.43400797126684e-001,3.93255065770668e-001	5.13198405746632e-003,-7.86510131541336e-003
1.25945945945946e+006	7.88869350998356e-001,3.68996456572132e-001	4.22261298003287e-003,-7.37992913144265e-003
1.26936936936937e+006	8.24305384908822e-001,3.44586080641613e-001	3.51389230182356e-003,-6.89172161283226e-003
1.27927927927928e+006	8.52386180310488e-001,3.21010989151947e-001	2.95227639379024e-003,-6.42021978303894e-003
1.28918918918919e+006	8.75004178592310e-001,2.98633392992737e-001	2.49991642815381e-003,-5.97266785985474e-003
1.29909909909910e+006	8.93498585029044e-001,2.77523596532578e-001	2.13002829941913e-003,-5.55047193065156e-003
1.30900900900901e+006	9.08826344671073e-001,2.57620315061344e-001	1.82347310657855e-003,-5.15240630122689e-003
1.31891891891892e+006	9.21680245047510e-001,2.38807654133793e-001	1.56639509904980e-003,-4.77615308267586e-003
1.32882882882883e+006	9.32568832959231e-001,2.20951495443631e-001	1.34862334081538e-003,-4.41902990887262e-003
1.33873873873874e+006	9.41870361300526e-001,2.03915822860806e-001	1.16259277398947e-003,-4.07831645721611e-003
1.34864864864865e+006	9.49869365469160e-001,1.87568905670957e-001	1.00261269061679e-003,-3.75137811341915e-003
1.35855855855856e+006	9.56781554080494e-001,1.71784063700641e-001	8.64368918390128e-004,-3.43568127401282e-003
1.36846846846847e+006	9.62770612688565e-001,1.56437042816125e-001	7.44587746228693e-004,-3.12874085632249e-003
1.37837837837838e+006	9.67958980313930e-001,1.41400365363864e-001	6.40820393721395e-004,-2.82800730727727e-003
1.38828828828829e+006	9.72433225995855e-001,1.26533457398215e-001	5.51335480082897e-004,-2.53066914796430e-003
1.39819819819820e+006	9.76242436973510e-001,1.11664787863510e-001	4.75151260529807e-004,-2.23329575727020e-003
1.40810810810811e+006	9.79382158404857e-001,9.65561384561325e-002	4.12356831902856e-004,-1.93112276912265e-003
1.41801801801802e+006	9.81733955735279e-001,8.08215082367128e-002	3.65320885294425e-004,-1.61643016473426e-003
1.42792792792793e+006	9.82812693341147e-001,6.37199744022366e-002	3.43746133177070e-004,-1.27439948804473e-003
1.43783783783784e+006	9.80274166962714e-001,4.37686067935331e-002	3.94516660745716e-004,-8.75372135870662e-004
1.44774774774775e+006	9.62255662696733e-001,2.85423787809442e-002	7.54886746065344e-004,-5.70847575618884e-004
1.45765765765766e+006	9.69980637000125e-001,3.00162681095538e-002	6.00387259997492e-004,-6.00325362191076e-004
1.46756756756756e+006	9.64661061186562e-001,-1.51294530268937e-003	7.06778776268755e-004,3.02589060537873e-005
1.47747747747747e+006	9.03365850154744e-001,-1.05165244915399e-002	1.93268299690513e-003,2.10330489830799e-004
1.48738738738738e+006	9.35630305722088e-001,6.13789111926022e-002	1.28739388555823e-003,-1.22757822385204e-003
1.49729729729729e+006	9.71893229743671e-001,3.27744074951946e-002	5.62135405126583e-004,-6.55488149903891e-004
1.50720720720720e+006	9.72732880610779e-001,2.74162649233855e-003	5.45342387784427e-004,-5.48325298467710e-005
1.51711711711711e+006	9.50071226870349e-001,4.73718385972070e-003	9.98575462593010e-004,-9.47436771944140e-005
1.52702702702702e+006	9.78049439734474e-001,3.67121438197249e-003	4.39011205310511e-004,-7.34242876394497e-005
1.53693693693693e+006	9.85873742229253e-001,-1.73281119940424e-002	2.82525155414939e-004,3.46562239880847e-004
1.54684684684684e+006	9.87347034094891e-001,-3.55900903959609e-002	2.53059318102173e-004,7.11801807919218e-004
1.55675675675675e+006	9.86770493175882e-001,-5.20993292515056e-002	2.64590136482354e-004,1.04198658503011e-003
1.56666666666666e+006	9.85199059224755e-001,-6.77998997334713e-002	2.96018815504890e-004,1.35599799466943e-003
1.57657657657657e+006	9.82900215460586e-001,-8.31732035214887e-002	3.41995690788288e-004,1.66346407042977e-003
1.58648648648648e+006	9.79943002575783e-001,-9.84882165521484e-002	4.01139948484330e-004,1.96976433104297e-003
1.59639639639639e+006	9.76322599545020e-001,-1.13918953136396e-001	4.73548009099605e-004,2.27837906272793e-003
1.60630630630630e+006	9.71995420547100e-001,-1.29592997852022e-001	5.60091589058005e-004,2.59185995704043e-003
1.61621621621621e+006	9.66889991786416e-001,-1.45613770954342e-001	6.62200164271689e-004,2.91227541908684e-003
1.62612612612612e+006	9.60909162198965e-001,-1.62071645993650e-001	7.81816756020692e-004,3.24143291987299e-003
1.63603603603603e+006	9.53928189376424e-001,-1.79049665624937e-001	9.21436212471518e-004,3.58099331249873e-003
1.64594594594594e+006	9.45790085823837e-001,-1.96626153293450e-001	1.08419828352326e-003,3.93252306586900e-003
1.65585585585585e+006	9.36298476701881e-001,-2.14875038837115e-001	1.27403046596238e-003,4.29750077674230e-003
1.66576576576576e+006	9.25207688164968e-001,-2.33863905959683e-001	1.49584623670064e-003,4.67727811919366e-003
1.67567567567567e+006	9.12209442895762e-001,-2.53649125686251e-001	1.75581114208476e-003,5.07298251372502e-003
1.68558558558558e+006	8.96915261184745e-001,-2.74266693881824e-001	2.06169477630510e-003,5.48533387763649e-003
1.69549549549549e+006	8.78833447803079e-001,-2.95716309640046e-001	2.42333104393841e-003,5.91432619280092e-003
1.70540540540540e+006	8.57339499906529e-001,-3.17934516168990e-001	2.85321000186942e-003,6.35869032337980e-003
1.71531531531531e+006	8.31639228774609e-001,-3.40749933814294e-001	3.36721542450781e-003,6.81499867628588e-003
1.72522522522522e+006	8.00725651125844e-001,-3.63809098959521e-001	3.98548697748311e-003,7.27618197919042e-003
1.73513513513513e+006	7.63335617163298e-001,-3.86454381202741e-001	4.73328765673404e-003,7.72908762405482e-003
1.74504504504504e+006	7.17924244816879e-001,-4.07525441625490e-001	5.64151510366241e-003,8.15050883250980e-003
1.75495495495495e+006	6.62702832641158e-001,-4.25044715924612e-001	6.74594334717685e-003,8.50089431849225e-003
1.76486486486486e+006	5.95844052877407e-001,-4.35746556447208e-001	8.08311894245185e-003,8.71493112894415e-003
1.77477477477477e+006	5.16065978330528e-001,-4.34456861919432e-001	9.67868043338944e-003,8.68913723838864e-003
1.78468468468468e+006	4.23955403546895e-001,-4.13524944009653e-001	1.15208919290621e-002,8.27049888019306e-003
1.79459459459459e+006	3.24417804377535e-001,-3.63031615215789e-001	1.35116439124493e-002,7.26063230431578e-003
1.80450450450450e+006	2.29949961361837e-001,-2.73382506792662e-001	1.54010007727633e-002,5.46765013585324e-003
1.81441441441441e+006	1.62063423804299e-001,-1.42045381956392e-001	1.67587315239140e-002,2.84090763912783e-003
1.82432432432432e+006	1.45298058168619e-001,1.76081512036871e-002	1.70940388366276e-002,-3.52163024073743e-004
1.83423423423423e+006	1.92247116258836e-001,1.75238862438484e-001	1.61550576748233e-002,-3.50477724876969e-003
1.84414414414414e+006	2.92192422629831e-001,2.98162204568906e-001	1.41561515474034e-002,-5.96324409137811e-003
1.85405405405405e+006	4.17997328007268e-001,3.69710961463853e-001	1.16400534398546e-002,-7.39421922927707e-003
1.86396396396396e+006	5.43500321778085e-001,3.92705050820815e-001	9.12999356443831e-003,-7.85410101641629e-003
