Freq.	V(1|1|1|b)	I(R129)
1.00000000000000e+005	4.55719294798119e-002,1.41660361915605e-001	1.90885614104038e-002,-2.83320723831210e-003
1.09909909909910e+005	4.98699984373413e-002,1.55056977527599e-001	1.90026000312532e-002,-3.10113955055197e-003
1.19819819819820e+005	5.45373824373036e-002,1.68277699564782e-001	1.89092523512539e-002,-3.36555399129563e-003
1.29729729729730e+005	5.95647276166449e-002,1.81309238728226e-001	1.88087054476671e-002,-3.62618477456452e-003
1.39639639639640e+005	6.49420872607758e-002,1.94138917750973e-001	1.87011582547845e-002,-3.88277835501947e-003
1.49549549549550e+005	7.06589688474027e-002,2.06754701533917e-001	1.85868206230519e-002,-4.13509403067835e-003
1.59459459459459e+005	7.67043826271299e-002,2.19145223174673e-001	1.84659123474574e-002,-4.38290446349345e-003
1.69369369369369e+005	8.30668913441126e-002,2.31299805836201e-001	1.83386621731177e-002,-4.62599611672402e-003
1.79279279279279e+005	8.97346607043657e-002,2.43208480443384e-001	1.82053067859127e-002,-4.86416960886768e-003
1.89189189189189e+005	9.66955102082192e-002,2.54861999235440e-001	1.80660897958356e-002,-5.09723998470880e-003
1.99099099099099e+005	1.03936963976484e-001,2.66251845239623e-001	1.79212607204703e-002,-5.32503690479246e-003
2.09009009009009e+005	1.11446301216742e-001,2.77370237766531e-001	1.77710739756652e-002,-5.54740475533061e-003
2.18918918918919e+005	1.19210605996346e-001,2.88210134059216e-001	1.76157878800731e-002,-5.76420268118432e-003
2.28828828828829e+005	1.27216816011666e-001,2.98765227256899e-001	1.74556636797667e-002,-5.97530454513799e-003
2.38738738738739e+005	1.35451770068456e-001,3.09029940859136e-001	1.72909645986309e-002,-6.18059881718272e-003
2.48648648648649e+005	1.43902254015255e-001,3.18999419897718e-001	1.71219549196949e-002,-6.37998839795436e-003
2.58558558558559e+005	1.52555044900136e-001,3.28669519041322e-001	1.69488991019973e-002,-6.57339038082643e-003
2.68468468468468e+005	1.61396953150262e-001,3.38036787871894e-001	1.67720609369948e-002,-6.76073575743788e-003
2.78378378378378e+005	1.70414862603208e-001,3.47098453582186e-001	1.65917027479358e-002,-6.94196907164371e-003
2.88288288288288e+005	1.79595768248356e-001,3.55852401350682e-001	1.64080846350329e-002,-7.11704802701364e-003
2.98198198198198e+005	1.88926811565545e-001,3.64297152653756e-001	1.62214637686891e-002,-7.28594305307512e-003
3.08108108108108e+005	1.98395313376140e-001,3.72431841775274e-001	1.60320937324772e-002,-7.44863683550549e-003
3.18018018018018e+005	2.07988804148502e-001,3.80256190771477e-001	1.58402239170300e-002,-7.60512381542954e-003
3.27927927927928e+005	2.17695051725194e-001,3.87770483143905e-001	1.56460989654961e-002,-7.75540966287810e-003
3.37837837837838e+005	2.27502086463010e-001,3.94975536465848e-001	1.54499582707398e-002,-7.89951072931696e-003
3.47747747747748e+005	2.37398223798772e-001,4.01872674198446e-001	1.52520355240246e-002,-8.03745348396891e-003
3.57657657657657e+005	2.47372084273837e-001,4.08463696921548e-001	1.50525583145233e-002,-8.16927393843096e-003
3.67567567567567e+005	2.57412611068148e-001,4.14750853192036e-001	1.48517477786370e-002,-8.29501706384072e-003
3.77477477477477e+005	2.67509085110571e-001,4.20736810228745e-001	1.46498182977886e-002,-8.41473620457490e-003
3.87387387387387e+005	2.77651137846048e-001,4.26424624608794e-001	1.44469772430790e-002,-8.52849249217588e-003
3.97297297297297e+005	2.87828761751880e-001,4.31817713145162e-001	1.42434247649624e-002,-8.63635426290324e-003
4.07207207207207e+005	2.98032318705237e-001,4.36919824100113e-001	1.40393536258953e-002,-8.73839648200226e-003
4.17117117117117e+005	3.08252546311912e-001,4.41735008873673e-001	1.38349490737618e-002,-8.83470017747347e-003
4.27027027027027e+005	3.18480562312398e-001,4.46267594291090e-001	1.36303887537520e-002,-8.92535188582179e-003
4.36936936936936e+005	3.28707867185802e-001,4.50522155598159e-001	1.34258426562840e-002,-9.01044311196318e-003
4.46846846846846e+005	3.38926345074939e-001,4.54503490258715e-001	1.32214730985012e-002,-9.09006980517430e-003
4.56756756756756e+005	3.49128263157396e-001,4.58216592634464e-001	1.30174347368521e-002,-9.16433185268927e-003
4.66666666666666e+005	3.59306269587439e-001,4.61666629613926e-001	1.28138746082512e-002,-9.23333259227852e-003
4.76576576576576e+005	3.69453390132665e-001,4.64858917244540e-001	1.26109321973467e-002,-9.29717834489079e-003
4.86486486486486e+005	3.79563023627236e-001,4.67798898410029e-001	1.24087395274553e-002,-9.35597796820059e-003
4.96396396396396e+005	3.89628936360626e-001,4.70492121584079e-001	1.22074212727875e-002,-9.40984243168157e-003
5.06306306306306e+005	3.99645255517150e-001,4.72944220681089e-001	1.20070948896570e-002,-9.45888441362178e-003
5.16216216216216e+005	4.09606461777298e-001,4.75160896015459e-001	1.18078707644541e-002,-9.50321792030918e-003
5.26126126126125e+005	4.19507381187037e-001,4.77147896372330e-001	1.16098523762593e-002,-9.54295792744661e-003
5.36036036036035e+005	4.29343176396156e-001,4.78911002185117e-001	1.14131364720769e-002,-9.57822004370234e-003
5.45945945945945e+005	4.39109337361170e-001,4.80456009808363e-001	1.12178132527766e-002,-9.60912019616726e-003
5.55855855855855e+005	4.48801671602663e-001,4.81788716868495e-001	1.10239665679467e-002,-9.63577433736990e-003
5.65765765765765e+005	4.58416294101130e-001,4.82914908669848e-001	1.08316741179774e-002,-9.65829817339695e-003
5.75675675675675e+005	4.67949616909514e-001,4.83840345628889e-001	1.06410076618097e-002,-9.67680691257778e-003
5.85585585585585e+005	4.77398338554810e-001,4.84570751705809e-001	1.04520332289038e-002,-9.69141503411618e-003
5.95495495495495e+005	4.86759433295311e-001,4.85111803799521e-001	1.02648113340938e-002,-9.70223607599042e-003
6.05405405405405e+005	4.96030140294429e-001,4.85469122069612e-001	1.00793971941114e-002,-9.70938244139223e-003
6.15315315315315e+005	5.05207952766535e-001,4.85648261146814e-001	9.89584094466930e-003,-9.71296522293628e-003
6.25225225225225e+005	5.14290607144911e-001,4.85654702192108e-001	9.71418785710177e-003,-9.71309404384217e-003
6.35135135135135e+005	5.23276072316869e-001,4.85493845763548e-001	9.53447855366261e-003,-9.70987691527096e-003
6.45045045045045e+005	5.32162538966173e-001,4.85171005449316e-001	9.35674922067653e-003,-9.70342010898633e-003
6.54954954954955e+005	5.40948409058344e-001,4.84691402225253e-001	9.18103181883312e-003,-9.69382804450507e-003
6.64864864864865e+005	5.49632285500039e-001,4.84060159495205e-001	9.00735428999923e-003,-9.68120318990411e-003
6.74774774774775e+005	5.58212961999643e-001,4.83282298772872e-001	8.83574076000713e-003,-9.66564597545745e-003
6.84684684684685e+005	5.66689413152397e-001,4.82362735964453e-001	8.66621173695206e-003,-9.64725471928905e-003
6.94594594594594e+005	5.75060784769812e-001,4.81306278212171e-001	8.49878430460376e-003,-9.62612556424341e-003
7.04504504504504e+005	5.83326384469906e-001,4.80117621259754e-001	8.33347231060187e-003,-9.60235242519508e-003
7.14414414414414e+005	5.91485672541718e-001,4.78801347302045e-001	8.17028654916564e-003,-9.57602694604091e-003
7.24324324324324e+005	5.99538253094830e-001,4.77361923282155e-001	8.00923493810340e-003,-9.54723846564311e-003
7.34234234234234e+005	6.07483865502096e-001,4.75803699600894e-001	7.85032268995808e-003,-9.51607399201787e-003
7.44144144144144e+005	6.15322376141483e-001,4.74130909204593e-001	7.69355247717034e-003,-9.48261818409187e-003
7.54054054054054e+005	6.23053770440872e-001,4.72347667018878e-001	7.53892459118256e-003,-9.44695334037755e-003
7.63963963963964e+005	6.30678145227805e-001,4.70457969697379e-001	7.38643709544390e-003,-9.40915939394759e-003
7.73873873873874e+005	6.38195701384519e-001,4.68465695655895e-001	7.23608597230961e-003,-9.36931391311791e-003
7.83783783783784e+005	6.45606736807116e-001,4.66374605363926e-001	7.08786526385769e-003,-9.32749210727852e-003
7.93693693693694e+005	6.52911639666447e-001,4.64188341867009e-001	6.94176720667105e-003,-9.28376683734019e-003
8.03603603603604e+005	6.60110881967144e-001,4.61910431514687e-001	6.79778236065712e-003,-9.23820863029373e-003
8.13513513513514e+005	6.67205013400229e-001,4.59544284870334e-001	6.65589973199542e-003,-9.19088569740667e-003
8.23423423423424e+005	6.74194655483933e-001,4.57093197780452e-001	6.51610689032133e-003,-9.14186395560904e-003
8.33333333333334e+005	6.81080495986582e-001,4.54560352582312e-001	6.37839008026835e-003,-9.09120705164623e-003
8.43243243243244e+005	6.87863283624844e-001,4.51948819430095e-001	6.24273432750311e-003,-9.03897638860190e-003
8.53153153153153e+005	6.94543823030131e-001,4.49261557720883e-001	6.10912353939738e-003,-8.98523115441767e-003
8.63063063063063e+005	7.01122969975525e-001,4.46501417602959e-001	5.97754060048950e-003,-8.93002835205919e-003
8.72972972972973e+005	7.07601626855320e-001,4.43671141549958e-001	5.84796746289359e-003,-8.87342283099916e-003
8.82882882882883e+005	7.13980738409019e-001,4.40773365985398e-001	5.72038523181963e-003,-8.81546731970796e-003
8.92792792792793e+005	7.20261287681448e-001,4.37810622943049e-001	5.59477424637104e-003,-8.75621245886098e-003
9.02702702702703e+005	7.26444292210598e-001,4.34785341749442e-001	5.47111415578804e-003,-8.69570683498884e-003
9.12612612612613e+005	7.32530800434697e-001,4.31699850715601e-001	5.34938399130606e-003,-8.63399701431201e-003
9.22522522522523e+005	7.38521888310073e-001,4.28556378825775e-001	5.22956223379854e-003,-8.57112757651550e-003
9.32432432432433e+005	7.44418656131388e-001,4.25357057411581e-001	5.11162687737224e-003,-8.50714114823162e-003
9.42342342342343e+005	7.50222225545924e-001,4.22103921800482e-001	4.99555548908153e-003,-8.44207843600964e-003
9.52252252252253e+005	7.55933736753707e-001,4.18798912928005e-001	4.88132526492587e-003,-8.37597825856009e-003
9.62162162162163e+005	7.61554345885426e-001,4.15443878903466e-001	4.76891308229149e-003,-8.30887757806932e-003
9.72072072072073e+005	7.67085222550251e-001,4.12040576519246e-001	4.65829554899498e-003,-8.24081153038491e-003
9.81981981981983e+005	7.72527547545866e-001,4.08590672693847e-001	4.54944904908267e-003,-8.17181345387694e-003
9.91891891891893e+005	7.77882510723237e-001,4.05095745839075e-001	4.44234978553527e-003,-8.10191491678150e-003
1.00180180180180e+006	7.83151308998846e-001,4.01557287141641e-001	4.33697382002308e-003,-8.03114574283282e-003
1.01171171171171e+006	7.88335144507401e-001,3.97976701749383e-001	4.23329710985199e-003,-7.95953403498766e-003
1.02162162162162e+006	7.93435222888202e-001,3.94355309852057e-001	4.13129554223596e-003,-7.88710619704113e-003
1.03153153153153e+006	7.98452751698690e-001,3.90694347646265e-001	4.03094496602620e-003,-7.81388695292530e-003
1.04144144144144e+006	8.03388938948864e-001,3.86994968173589e-001	3.93222122102272e-003,-7.73989936347178e-003
1.05135135135135e+006	8.08244991750597e-001,3.83258242020303e-001	3.83510016498806e-003,-7.66516484040607e-003
1.06126126126126e+006	8.13022115076083e-001,3.79485157866215e-001	3.73955769847833e-003,-7.58970315732431e-003
1.07117117117117e+006	8.17721510619938e-001,3.75676622869113e-001	3.64556978760124e-003,-7.51353245738226e-003
1.08108108108108e+006	8.22344375759732e-001,3.71833462870032e-001	3.55311248480536e-003,-7.43666925740063e-003
1.09099099099099e+006	8.26891902609988e-001,3.67956422403020e-001	3.46216194780024e-003,-7.35912844806041e-003
1.10090090090090e+006	8.31365277164932e-001,3.64046164491252e-001	3.37269445670136e-003,-7.28092328982503e-003
1.11081081081081e+006	8.35765678525531e-001,3.60103270209149e-001	3.28468642948938e-003,-7.20206540418299e-003
1.12072072072072e+006	8.40094278206610e-001,3.56128237987616e-001	3.19811443586781e-003,-7.12256475975233e-003
1.13063063063063e+006	8.44352239520043e-001,3.52121482636410e-001	3.11295520959914e-003,-7.04242965272820e-003
1.14054054054054e+006	8.48540717030269e-001,3.48083334054087e-001	3.02918565939462e-003,-6.96166668108175e-003
1.15045045045045e+006	8.52660856078564e-001,3.44014035591675e-001	2.94678287842871e-003,-6.88028071183350e-003
1.16036036036036e+006	8.56713792372708e-001,3.39913742031165e-001	2.86572415254583e-003,-6.79827484062330e-003
1.17027027027027e+006	8.60700651638846e-001,3.35782517133919e-001	2.78598696722308e-003,-6.71565034267837e-003
1.18018018018018e+006	8.64622549332464e-001,3.31620330706926e-001	2.70754901335071e-003,-6.63240661413853e-003
1.19009009009009e+006	8.68480590405532e-001,3.27427055126348e-001	2.63038819188935e-003,-6.54854110252697e-003
1.20000000000000e+006	8.72275869126851e-001,3.23202461247547e-001	2.55448261746299e-003,-6.46404922495094e-003
1.20990990990991e+006	8.76009468952665e-001,3.18946213618598e-001	2.47981062094669e-003,-6.37892427237195e-003
1.21981981981982e+006	8.79682462444444e-001,3.14657864899475e-001	2.40635075111113e-003,-6.29315729798950e-003
1.22972972972973e+006	8.83295911230467e-001,3.10336849371241e-001	2.33408177539065e-003,-6.20673698742483e-003
1.23963963963964e+006	8.86850866007453e-001,3.05982475397820e-001	2.26298267985094e-003,-6.11964950795639e-003
1.24954954954955e+006	8.90348366577735e-001,3.01593916676344e-001	2.19303266844531e-003,-6.03187833352688e-003
1.25945945945946e+006	8.93789441916526e-001,2.97170202079435e-001	2.12421116166948e-003,-5.94340404158870e-003
1.26936936936937e+006	8.97175110262306e-001,2.92710203852403e-001	2.05649779475388e-003,-5.85420407704806e-003
1.27927927927928e+006	9.00506379221253e-001,2.88212623878250e-001	1.98987241557494e-003,-5.76425247756500e-003
1.28918918918919e+006	9.03784245873646e-001,2.83675977660675e-001	1.92431508252709e-003,-5.67351955321349e-003
1.29909909909910e+006	9.07009696865877e-001,2.79098575596371e-001	1.85980606268247e-003,-5.58197151192741e-003
1.30900900900901e+006	9.10183708465680e-001,2.74478501007944e-001	1.79632583068639e-003,-5.48957002015888e-003
1.31891891891892e+006	9.13307246549600e-001,2.69813584281050e-001	1.73385506900800e-003,-5.39627168562101e-003
1.32882882882883e+006	9.16381266479490e-001,2.65101372285016e-001	1.67237467041020e-003,-5.30202744570032e-003
1.33873873873874e+006	9.19406712807364e-001,2.60339092042820e-001	1.61186574385272e-003,-5.20678184085641e-003
1.34864864864865e+006	9.22384518722695e-001,2.55523607336851e-001	1.55230962554610e-003,-5.11047214673702e-003
1.35855855855856e+006	9.25315605119649e-001,2.50651366567177e-001	1.49368789760702e-003,-5.01302733134353e-003
1.36846846846847e+006	9.28200879108129e-001,2.45718339685032e-001	1.43598241783743e-003,-4.91436679370064e-003
1.37837837837838e+006	9.31041231713057e-001,2.40719941356560e-001	1.37917536573885e-003,-4.81439882713120e-003
1.38828828828829e+006	9.33837534387417e-001,2.35650936598527e-001	1.32324931225165e-003,-4.71301873197053e-003
1.39819819819820e+006	9.36590633784085e-001,2.30505323862051e-001	1.26818732431830e-003,-4.61010647724101e-003
1.40810810810811e+006	9.39301343953731e-001,2.25276188761324e-001	1.21397312092538e-003,-4.50552377522648e-003
1.41801801801802e+006	9.41970434701557e-001,2.19955519104682e-001	1.16059130596886e-003,-4.39911038209364e-003
1.42792792792793e+006	9.44598614143606e-001,2.14533968198355e-001	1.10802771712789e-003,-4.29067936396710e-003
1.43783783783784e+006	9.47186502379058e-001,2.09000547939965e-001	1.05626995241884e-003,-4.18001095879929e-003
1.44774774774775e+006	9.49734591326439e-001,2.03342224986149e-001	1.00530817347122e-003,-4.06684449972298e-003
1.45765765765766e+006	9.52243182587131e-001,1.97543380563821e-001	9.55136348257386e-004,-3.95086761127641e-003
1.46756756756756e+006	9.54712289614175e-001,1.91585074351893e-001	9.05754207716494e-004,-3.83170148703785e-003
1.47747747747747e+006	9.57141480343440e-001,1.85444020027432e-001	8.57170393131206e-004,-3.70888040054863e-003
1.48738738738738e+006	9.59529617406571e-001,1.79091124800020e-001	8.09407651868588e-004,-3.58182249600040e-003
1.49729729729729e+006	9.61874415656092e-001,1.72489348747072e-001	7.62511686878162e-004,-3.44978697494144e-003
1.50720720720720e+006	9.64171659516739e-001,1.65590464031579e-001	7.16566809665229e-004,-3.31180928063157e-003
1.51711711711711e+006	9.66413753492374e-001,1.58329958324633e-001	6.71724930152524e-004,-3.16659916649267e-003
1.52702702702702e+006	9.68586881428556e-001,1.50618648629854e-001	6.28262371428880e-004,-3.01237297259708e-003
1.53693693693693e+006	9.70665032274561e-001,1.42328111892604e-001	5.86699354508773e-004,-2.84656223785209e-003
1.54684684684684e+006	9.72596259754076e-001,1.33263661776333e-001	5.48074804918488e-004,-2.66527323552666e-003
1.55675675675675e+006	9.74267199367223e-001,1.23110176824917e-001	5.14656012655539e-004,-2.46220353649835e-003
1.56666666666666e+006	9.75396245670295e-001,1.11313904463850e-001	4.92075086594095e-004,-2.22627808927700e-003
1.57657657657657e+006	9.75138100497351e-001,9.68120674973151e-002	4.97237990052986e-004,-1.93624134994630e-003
1.58648648648648e+006	9.70176332821110e-001,7.76613364471127e-002	5.96473343577806e-004,-1.55322672894225e-003
1.59639639639639e+006	9.45476947054338e-001,5.85385575243475e-002	1.09046105891325e-003,-1.17077115048695e-003
1.60630630630630e+006	9.30730894999230e-001,8.87064350523123e-002	1.38538210001541e-003,-1.77412870104625e-003
1.61621621621621e+006	9.56915925342197e-001,7.65705385609782e-002	8.61681493156064e-004,-1.53141077121956e-003
1.62612612612612e+006	9.56006771261974e-001,4.19200112493706e-002	8.79864574760525e-004,-8.38400224987413e-004
1.63603603603603e+006	9.19820971646809e-001,-1.50798156022208e-003	1.60358056706383e-003,3.01596312044417e-005
1.64594594594594e+006	8.07572197386366e-001,1.77059432984411e-002	3.84855605227268e-003,-3.54118865968821e-004
1.65585585585585e+006	8.37865142362942e-001,1.54613594456224e-001	3.24269715274117e-003,-3.09227188912448e-003
1.66576576576576e+006	9.18651091372491e-001,1.51730982314115e-001	1.62697817255018e-003,-3.03461964628230e-003
1.67567567567567e+006	9.50691666690607e-001,1.22481157766888e-001	9.86166666187862e-004,-2.44962315533776e-003
1.68558558558558e+006	9.64029075144452e-001,9.46166700751279e-002	7.19418497110953e-004,-1.89233340150256e-003
1.69549549549549e+006	9.68518557982337e-001,6.69403726004069e-002	6.29628840353253e-004,-1.33880745200814e-003
1.70540540540540e+006	9.63764465463349e-001,3.55936574428640e-002	7.24710690733024e-004,-7.11873148857280e-004
1.71531531531531e+006	9.34638826750602e-001,-6.93374168836636e-004	1.30722346498797e-003,1.38674833767327e-005
1.72522522522522e+006	8.56477680804704e-001,2.43598967235645e-002	2.87044638390592e-003,-4.87197934471291e-004
1.73513513513513e+006	9.07244052954934e-001,9.52108289998415e-002	1.85511894090131e-003,-1.90421657999683e-003
1.74504504504504e+006	9.52798119038978e-001,6.80725182670162e-002	9.44037619220439e-004,-1.36145036534032e-003
1.75495495495495e+006	9.65696653132793e-001,3.30825808083093e-002	6.86066937344145e-004,-6.61651616166187e-004
1.76486486486486e+006	9.65095920353498e-001,-2.18437166179836e-004	6.98081592930031e-004,4.36874332359671e-006
1.77477477477477e+006	9.59894749989961e-001,-3.52643369657123e-002	8.02105000200786e-004,7.05286739314245e-004
1.78468468468468e+006	9.42381811518473e-001,-7.99372052972510e-002	1.15236376963054e-003,1.59874410594502e-003
1.79459459459459e+006	9.00265184111200e-001,-1.33901129345014e-001	1.99469631777600e-003,2.67802258690028e-003
1.80450450450450e+006	8.03284812772846e-001,-1.86163686836663e-001	3.93430374454307e-003,3.72327373673327e-003
1.81441441441441e+006	6.17881698440443e-001,-1.46943174963878e-001	7.64236603119115e-003,2.93886349927755e-003
1.82432432432432e+006	5.48697426343297e-001,1.03947963163601e-001	9.02605147313406e-003,-2.07895926327203e-003
1.83423423423423e+006	7.15242705742911e-001,2.37020338769330e-001	5.69514588514177e-003,-4.74040677538660e-003
1.84414414414414e+006	8.40751994424854e-001,2.17000089404920e-001	3.18496011150293e-003,-4.34000178809840e-003
1.85405405405405e+006	9.02622358265405e-001,1.67154032009135e-001	1.94755283469190e-003,-3.34308064018270e-003
1.86396396396396e+006	9.30820179229216e-001,1.15026145057813e-001	1.38359641541567e-003,-2.30052290115625e-003
