Freq.	V(1|1|1|a)	I(R129)
1.00000000000000e+005	1.66664936894813e-002,6.84858818364170e-002	1.96666701262104e-002,-1.36971763672834e-003
1.09909909909910e+005	1.76648793129236e-002,7.52217355390090e-002	1.96467024137415e-002,-1.50443471078018e-003
1.19819819819820e+005	1.87567711840548e-002,8.19431585909971e-002	1.96248645763189e-002,-1.63886317181994e-003
1.29729729729730e+005	1.99419636784752e-002,8.86488614665219e-002	1.96011607264305e-002,-1.77297722933044e-003
1.39639639639640e+005	2.12202336344392e-002,9.53375576343915e-002	1.95755953273112e-002,-1.90675115268783e-003
1.49549549549550e+005	2.25913404033373e-002,1.02007963802725e-001	1.95481731919333e-002,-2.04015927605451e-003
1.59459459459459e+005	2.40550259042524e-002,1.08658800162857e-001	1.95188994819150e-002,-2.17317600325714e-003
1.69369369369369e+005	2.56110146826047e-002,1.15288790632434e-001	1.94877797063479e-002,-2.30577581264868e-003
1.79279279279279e+005	2.72590139728996e-002,1.21896663097650e-001	1.94548197205420e-002,-2.43793326195299e-003
1.89189189189189e+005	2.89987137655970e-002,1.28481149654538e-001	1.94200257246881e-002,-2.56962299309076e-003
1.99099099099099e+005	3.08297868781167e-002,1.35040986849269e-001	1.93834042624377e-002,-2.70081973698538e-003
2.09009009009009e+005	3.27518890300011e-002,1.41574915917373e-001	1.93449622194000e-002,-2.83149831834745e-003
2.18918918918919e+005	3.47646589222507e-002,1.48081683021814e-001	1.93047068215550e-002,-2.96163366043628e-003
2.28828828828829e+005	3.68677183208559e-002,1.54560039489859e-001	1.92626456335829e-002,-3.09120078979717e-003
2.38738738738739e+005	3.90606721445431e-002,1.61008742048641e-001	1.92187865571091e-002,-3.22017484097281e-003
2.48648648648649e+005	4.13431085567586e-002,1.67426553059362e-001	1.91731378288648e-002,-3.34853106118724e-003
2.58558558558559e+005	4.37145990619110e-002,1.73812240750042e-001	1.91257080187618e-002,-3.47624481500085e-003
2.68468468468468e+005	4.61746986058974e-002,1.80164579446735e-001	1.90765060278821e-002,-3.60329158893470e-003
2.78378378378378e+005	4.87229456809352e-002,1.86482349803128e-001	1.90255410863813e-002,-3.72964699606255e-003
2.88288288288288e+005	5.13588624347257e-002,1.92764339028435e-001	1.89728227513055e-002,-3.85528678056870e-003
2.98198198198198e+005	5.40819547839753e-002,1.99009341113498e-001	1.89183609043205e-002,-3.98018682226996e-003
3.08108108108108e+005	5.68917125322997e-002,2.05216157054996e-001	1.88621657493540e-002,-4.10432314109991e-003
3.18018018018018e+005	5.97876094925386e-002,2.11383595077669e-001	1.88042478101492e-002,-4.22767190155338e-003
3.27927927927928e+005	6.27691036135102e-002,2.17510470854466e-001	1.87446179277298e-002,-4.35020941708931e-003
3.37837837837838e+005	6.58356371112319e-002,2.23595607724492e-001	1.86832872577754e-002,-4.47191215448984e-003
3.47747747747748e+005	6.89866366046400e-002,2.29637836908681e-001	1.86202672679072e-002,-4.59275673817362e-003
3.57657657657657e+005	7.22215132558363e-002,2.35635997723050e-001	1.85555697348833e-002,-4.71271995446099e-003
3.67567567567567e+005	7.55396629148953e-002,2.41588937789451e-001	1.84892067417021e-002,-4.83177875578902e-003
3.77477477477477e+005	7.89404662692635e-002,2.47495513243687e-001	1.84211906746147e-002,-4.94991026487374e-003
3.87387387387387e+005	8.24232889977853e-002,2.53354588940873e-001	1.83515342200443e-002,-5.06709177881745e-003
3.97297297297297e+005	8.59874819293897e-002,2.59165038657924e-001	1.82802503614122e-002,-5.18330077315849e-003
4.07207207207207e+005	8.96323812064745e-002,2.64925745293036e-001	1.82073523758705e-002,-5.29851490586073e-003
4.17117117117117e+005	9.33573084530264e-002,2.70635601062024e-001	1.81328538309395e-002,-5.41271202124047e-003
4.27027027027027e+005	9.71615709475142e-002,2.76293507691378e-001	1.80567685810497e-002,-5.52587015382756e-003
4.36936936936936e+005	1.01044461800598e-001,2.81898376607907e-001	1.79791107639880e-002,-5.63796753215815e-003
4.46846846846846e+005	1.05005260137695e-001,2.87449129124801e-001	1.78998947972461e-002,-5.74898258249603e-003
4.56756756756756e+005	1.09043231286451e-001,2.92944696623968e-001	1.78191353742710e-002,-5.85889393247936e-003
4.66666666666666e+005	1.13157626969155e-001,2.98384020734488e-001	1.77368474606169e-002,-5.96768041468977e-003
4.76576576576576e+005	1.17347685500161e-001,3.03766053507015e-001	1.76530462899968e-002,-6.07532107014030e-003
4.86486486486486e+005	1.21612631988355e-001,3.09089757583948e-001	1.75677473602329e-002,-6.18179515167896e-003
4.96396396396396e+005	1.25951678544729e-001,3.14354106365203e-001	1.74809664291054e-002,-6.28708212730406e-003
5.06306306306306e+005	1.30364024495126e-001,3.19558084169391e-001	1.73927195100975e-002,-6.39116168338782e-003
5.16216216216216e+005	1.34848856598210e-001,3.24700686390209e-001	1.73030228680358e-002,-6.49401372780418e-003
5.26126126126125e+005	1.39405349268729e-001,3.29780919647844e-001	1.72118930146254e-002,-6.59561839295688e-003
5.36036036036035e+005	1.44032664806152e-001,3.34797801935176e-001	1.71193467038770e-002,-6.69595603870352e-003
5.45945945945945e+005	1.48729953628744e-001,3.39750362758561e-001	1.70254009274251e-002,-6.79500725517123e-003
5.55855855855855e+005	1.53496354513180e-001,3.44637643272967e-001	1.69300729097364e-002,-6.89275286545934e-003
5.65765765765765e+005	1.58330994839764e-001,3.49458696411209e-001	1.68333801032047e-002,-6.98917392822417e-003
5.75675675675675e+005	1.63232990843376e-001,3.54212587007050e-001	1.67353401831325e-002,-7.08425174014099e-003
5.85585585585585e+005	1.68201447870237e-001,3.58898391911888e-001	1.66359710425953e-002,-7.17796783823776e-003
5.95495495495495e+005	1.73235460640609e-001,3.63515200104758e-001	1.65352907871878e-002,-7.27030400209516e-003
6.05405405405405e+005	1.78334113517561e-001,3.68062112795353e-001	1.64333177296488e-002,-7.36124225590705e-003
6.15315315315315e+005	1.83496480781939e-001,3.72538243519758e-001	1.63300703843612e-002,-7.45076487039516e-003
6.25225225225225e+005	1.88721626913674e-001,3.76942718228581e-001	1.62255674617265e-002,-7.53885436457162e-003
6.35135135135135e+005	1.94008606879621e-001,3.81274675367117e-001	1.61198278624076e-002,-7.62549350734235e-003
6.45045045045045e+005	1.99356466428079e-001,3.85533265947209e-001	1.60128706714384e-002,-7.71066531894418e-003
6.54954954954955e+005	2.04764242390208e-001,3.89717653610397e-001	1.59047151521958e-002,-7.79435307220794e-003
6.64864864864865e+005	2.10230962988563e-001,3.93827014681970e-001	1.57953807402287e-002,-7.87654029363940e-003
6.74774774774775e+005	2.15755648152966e-001,3.97860538215470e-001	1.56848870369407e-002,-7.95721076430941e-003
6.84684684684685e+005	2.21337309844003e-001,4.01817426027193e-001	1.55732538031199e-002,-8.03634852054386e-003
6.94594594594594e+005	2.26974952384421e-001,4.05696892720195e-001	1.54605009523116e-002,-8.11393785440389e-003
7.04504504504504e+005	2.32667572798756e-001,4.09498165697278e-001	1.53466485440249e-002,-8.18996331394556e-003
7.14414414414414e+005	2.38414161161539e-001,4.13220485162381e-001	1.52317167767692e-002,-8.26440970324762e-003
7.24324324324324e+005	2.44213700954490e-001,4.16863104109785e-001	1.51157259809102e-002,-8.33726208219569e-003
7.34234234234234e+005	2.50065169433116e-001,4.20425288300461e-001	1.49986966113377e-002,-8.40850576600922e-003
7.44144144144144e+005	2.55967538003210e-001,4.23906316224882e-001	1.48806492399358e-002,-8.47812632449764e-003
7.54054054054054e+005	2.61919772607780e-001,4.27305479051514e-001	1.47616045478444e-002,-8.54610958103029e-003
7.63963963963964e+005	2.67920834125006e-001,4.30622080560184e-001	1.46415833174999e-002,-8.61244161120368e-003
7.73873873873874e+005	2.73969678777889e-001,4.33855437059423e-001	1.45206064244422e-002,-8.67710874118846e-003
7.83783783783784e+005	2.80065258556309e-001,4.37004877286820e-001	1.43986948288738e-002,-8.74009754573641e-003
7.93693693693694e+005	2.86206521652332e-001,4.40069742291332e-001	1.42758695669534e-002,-8.80139484582664e-003
8.03603603603604e+005	2.92392412909662e-001,4.43049385296390e-001	1.41521517418068e-002,-8.86098770592781e-003
8.13513513513514e+005	2.98621874288242e-001,4.45943171542560e-001	1.40275625142352e-002,-8.91886343085119e-003
8.23423423423424e+005	3.04893845345158e-001,4.48750478108353e-001	1.39021230930968e-002,-8.97500956216706e-003
8.33333333333334e+005	3.11207263733085e-001,4.51470693707694e-001	1.37758547253383e-002,-9.02941387415389e-003
8.43243243243244e+005	3.17561065717687e-001,4.54103218462362e-001	1.36487786856463e-002,-9.08206436924725e-003
8.53153153153153e+005	3.23954186715556e-001,4.56647463647563e-001	1.35209162656889e-002,-9.13294927295126e-003
8.63063063063063e+005	3.30385561854448e-001,4.59102851408609e-001	1.33922887629110e-002,-9.18205702817218e-003
8.72972972972973e+005	3.36854126557780e-001,4.61468814446437e-001	1.32629174688444e-002,-9.22937628892875e-003
8.82882882882883e+005	3.43358817155623e-001,4.63744795669476e-001	1.31328236568876e-002,-9.27489591338952e-003
8.92792792792793e+005	3.49898571524668e-001,4.65930247809054e-001	1.30020285695066e-002,-9.31860495618109e-003
9.02702702702703e+005	3.56472329759966e-001,4.68024632995272e-001	1.28705534048007e-002,-9.36049265990545e-003
9.12612612612613e+005	3.63079034881596e-001,4.70027422289837e-001	1.27384193023681e-002,-9.40054844579674e-003
9.22522522522523e+005	3.69717633579803e-001,4.71938095171987e-001	1.26056473284039e-002,-9.43876190343975e-003
9.32432432432433e+005	3.76387077002634e-001,4.73756138973141e-001	1.24722584599473e-002,-9.47512277946282e-003
9.42342342342343e+005	3.83086321590588e-001,4.75481048255344e-001	1.23382735681882e-002,-9.50962096510688e-003
9.52252252252253e+005	3.89814329963422e-001,4.77112324127989e-001	1.22037134007316e-002,-9.54224648255978e-003
9.62162162162163e+005	3.96570071864939e-001,4.78649473496535e-001	1.20685985627012e-002,-9.57298946993071e-003
9.72072072072073e+005	4.03352525172357e-001,4.80092008236133e-001	1.19329494965529e-002,-9.60184016472267e-003
9.81981981981983e+005	4.10160676977801e-001,4.81439444282094e-001	1.17967864604440e-002,-9.62878888564188e-003
9.91891891891893e+005	4.16993524750489e-001,4.82691300628018e-001	1.16601295049902e-002,-9.65382601256035e-003
1.00180180180180e+006	4.23850077589413e-001,4.83847098221106e-001	1.15229984482117e-002,-9.67694196442212e-003
1.01171171171171e+006	4.30729357577730e-001,4.84906358742658e-001	1.13854128484454e-002,-9.69812717485317e-003
1.02162162162162e+006	4.37630401251724e-001,4.85868603259982e-001	1.12473919749655e-002,-9.71737206519965e-003
1.03153153153153e+006	4.44552261199122e-001,4.86733350733876e-001	1.11089547760176e-002,-9.73466701467753e-003
1.04144144144144e+006	4.51494007803796e-001,4.87500116363394e-001	1.09701198439241e-002,-9.75000232726788e-003
1.05135135135135e+006	4.58454731156498e-001,4.88168409746730e-001	1.08309053768700e-002,-9.76336819493459e-003
1.06126126126126e+006	4.65433543154392e-001,4.88737732833646e-001	1.06913291369122e-002,-9.77475465667293e-003
1.07117117117117e+006	4.72429579815791e-001,4.89207577640838e-001	1.05514084036842e-002,-9.78415155281677e-003
1.08108108108108e+006	4.79442003840803e-001,4.89577423696797e-001	1.04111599231839e-002,-9.79154847393595e-003
1.09099099099099e+006	4.86470007453745e-001,4.89846735177000e-001	1.02705998509251e-002,-9.79693470354000e-003
1.10090090090090e+006	4.93512815569257e-001,4.90014957683337e-001	1.01297436886149e-002,-9.80029915366673e-003
1.11081081081081e+006	5.00569689331340e-001,4.90081514613378e-001	9.98860621337320e-003,-9.80163029226755e-003
1.12072072072072e+006	5.07639930083270e-001,4.90045803055045e-001	9.84720139833460e-003,-9.80091606110090e-003
1.13063063063063e+006	5.14722883836853e-001,4.89907189130033e-001	9.70554232326294e-003,-9.79814378260065e-003
1.14054054054054e+006	5.21817946322156e-001,4.89665002694460e-001	9.56364107355688e-003,-9.79330005388920e-003
1.15045045045045e+006	5.28924568714262e-001,4.89318531287015e-001	9.42150862571477e-003,-9.78637062574030e-003
1.16036036036036e+006	5.36042264152307e-001,4.88867013192407e-001	9.27915471695385e-003,-9.77734026384815e-003
1.17027027027027e+006	5.43170615189002e-001,4.88309629460223e-001	9.13658769621997e-003,-9.76619258920447e-003
1.18018018018018e+006	5.50309282336960e-001,4.87645494684767e-001	8.99381435326080e-003,-9.75290989369535e-003
1.19009009009009e+006	5.57458013912980e-001,4.86873646308363e-001	8.85083972174040e-003,-9.73747292616726e-003
1.20000000000000e+006	5.64616657424477e-001,4.85993032156366e-001	8.70766685151047e-003,-9.71986064312731e-003
1.20990990990991e+006	5.71785172796116e-001,4.85002495843543e-001	8.56429654407768e-003,-9.70004991687085e-003
1.21981981981982e+006	5.78963647802121e-001,4.83900759604199e-001	8.42072704395758e-003,-9.67801519208397e-003
1.22972972972973e+006	5.86152316154791e-001,4.82686403986502e-001	8.27695367690418e-003,-9.65372807973004e-003
1.23963963963964e+006	5.93351578807720e-001,4.81357843707104e-001	8.13296842384560e-003,-9.62715687414208e-003
1.24954954954955e+006	6.00562029169995e-001,4.79913298774379e-001	7.98875941660010e-003,-9.59826597548758e-003
1.25945945945946e+006	6.07784483104807e-001,4.78350759742559e-001	7.84431033790386e-003,-9.56701519485119e-003
1.26936936936937e+006	6.15020014815136e-001,4.76667945633874e-001	7.69959970369727e-003,-9.53335891267748e-003
1.27927927927928e+006	6.22270000018122e-001,4.74862252632229e-001	7.55459999963755e-003,-9.49724505264459e-003
1.28918918918919e+006	6.29536168202452e-001,4.72930691068369e-001	7.40927663595096e-003,-9.45861382136738e-003
1.29909909909910e+006	6.36820666283432e-001,4.70869807422932e-001	7.26358667433136e-003,-9.41739614845865e-003
1.30900900900901e+006	6.44126136665548e-001,4.68675586983202e-001	7.11747726668905e-003,-9.37351173966405e-003
1.31891891891892e+006	6.51455813659617e-001,4.66343331272841e-001	6.97088372680766e-003,-9.32686662545682e-003
1.32882882882883e+006	6.58813643477472e-001,4.63867502239051e-001	6.82372713045055e-003,-9.27735004478101e-003
1.33873873873874e+006	6.66204434781223e-001,4.61241522135608e-001	6.67591130437554e-003,-9.22483044271216e-003
1.34864864864865e+006	6.73634049201471e-001,4.58457513631166e-001	6.52731901597059e-003,-9.16915027262332e-003
1.35855855855856e+006	6.81109644662820e-001,4.55505958189419e-001	6.37780710674361e-003,-9.11011916378837e-003
1.36846846846847e+006	6.88639989220473e-001,4.52375241072505e-001	6.22720021559054e-003,-9.04750482145011e-003
1.37837837837838e+006	6.96235870107077e-001,4.49051036548331e-001	6.07528259785845e-003,-8.98102073096663e-003
1.38828828828829e+006	7.03910632866718e-001,4.45515463918005e-001	5.92178734266564e-003,-8.91030927836010e-003
1.39819819819820e+006	7.11680900433288e-001,4.41745908471304e-001	5.76638199133424e-003,-8.83491816942607e-003
1.40810810810811e+006	7.19567544294728e-001,4.37713341991936e-001	5.60864911410543e-003,-8.75426683983872e-003
1.41801801801802e+006	7.27597013311373e-001,4.33379877826367e-001	5.44805973377253e-003,-8.66759755652734e-003
1.42792792792793e+006	7.35803176072613e-001,4.28695123584721e-001	5.28393647854774e-003,-8.57390247169442e-003
1.43783783783784e+006	7.44229907904177e-001,4.23590587424745e-001	5.11540184191646e-003,-8.47181174849491e-003
1.44774774774775e+006	7.52934762786422e-001,4.17970823795846e-001	4.94130474427156e-003,-8.35941647591693e-003
1.45765765765766e+006	7.61994214865553e-001,4.11698899118247e-001	4.76011570268893e-003,-8.23397798236494e-003
1.46756756756756e+006	7.71511090048864e-001,4.04571504918717e-001	4.56977819902272e-003,-8.09143009837434e-003
1.47747747747747e+006	7.81624695801270e-001,3.96274184062970e-001	4.36750608397459e-003,-7.92548368125940e-003
1.48738738738738e+006	7.92522753125567e-001,3.86295932140504e-001	4.14954493748865e-003,-7.72591864281008e-003
1.49729729729729e+006	8.04447082153202e-001,3.73754616143064e-001	3.91105835693596e-003,-7.47509232286129e-003
1.50720720720720e+006	8.17651899643221e-001,3.57009689144602e-001	3.64696200713559e-003,-7.14019378289204e-003
1.51711711711711e+006	8.32112260679207e-001,3.32720941630373e-001	3.35775478641586e-003,-6.65441883260747e-003
1.52702702702702e+006	8.45887048166936e-001,2.93384858744798e-001	3.08225903666128e-003,-5.86769717489595e-003
1.53693693693693e+006	8.45328804910859e-001,2.21818190893338e-001	3.09342390178282e-003,-4.43636381786676e-003
1.54684684684684e+006	7.53235238279510e-001,1.11891851062823e-001	4.93529523440981e-003,-2.23783702125647e-003
1.55675675675675e+006	5.43173594687040e-001,2.01475259560299e-001	9.13652810625920e-003,-4.02950519120598e-003
1.56666666666666e+006	5.83142441167823e-001,3.71549340532718e-001	8.33715117664354e-003,-7.43098681065437e-003
1.57657657657657e+006	6.61222152870824e-001,4.10734818684477e-001	6.77555694258353e-003,-8.21469637368955e-003
1.58648648648648e+006	7.10402889777660e-001,4.11110075369824e-001	5.79194220444680e-003,-8.22220150739648e-003
1.59639639639639e+006	7.42004608027875e-001,3.99677274255329e-001	5.15990783944250e-003,-7.99354548510659e-003
1.60630630630630e+006	7.53855889295631e-001,3.79894709880462e-001	4.92288221408737e-003,-7.59789419760924e-003
1.61621621621621e+006	7.52633690901734e-001,3.89227049809119e-001	4.94732618196533e-003,-7.78454099618239e-003
1.62612612612612e+006	7.75358053665508e-001,3.91254514166870e-001	4.49283892668985e-003,-7.82509028333740e-003
1.63603603603603e+006	7.92575253941372e-001,3.84130462044665e-001	4.14849492117257e-003,-7.68260924089330e-003
1.64594594594594e+006	8.06086160680416e-001,3.75361200239275e-001	3.87827678639167e-003,-7.50722400478549e-003
1.65585585585585e+006	8.17589522105341e-001,3.65279610306693e-001	3.64820955789318e-003,-7.30559220613387e-003
1.66576576576576e+006	8.26630157076205e-001,3.51996714522828e-001	3.46739685847591e-003,-7.03993429045655e-003
1.67567567567567e+006	8.22145748269980e-001,3.35424303904560e-001	3.55708503460040e-003,-6.70848607809119e-003
1.68558558558558e+006	8.18936194081295e-001,3.48728347826033e-001	3.62127611837409e-003,-6.97456695652066e-003
1.69549549549549e+006	8.36079941234146e-001,3.47957375880464e-001	3.27840117531709e-003,-6.95914751760929e-003
1.70540540540540e+006	8.47920785035765e-001,3.40630304788181e-001	3.04158429928469e-003,-6.81260609576363e-003
1.71531531531531e+006	8.57192564180648e-001,3.32608900112914e-001	2.85614871638704e-003,-6.65217800225827e-003
1.72522522522522e+006	8.65273868750358e-001,3.24437887947810e-001	2.69452262499284e-003,-6.48875775895620e-003
1.73513513513513e+006	8.72503888691139e-001,3.16108355417732e-001	2.54992222617722e-003,-6.32216710835463e-003
1.74504504504504e+006	8.79258811501085e-001,3.08194322690323e-001	2.41482376997831e-003,-6.16388645380645e-003
1.75495495495495e+006	8.86168932719866e-001,2.99772052931779e-001	2.27662134560269e-003,-5.99544105863558e-003
1.76486486486486e+006	8.92394637530582e-001,2.90980349972016e-001	2.15210724938836e-003,-5.81960699944033e-003
1.77477477477477e+006	8.98751186284318e-001,2.82448240430016e-001	2.02497627431364e-003,-5.64896480860032e-003
1.78468468468468e+006	9.05199861974759e-001,2.73047384633751e-001	1.89600276050482e-003,-5.46094769267502e-003
1.79459459459459e+006	9.11404944436719e-001,2.62999830501118e-001	1.77190111126562e-003,-5.25999661002236e-003
1.80450450450450e+006	9.17458906281263e-001,2.52184595853133e-001	1.65082187437474e-003,-5.04369191706267e-003
1.81441441441441e+006	9.23372977124548e-001,2.40288005078644e-001	1.53254045750904e-003,-4.80576010157288e-003
1.82432432432432e+006	9.29068756672207e-001,2.26764971445652e-001	1.41862486655586e-003,-4.53529942891304e-003
1.83423423423423e+006	9.34239867229871e-001,2.10595673550462e-001	1.31520265540257e-003,-4.21191347100924e-003
1.84414414414414e+006	9.37758673055239e-001,1.89671041441426e-001	1.24482653889522e-003,-3.79342082882853e-003
1.85405405405405e+006	9.34729670500752e-001,1.59434454996297e-001	1.30540658998497e-003,-3.18868909992593e-003
1.86396396396396e+006	8.99758582656228e-001,1.17988987206246e-001	2.00482834687544e-003,-2.35977974412492e-003
