Freq.	V(1|1|1|b)	I(R129)
1.00000000000000e+005	6.84684364852423e-002,1.99106119780238e-001	1.86306312702952e-002,-3.98212239560476e-003
1.09909909909910e+005	7.69444789796736e-002,2.16966259207698e-001	1.84611104204065e-002,-4.33932518415396e-003
1.19819819819820e+005	8.60712530124655e-002,2.34342147694198e-001	1.82785749397507e-002,-4.68684295388395e-003
1.29729729729730e+005	9.58131700854000e-002,2.51204096404696e-001	1.80837365982920e-002,-5.02408192809393e-003
1.39639639639640e+005	1.06133174965878e-001,2.67525727384100e-001	1.78773365006824e-002,-5.35051454768200e-003
1.49549549549550e+005	1.16993095202318e-001,2.83283972101525e-001	1.76601380959536e-002,-5.66567944203051e-003
1.59459459459459e+005	1.28353972901526e-001,2.98459049312794e-001	1.74329205419695e-002,-5.96918098625588e-003
1.69369369369369e+005	1.40176379694269e-001,3.13034418693991e-001	1.71964724061146e-002,-6.26068837387982e-003
1.79279279279279e+005	1.52420713939200e-001,3.26996709565431e-001	1.69515857212160e-002,-6.53993419130863e-003
1.89189189189189e+005	1.65047478572825e-001,3.40335625727233e-001	1.66990504285435e-002,-6.80671251454465e-003
1.99099099099099e+005	1.78017537961914e-001,3.53043828454997e-001	1.64396492407617e-002,-7.06087656909994e-003
2.09009009009009e+005	1.91292352351069e-001,3.65116800314090e-001	1.61741529529786e-002,-7.30233600628181e-003
2.18918918918919e+005	2.04834188868660e-001,3.76552692785947e-001	1.59033162226268e-002,-7.53105385571893e-003
2.28828828828829e+005	2.18606308476316e-001,3.87352160843417e-001	1.56278738304737e-002,-7.74704321686834e-003
2.38738738738739e+005	2.32573128673501e-001,3.97518187617607e-001	1.53485374265300e-002,-7.95036375235214e-003
2.48648648648649e+005	2.46700362171706e-001,4.07055902202472e-001	1.50659927565659e-002,-8.14111804404945e-003
2.58558558558559e+005	2.60955132115972e-001,4.15972393472692e-001	1.47808973576806e-002,-8.31944786945384e-003
2.68468468468468e+005	2.75306064745626e-001,4.24276522566374e-001	1.44938787050875e-002,-8.48553045132748e-003
2.78378378378378e+005	2.89723360646894e-001,4.31978736424138e-001	1.42055327870621e-002,-8.63957472848275e-003
2.88288288288288e+005	3.04178845956456e-001,4.39090884494514e-001	1.39164230808709e-002,-8.78181768989027e-003
2.98198198198198e+005	3.18646005028572e-001,4.45626040424240e-001	1.36270798994286e-002,-8.91252080848481e-003
3.08108108108108e+005	3.33099996182347e-001,4.51598330260722e-001	1.33380000763531e-002,-9.03196660521444e-003
3.18018018018018e+005	3.47517652204403e-001,4.57022768410478e-001	1.30496469559119e-002,-9.14045536820956e-003
3.27927927927928e+005	3.61877467300965e-001,4.61915102328006e-001	1.27624506539807e-002,-9.23830204656012e-003
3.37837837837838e+005	3.76159572177550e-001,4.66291666658648e-001	1.24768085564490e-002,-9.32583333317295e-003
3.47747747747748e+005	3.90345698879849e-001,4.70169247329911e-001	1.21930860224030e-002,-9.40338494659823e-003
3.57657657657657e+005	4.04419136961444e-001,4.73564955880306e-001	1.19116172607711e-002,-9.47129911760613e-003
3.67567567567567e+005	4.18364682457974e-001,4.76496114133894e-001	1.16327063508405e-002,-9.52992228267788e-003
3.77477477477477e+005	4.32168581048035e-001,4.78980149172626e-001	1.13566283790393e-002,-9.57960298345251e-003
3.87387387387387e+005	4.45818466672801e-001,4.81034498426416e-001	1.10836306665440e-002,-9.62068996852832e-003
3.97297297297297e+005	4.59303296772830e-001,4.82676524591725e-001	1.08139340645434e-002,-9.65353049183450e-003
4.07207207207207e+005	4.72613285185073e-001,4.83923440001577e-001	1.05477342962985e-002,-9.67846880003155e-003
4.17117117117117e+005	4.85739833628246e-001,4.84792240001739e-001	1.02852033274351e-002,-9.69584480003477e-003
4.27027027027027e+005	4.98675462592960e-001,4.85299644837147e-001	1.00264907481408e-002,-9.70599289674295e-003
4.36936936936936e+005	5.11413742345579e-001,4.85462049517749e-001	9.77172515308843e-003,-9.70924099035499e-003
4.46846846846846e+005	5.23949224653467e-001,4.85295481111504e-001	9.52101550693065e-003,-9.70590962223007e-003
4.56756756756756e+005	5.36277375744572e-001,4.84815562902659e-001	9.27445248510857e-003,-9.69631125805318e-003
4.66666666666666e+005	5.48394510927023e-001,4.84037484853514e-001	9.03210978145954e-003,-9.68074969707027e-003
4.76576576576576e+005	5.60297731214804e-001,4.82975979816120e-001	8.79404537570392e-003,-9.65951959632241e-003
4.86486486486486e+005	5.71984862233645e-001,4.81645304955153e-001	8.56030275532710e-003,-9.63290609910306e-003
4.96396396396396e+005	5.83454395617052e-001,4.80059227863058e-001	8.33091208765896e-003,-9.60118455726116e-003
5.06306306306306e+005	5.94705433045527e-001,4.78231016872375e-001	8.10589133908947e-003,-9.56462033744749e-003
5.16216216216216e+005	6.05737633032237e-001,4.76173435096678e-001	7.88524733935526e-003,-9.52346870193357e-003
5.26126126126125e+005	6.16551160515225e-001,4.73898737759989e-001	7.66897678969550e-003,-9.47797475519979e-003
5.36036036036035e+005	6.27146639279216e-001,4.71418672403972e-001	7.45706721441568e-003,-9.42837344807945e-003
5.45945945945945e+005	6.37525107198740e-001,4.68744481592086e-001	7.24949785602520e-003,-9.37488963184173e-003
5.55855855855855e+005	6.47687974268041e-001,4.65886907759552e-001	7.04624051463919e-003,-9.31773815519105e-003
5.65765765765765e+005	6.57636983361657e-001,4.62856199887111e-001	6.84726033276686e-003,-9.25712399774222e-003
5.75675675675675e+005	6.67374173652106e-001,4.59662121704713e-001	6.65251652695789e-003,-9.19324243409426e-003
5.85585585585585e+005	6.76901846597285e-001,4.56313961158261e-001	6.46196306805430e-003,-9.12627922316522e-003
5.95495495495495e+005	6.86222534399625e-001,4.52820540898103e-001	6.27554931200750e-003,-9.05641081796205e-003
6.05405405405405e+005	6.95338970831214e-001,4.49190229572036e-001	6.09322058337571e-003,-8.98380459144073e-003
6.15315315315315e+005	7.04254064313720e-001,4.45430953728035e-001	5.91491871372560e-003,-8.90861907456069e-003
6.25225225225225e+005	7.12970873138592e-001,4.41550210152691e-001	5.74058253722816e-003,-8.83100420305383e-003
6.35135135135135e+005	7.21492582711408e-001,4.37555078490531e-001	5.57014834577184e-003,-8.75110156981063e-003
6.45045045045045e+005	7.29822484704066e-001,4.33452234006790e-001	5.40355030591868e-003,-8.66904468013581e-003
6.54954954954955e+005	7.37963957999565e-001,4.29247960372147e-001	5.24072084000871e-003,-8.58495920744294e-003
6.64864864864865e+005	7.45920451316077e-001,4.24948162362173e-001	5.08159097367846e-003,-8.49896324724345e-003
6.74774774774775e+005	7.53695467399831e-001,4.20558378377045e-001	4.92609065200339e-003,-8.41116756754090e-003
6.84684684684685e+005	7.61292548679617e-001,4.16083792698397e-001	4.77414902640765e-003,-8.32167585396794e-003
6.94594594594594e+005	7.68715264279598e-001,4.11529247410120e-001	4.62569471440804e-003,-8.23058494820239e-003
7.04504504504504e+005	7.75967198291154e-001,4.06899253918557e-001	4.48065603417693e-003,-8.13798507837115e-003
7.14414414414414e+005	7.83051939208863e-001,4.02198004014912e-001	4.33896121582274e-003,-8.04396008029824e-003
7.24324324324324e+005	7.89973070440117e-001,3.97429380428832e-001	4.20053859119766e-003,-7.94858760857663e-003
7.34234234234234e+005	7.96734161802296e-001,3.92596966827206e-001	4.06531676395407e-003,-7.85193933654412e-003
7.44144144144144e+005	8.03338761925884e-001,3.87704057216092e-001	3.93322476148232e-003,-7.75408114432184e-003
7.54054054054054e+005	8.09790391486134e-001,3.82753664706579e-001	3.80419217027732e-003,-7.65507329413159e-003
7.63963963963964e+005	8.16092537190081e-001,3.77748529607197e-001	3.67814925619837e-003,-7.55497059214393e-003
7.73873873873874e+005	8.22248646449603e-001,3.72691126806255e-001	3.55502707100794e-003,-7.45382253612510e-003
7.83783783783784e+005	8.28262122674930e-001,3.67583672407255e-001	3.43475754650140e-003,-7.35167344814510e-003
7.93693693693694e+005	8.34136321126428e-001,3.62428129579155e-001	3.31727357747143e-003,-7.24856259158309e-003
8.03603603603604e+005	8.39874545265548e-001,3.57226213580878e-001	3.20250909468903e-003,-7.14452427161755e-003
8.13513513513514e+005	8.45480043548613e-001,3.51979395915811e-001	3.09039912902774e-003,-7.03958791831622e-003
8.23423423423424e+005	8.50956006609446e-001,3.46688907567188e-001	2.98087986781108e-003,-6.93377815134375e-003
8.33333333333334e+005	8.56305564778790e-001,3.41355741258965e-001	2.87388870442420e-003,-6.82711482517930e-003
8.43243243243244e+005	8.61531785889903e-001,3.35980652678977e-001	2.76936428220195e-003,-6.71961305357955e-003
8.53153153153153e+005	8.66637673320637e-001,3.30564160591539e-001	2.66724653358726e-003,-6.61128321183078e-003
8.63063063063063e+005	8.71626164222623e-001,3.25106545755010e-001	2.56747671554754e-003,-6.50213091510020e-003
8.72972972972973e+005	8.76500127887781e-001,3.19607848545781e-001	2.46999744224438e-003,-6.39215697091561e-003
8.82882882882883e+005	8.81262364201217e-001,3.14067865173244e-001	2.37475271597566e-003,-6.28135730346488e-003
8.92792792792793e+005	8.85915602127432e-001,3.08486142350054e-001	2.28168795745136e-003,-6.16972284700109e-003
9.02702702702703e+005	8.90462498173546e-001,3.02861970257603e-001	2.19075003652908e-003,-6.05723940515205e-003
9.12612612612613e+005	8.94905634768689e-001,2.97194373617298e-001	2.10188730462621e-003,-5.94388747234596e-003
9.22522522522523e+005	8.99247518492544e-001,2.91482100642797e-001	2.01504963014913e-003,-5.82964201285593e-003
9.32432432432433e+005	9.03490578077875e-001,2.85723609605284e-001	1.93018843844251e-003,-5.71447219210568e-003
9.42342342342343e+005	9.07637162101315e-001,2.79917052691408e-001	1.84725675797371e-003,-5.59834105382817e-003
9.52252252252253e+005	9.11689536263015e-001,2.74060256769045e-001	1.76620927473971e-003,-5.48120513538089e-003
9.62162162162163e+005	9.15649880138272e-001,2.68150700596428e-001	1.68700239723457e-003,-5.36301401192855e-003
9.72072072072073e+005	9.19520283261776e-001,2.62185487911108e-001	1.60959433476447e-003,-5.24370975822216e-003
9.81981981981983e+005	9.23302740376324e-001,2.56161315710758e-001	1.53394519247351e-003,-5.12322631421517e-003
9.91891891891893e+005	9.26999145640660e-001,2.50074436880318e-001	1.46001708718680e-003,-5.00148873760635e-003
1.00180180180180e+006	9.30611285543017e-001,2.43920616118413e-001	1.38777428913966e-003,-4.87841232236826e-003
1.01171171171171e+006	9.34140830204093e-001,2.37695077855394e-001	1.31718339591814e-003,-4.75390155710789e-003
1.02162162162162e+006	9.37589322670494e-001,2.31392444514283e-001	1.24821354659013e-003,-4.62784889028567e-003
1.03153153153153e+006	9.40958165689549e-001,2.25006663013832e-001	1.18083668620902e-003,-4.50013326027664e-003
1.04144144144144e+006	9.44248605307942e-001,2.18530916804884e-001	1.11502789384117e-003,-4.37061833609768e-003
1.05135135135135e+006	9.47461710433352e-001,2.11957519900671e-001	1.05076579133295e-003,-4.23915039801341e-003
1.06126126126126e+006	9.50598347215256e-001,2.05277788207377e-001	9.88033055694879e-004,-4.10555576414754e-003
1.07117117117117e+006	9.53659146698764e-001,1.98481881826523e-001	9.26817066024719e-004,-3.96963763653046e-003
1.08108108108108e+006	9.56644463620228e-001,1.91558609636722e-001	8.67110727595442e-004,-3.83117219273445e-003
1.09099099099099e+006	9.59554323339124e-001,1.84495183964942e-001	8.08913533217526e-004,-3.68990367929884e-003
1.10090090090090e+006	9.62388352554083e-001,1.77276907850678e-001	7.52232948918341e-004,-3.54553815701355e-003
1.11081081081081e+006	9.65145687302983e-001,1.69886769126956e-001	6.97086253940331e-004,-3.39773538253913e-003
1.12072072072072e+006	9.67824848183048e-001,1.62304902217636e-001	6.43503036339028e-004,-3.24609804435272e-003
1.13063063063063e+006	9.70423566543437e-001,1.54507856352617e-001	5.91528669131254e-004,-3.09015712705234e-003
1.14054054054054e+006	9.72938534120092e-001,1.46467570453913e-001	5.41229317598158e-004,-2.92935140907826e-003
1.15045045045045e+006	9.75365026786150e-001,1.38149885336632e-001	4.92699464277002e-004,-2.76299770673264e-003
1.16036036036036e+006	9.77696308145315e-001,1.29512291262390e-001	4.46073837093706e-004,-2.59024582524780e-003
1.17027027027027e+006	9.79922618724943e-001,1.20500340763886e-001	4.01547625501142e-004,-2.41000681527771e-003
1.18018018018018e+006	9.82029313248324e-001,1.11041574672734e-001	3.59413735033529e-004,-2.22083149345469e-003
1.19009009009009e+006	9.83993047512794e-001,1.01034431868726e-001	3.20139049744128e-004,-2.02068863737451e-003
1.20000000000000e+006	9.85772849823842e-001,9.03259813064536e-002	2.84543003523166e-004,-1.80651962612907e-003
1.20990990990991e+006	9.87285109927311e-001,7.86613219374613e-002	2.54297801453776e-004,-1.57322643874923e-003
1.21981981981982e+006	9.88312923918115e-001,6.55479055639856e-002	2.33741521637707e-004,-1.31095811127971e-003
1.22972972972973e+006	9.88009197902650e-001,4.98134224874699e-002	2.39816041946994e-004,-9.96268449749398e-004
1.23963963963964e+006	9.79660591709567e-001,2.96292558689957e-002	4.06788165808665e-004,-5.92585117379913e-004
1.24954954954955e+006	9.75499503586960e-001,2.96737728154803e-002	4.90009928260795e-004,-5.93475456309605e-004
1.25945945945946e+006	9.59861995674483e-001,-3.96480491751952e-003	8.02760086510332e-004,7.92960983503904e-005
1.26936936936937e+006	9.41412251122845e-001,5.16894755125155e-002	1.17175497754311e-003,-1.03378951025031e-003
1.27927927927928e+006	9.78431871680409e-001,2.11937562843910e-002	4.31362566391809e-004,-4.23875125687821e-004
1.28918918918919e+006	9.58676512063370e-001,1.72811163842618e-003	8.26469758732604e-004,-3.45622327685236e-005
1.29909909909910e+006	9.83234526920662e-001,-2.18658242561079e-003	3.35309461586755e-004,4.37316485122158e-005
1.30900900900901e+006	9.86886250431952e-001,-2.98814890373704e-002	2.62274991360953e-004,5.97629780747408e-004
1.31891891891892e+006	9.84702431733454e-001,-5.57401157891610e-002	3.05951365330917e-004,1.11480231578322e-003
1.32882882882883e+006	9.79812934342103e-001,-8.24780376522296e-002	4.03741313157941e-004,1.64956075304459e-003
1.33873873873874e+006	9.72067576190574e-001,-1.11521139449692e-001	5.58648476188528e-004,2.23042278899385e-003
1.34864864864865e+006	9.60525340697167e-001,-1.43874860465551e-001	7.89493186056653e-004,2.87749720931103e-003
1.35855855855856e+006	9.43548791441162e-001,-1.80432933748640e-001	1.12902417117676e-003,3.60865867497280e-003
1.36846846846847e+006	9.18497624636480e-001,-2.21951218335129e-001	1.63004750727040e-003,4.43902436670258e-003
1.37837837837838e+006	8.81146479116007e-001,-2.68687474466335e-001	2.37707041767986e-003,5.37374948932670e-003
1.38828828828829e+006	8.24821514427765e-001,-3.19331261113482e-001	3.50356971144470e-003,6.38662522226965e-003
1.39819819819820e+006	7.39613848905997e-001,-3.68283845949030e-001	5.20772302188006e-003,7.36567691898061e-003
1.40810810810811e+006	6.13765212529045e-001,-3.99716530726554e-001	7.72469574941911e-003,7.99433061453107e-003
1.41801801801802e+006	4.44292751908104e-001,-3.79127822923164e-001	1.11141449618379e-002,7.58255645846329e-003
1.42792792792793e+006	2.66119289804999e-001,-2.59355899389538e-001	1.46776142039000e-002,5.18711798779075e-003
1.43783783783784e+006	1.67639585547047e-001,-3.76681380105976e-002	1.66472082890591e-002,7.53362760211952e-004
1.44774774774775e+006	2.07244312674059e-001,1.94383666933245e-001	1.58551137465188e-002,-3.88767333866490e-003
1.45765765765766e+006	3.35287711876162e-001,3.46126475811109e-001	1.32942457624768e-002,-6.92252951622218e-003
1.46756756756756e+006	4.74759213347395e-001,4.11672795979289e-001	1.05048157330521e-002,-8.23345591958578e-003
1.47747747747747e+006	5.90531919634884e-001,4.24459120139585e-001	8.18936160730233e-003,-8.48918240279170e-003
1.48738738738738e+006	6.78295744783994e-001,4.12165733738970e-001	6.43408510432012e-003,-8.24331467477941e-003
1.49729729729729e+006	7.43405488404145e-001,3.89844299070266e-001	5.13189023191711e-003,-7.79688598140533e-003
1.50720720720720e+006	7.91994461560905e-001,3.64533092608601e-001	4.16011076878191e-003,-7.29066185217201e-003
1.51711711711711e+006	8.28845658715045e-001,3.39272796918924e-001	3.42308682569911e-003,-6.78545593837847e-003
1.52702702702702e+006	8.57335930487417e-001,3.15260683270122e-001	2.85328139025167e-003,-6.30521366540244e-003
1.53693693693693e+006	8.79788123004365e-001,2.92871126339826e-001	2.40423753991270e-003,-5.85742252679652e-003
1.54684684684684e+006	8.97801283987129e-001,2.72122092956207e-001	2.04397432025742e-003,-5.44244185912414e-003
1.55675675675675e+006	9.12488880606290e-001,2.52886331939824e-001	1.75022238787420e-003,-5.05772663879649e-003
1.56666666666666e+006	9.24638334081092e-001,2.34986078554221e-001	1.50723331837816e-003,-4.69972157108441e-003
1.57657657657657e+006	9.34815671036045e-001,2.18234274791344e-001	1.30368657927911e-003,-4.36468549582688e-003
1.58648648648648e+006	9.43434150334835e-001,2.02450963550256e-001	1.13131699330331e-003,-4.04901927100513e-003
1.59639639639639e+006	9.50799590882190e-001,1.87467973182212e-001	9.84008182356202e-004,-3.74935946364424e-003
1.60630630630630e+006	9.57140518996933e-001,1.73127829155790e-001	8.57189620061336e-004,-3.46255658311579e-003
1.61621621621621e+006	9.62628150569993e-001,1.59279342202693e-001	7.47436988600139e-004,-3.18558684405386e-003
1.62612612612612e+006	9.67389104440007e-001,1.45770370714390e-001	6.52217911199855e-004,-2.91540741428779e-003
1.63603603603603e+006	9.71512028117468e-001,1.32436669259301e-001	5.69759437650634e-004,-2.64873338518603e-003
1.64594594594594e+006	9.75047173508610e-001,1.19083466864097e-001	4.99056529827802e-004,-2.38166933728195e-003
1.65585585585585e+006	9.77993316793509e-001,1.05451552526490e-001	4.40133664129811e-004,-2.10903105052981e-003
1.66576576576576e+006	9.80251690818747e-001,9.11469685365853e-002	3.94966183625056e-004,-1.82293937073171e-003
1.67567567567567e+006	9.81465978686840e-001,7.54772219632387e-002	3.70680426263190e-004,-1.50954443926477e-003
1.68558558558558e+006	9.80340380028847e-001,5.70502485909349e-002	3.93192399423057e-004,-1.14100497181870e-003
1.69549549549549e+006	9.70715096383004e-001,3.36564533366351e-002	5.85698072339924e-004,-6.73129066732702e-004
1.70540540540540e+006	9.29817263979354e-001,2.83829772340746e-002	1.40365472041292e-003,-5.67659544681492e-004
1.71531531531531e+006	9.52623717383103e-001,6.34996048303018e-002	9.47525652337946e-004,-1.26999209660604e-003
1.72522522522522e+006	9.72982424700227e-001,3.77624687913068e-002	5.40351505995458e-004,-7.55249375826135e-004
1.73513513513513e+006	9.72714518792747e-001,7.37010256173626e-003	5.45709624145054e-004,-1.47402051234725e-004
1.74504504504504e+006	9.57269619457405e-001,-3.02610050358336e-002	8.54607610851905e-004,6.05220100716672e-004
1.75495495495495e+006	8.94053098170729e-001,-7.40650069395840e-002	2.11893803658543e-003,1.48130013879168e-003
1.76486486486486e+006	7.64367671493348e-001,2.61911326044246e-002	4.71264657013304e-003,-5.23822652088493e-004
1.77477477477477e+006	8.84628311414803e-001,1.33123247970187e-001	2.30743377170393e-003,-2.66246495940375e-003
1.78468468468468e+006	9.50527072268835e-001,9.79557531136921e-002	9.89458554623304e-004,-1.95911506227384e-003
1.79459459459459e+006	9.71587956960341e-001,6.38486642122343e-002	5.68240860793174e-004,-1.27697328424469e-003
1.80450450450450e+006	9.78867574464507e-001,3.56918198212840e-002	4.22648510709864e-004,-7.13836396425679e-004
1.81441441441441e+006	9.78675793268050e-001,8.63997711772503e-003	4.26484134638991e-004,-1.72799542354501e-004
1.82432432432432e+006	9.66801954807879e-001,-2.25153517728146e-002	6.63960903842420e-004,4.50307035456292e-004
1.83423423423423e+006	9.09068287251169e-001,-4.78572744890163e-002	1.81863425497662e-003,9.57145489780326e-004
1.84414414414414e+006	8.91257018960371e-001,5.85705699699909e-002	2.17485962079259e-003,-1.17141139939982e-003
1.85405405405405e+006	9.63453922578241e-001,4.76604803055316e-002	7.30921548435171e-004,-9.53209606110632e-004
1.86396396396396e+006	9.81428310920991e-001,1.90274470872123e-002	3.71433781580170e-004,-3.80548941744245e-004
