Freq.	V(1|1|1|b)	I(R129)
1.00000000000000e+005	4.58152661103360e-002,1.42457253534141e-001	1.90836946777933e-002,-2.84914507068283e-003
1.09909909909910e+005	5.01615598217265e-002,1.55921388108951e-001	1.89967688035655e-002,-3.11842776217902e-003
1.19819819819820e+005	5.48808339229545e-002,1.69206570405139e-001	1.89023833215409e-002,-3.38413140810279e-003
1.29729729729730e+005	5.99635138736503e-002,1.82299313394303e-001	1.88007297225270e-002,-3.64598626788605e-003
1.39639639639640e+005	6.53994210025561e-002,1.95186760065721e-001	1.86920115799489e-002,-3.90373520131443e-003
1.49549549549550e+005	7.11778211949206e-002,2.07856714172130e-001	1.85764435761016e-002,-4.15713428344259e-003
1.59459459459459e+005	7.72874751369232e-002,2.20297666708095e-001	1.84542504972615e-002,-4.40595333416190e-003
1.69369369369369e+005	8.37166897045254e-002,2.32498818068086e-001	1.83256662059095e-002,-4.64997636136172e-003
1.79279279279279e+005	9.04533700883362e-002,2.44450095875151e-001	1.81909325982333e-002,-4.88900191750303e-003
1.89189189189189e+005	9.74850722554433e-002,2.56142168512948e-001	1.80502985548911e-002,-5.12284337025896e-003
1.99099099099099e+005	1.04799055363124e-001,2.67566454433225e-001	1.79040188927375e-002,-5.35132908866450e-003
2.09009009009009e+005	1.12382333757350e-001,2.78715127347323e-001	1.77523533248530e-002,-5.57430254694646e-003
2.18918918918919e+005	1.20221728210502e-001,2.89581117443454e-001	1.75955654357900e-002,-5.79162234886909e-003
2.28828828828829e+005	1.28303916077167e-001,3.00158108801184e-001	1.74339216784567e-002,-6.00316217602369e-003
2.38738738738739e+005	1.36615480073723e-001,3.10440533200439e-001	1.72676903985255e-002,-6.20881066400878e-003
2.48648648648649e+005	1.45142955416113e-001,3.20423560544397e-001	1.70971408916777e-002,-6.40847121088795e-003
2.58558558558559e+005	1.53872875080174e-001,3.30103086133696e-001	1.69225424983965e-002,-6.60206172267393e-003
2.68468468468468e+005	1.62791812979625e-001,3.39475715043574e-001	1.67441637404075e-002,-6.78951430087149e-003
2.78378378378378e+005	1.71886424887839e-001,3.48538743865900e-001	1.65622715022432e-002,-6.97077487731799e-003
2.88288288288288e+005	1.81143486960335e-001,3.57290140084710e-001	1.63771302607933e-002,-7.14580280169419e-003
2.98198198198198e+005	1.90549931745166e-001,3.65728519357033e-001	1.61890013650967e-002,-7.31457038714066e-003
3.08108108108108e+005	2.00092881597576e-001,3.73853120970705e-001	1.59981423680485e-002,-7.47706241941410e-003
3.18018018018018e+005	2.09759679443299e-001,3.81663781747799e-001	1.58048064111340e-002,-7.63327563495598e-003
3.27927927927928e+005	2.19537916861190e-001,3.89160908656547e-001	1.56092416627762e-002,-7.78321817313094e-003
3.37837837837838e+005	2.29415459480500e-001,3.96345450386505e-001	1.54116908103900e-002,-7.92690900773010e-003
3.47747747747748e+005	2.39380469710728e-001,4.03218868131509e-001	1.52123906057854e-002,-8.06437736263018e-003
3.57657657657657e+005	2.49421426842521e-001,4.09783105813066e-001	1.50115714631496e-002,-8.19566211626131e-003
3.67567567567567e+005	2.59527144576532e-001,4.16040559963482e-001	1.48094571084694e-002,-8.32081119926963e-003
3.77477477477477e+005	2.69686786053312e-001,4.21994049473584e-001	1.46062642789338e-002,-8.43988098947168e-003
3.87387387387387e+005	2.79889876471411e-001,4.27646785394628e-001	1.44022024705718e-002,-8.55293570789255e-003
3.97297297297297e+005	2.90126313392690e-001,4.33002340968171e-001	1.41974737321462e-002,-8.66004681936342e-003
4.07207207207207e+005	3.00386374843736e-001,4.38064622041611e-001	1.39922725031253e-002,-8.76129244083221e-003
4.17117117117117e+005	3.10660725330038e-001,4.42837838010886e-001	1.37867854933992e-002,-8.85675676021772e-003
4.27027027027027e+005	3.20940419885579e-001,4.47326473415854e-001	1.35811916022884e-002,-8.94652946831708e-003
4.36936936936936e+005	3.31216906284678e-001,4.51535260298121e-001	1.33756618743064e-002,-9.03070520596242e-003
4.46846846846846e+005	3.41482025545524e-001,4.55469151415886e-001	1.31703594890895e-002,-9.10938302831772e-003
4.56756756756756e+005	3.51728010855929e-001,4.59133294395714e-001	1.29654397828814e-002,-9.18266588791428e-003
4.66666666666666e+005	3.61947485051630e-001,4.62533006887226e-001	1.27610502989674e-002,-9.25066013774453e-003
4.76576576576576e+005	3.72133456776094e-001,4.65673752773569e-001	1.25573308644781e-002,-9.31347505547139e-003
4.86486486486486e+005	3.82279315448328e-001,4.68561119478199e-001	1.23544136910334e-002,-9.37122238956398e-003
4.96396396396396e+005	3.92378825161910e-001,4.71200796397157e-001	1.21524234967618e-002,-9.42401592794314e-003
5.06306306306306e+005	4.02426117634409e-001,4.73598554475496e-001	1.19514776473118e-002,-9.47197108950992e-003
5.16216216216216e+005	4.12415684321646e-001,4.75760226936975e-001	1.17516863135671e-002,-9.51520453873950e-003
5.26126126126125e+005	4.22342367806117e-001,4.77691691167496e-001	1.15531526438777e-002,-9.55383382334991e-003
5.36036036036035e+005	4.32201352563309e-001,4.79398851745038e-001	1.13559729487338e-002,-9.58797703490076e-003
5.45945945945945e+005	4.41988155203812e-001,4.80887624601985e-001	1.11602368959238e-002,-9.61775249203970e-003
5.55855855855855e+005	4.51698614283088e-001,4.82163922299747e-001	1.09660277143382e-002,-9.64327844599494e-003
5.65765765765765e+005	4.61328879764644e-001,4.83233640390400e-001	1.07734224047071e-002,-9.66467280780800e-003
5.75675675675675e+005	4.70875402216181e-001,4.84102644835625e-001	1.05824919556764e-002,-9.68205289671249e-003
5.85585585585585e+005	4.80334921812163e-001,4.84776760449533e-001	1.03933015637567e-002,-9.69553520899066e-003
5.95495495495495e+005	4.89704457210237e-001,4.85261760328930e-001	1.02059108557953e-002,-9.70523520657860e-003
6.05405405405405e+005	4.98981294363011e-001,4.85563356232125e-001	1.00203741127398e-002,-9.71126712464249e-003
6.15315315315315e+005	5.08162975321013e-001,4.85687189865560e-001	9.83674049357973e-003,-9.71374379731121e-003
6.25225225225225e+005	5.17247287077135e-001,4.85638825036167e-001	9.65505425845729e-003,-9.71277650072335e-003
6.35135135135135e+005	5.26232250497597e-001,4.85423740626468e-001	9.47535499004806e-003,-9.70847481252936e-003
6.45045045045045e+005	5.35116109379473e-001,4.85047324348983e-001	9.29767781241055e-003,-9.70094648697965e-003
6.54954954954955e+005	5.43897319670063e-001,4.84514867236375e-001	9.12205360659875e-003,-9.69029734472750e-003
6.64864864864865e+005	5.52574538878955e-001,4.83831558823992e-001	8.94850922242091e-003,-9.67663117647985e-003
6.74774774774775e+005	5.61146615709425e-001,4.83002482981940e-001	8.77706768581150e-003,-9.66004965963880e-003
6.84684684684685e+005	5.69612579931951e-001,4.82032614354558e-001	8.60774840136098e-003,-9.64065228709116e-003
6.94594594594594e+005	5.77971632518995e-001,4.80926815366105e-001	8.44056734962010e-003,-9.61853630732211e-003
7.04504504504504e+005	5.86223136056896e-001,4.79689833752557e-001	8.27553727886207e-003,-9.59379667505113e-003
7.14414414414414e+005	5.94366605447643e-001,4.78326300580640e-001	8.11266789104714e-003,-9.56652601161280e-003
7.24324324324324e+005	6.02401698910508e-001,4.76840728716622e-001	7.95196602178984e-003,-9.53681457433245e-003
7.34234234234234e+005	6.10328209290997e-001,4.75237511708743e-001	7.79343581418006e-003,-9.50475023417485e-003
7.44144144144144e+005	6.18146055682239e-001,4.73520923048723e-001	7.63707888635522e-003,-9.47041846097445e-003
7.54054054054054e+005	6.25855275361906e-001,4.71695115779293e-001	7.48289449276189e-003,-9.43390231558587e-003
7.63963963963964e+005	6.33456016045867e-001,4.69764122416247e-001	7.33087967908266e-003,-9.39528244832494e-003
7.73873873873874e+005	6.40948528458160e-001,4.67731855155078e-001	7.18102943083680e-003,-9.35463710310157e-003
7.83783783783784e+005	6.48333159215386e-001,4.65602106333851e-001	7.03333681569227e-003,-9.31204212667702e-003
7.93693693693694e+005	6.55610344022355e-001,4.63378549125441e-001	6.88779311955290e-003,-9.26757098250882e-003
8.03603603603604e+005	6.62780601174703e-001,4.61064738433842e-001	6.74438797650594e-003,-9.22129476867683e-003
8.13513513513514e+005	6.69844525363238e-001,4.58664111970671e-001	6.60310949273524e-003,-9.17328223941342e-003
8.23423423423424e+005	6.76802781773933e-001,4.56179991489450e-001	6.46394436452134e-003,-9.12359982978899e-003
8.33333333333334e+005	6.83656100476808e-001,4.53615584156596e-001	6.32687799046383e-003,-9.07231168313192e-003
8.43243243243244e+005	6.90405271096365e-001,4.50973984039400e-001	6.19189457807271e-003,-9.01947968078800e-003
8.53153153153153e+005	6.97051137755747e-001,4.48258173692494e-001	6.05897724488506e-003,-8.96516347384988e-003
8.63063063063063e+005	7.03594594286460e-001,4.45471025825525e-001	5.92810811427081e-003,-8.90942051651050e-003
8.72972972972973e+005	7.10036579695156e-001,4.42615305035876e-001	5.79926840609688e-003,-8.85230610071752e-003
8.82882882882883e+005	7.16378073878822e-001,4.39693669591315e-001	5.67243852242356e-003,-8.79387339182631e-003
8.92792792792793e+005	7.22620093579529e-001,4.36708673248463e-001	5.54759812840943e-003,-8.73417346496925e-003
9.02702702702703e+005	7.28763688569858e-001,4.33662767093862e-001	5.42472622860283e-003,-8.67325534187725e-003
9.12612612612613e+005	7.34809938060077e-001,4.30558301395303e-001	5.30380123879846e-003,-8.61116602790606e-003
9.22522522522523e+005	7.40759947318154e-001,4.27397527451786e-001	5.18480105363692e-003,-8.54795054903572e-003
9.32432432432433e+005	7.46614844493800e-001,4.24182599431255e-001	5.06770311012400e-003,-8.48365198862510e-003
9.42342342342343e+005	7.52375777637792e-001,4.20915576185800e-001	4.95248444724417e-003,-8.41831152371600e-003
9.52252252252253e+005	7.58043911907985e-001,4.17598423034616e-001	4.83912176184031e-003,-8.35196846069232e-003
9.62162162162163e+005	7.63620426953582e-001,4.14233013505456e-001	4.72759146092836e-003,-8.28466027010911e-003
9.72072072072073e+005	7.69106514469395e-001,4.10821131025706e-001	4.61786971061209e-003,-8.21642262051412e-003
9.81981981981983e+005	7.74503375912051e-001,4.07364470554546e-001	4.50993248175899e-003,-8.14728941109092e-003
9.91891891891893e+005	7.79812220370288e-001,4.03864640147862e-001	4.40375559259424e-003,-8.07729280295723e-003
1.00180180180180e+006	7.85034262581748e-001,4.00323162447745e-001	4.29931474836504e-003,-8.00646324895491e-003
1.01171171171171e+006	7.90170721088845e-001,3.96741476088476e-001	4.19658557822309e-003,-7.93482952176951e-003
1.02162162162162e+006	7.95222816526598e-001,3.93120937010834e-001	4.09554366946803e-003,-7.86241874021668e-003
1.03153153153153e+006	8.00191770035504e-001,3.89462819676489e-001	3.99616459928992e-003,-7.78925639352978e-003
1.04144144144144e+006	8.05078801792792e-001,3.85768318173943e-001	3.89842396414415e-003,-7.71536636347885e-003
1.05135135135135e+006	8.09885129655650e-001,3.82038547207192e-001	3.80229740688701e-003,-7.64077094414383e-003
1.06126126126126e+006	8.14611967910217e-001,3.78274542957778e-001	3.70776064179567e-003,-7.56549085915555e-003
1.07117117117117e+006	8.19260526120425e-001,3.74477263810309e-001	3.61478947759150e-003,-7.48954527620618e-003
1.08108108108108e+006	8.23832008070934e-001,3.70647590930760e-001	3.52335983858132e-003,-7.41295181861521e-003
1.09099099099099e+006	8.28327610798670e-001,3.66786328685956e-001	3.43344778402660e-003,-7.33572657371911e-003
1.10090090090090e+006	8.32748523707660e-001,3.62894204891499e-001	3.34502952584680e-003,-7.25788409782997e-003
1.11081081081081e+006	8.37095927762056e-001,3.58971870874111e-001	3.25808144475888e-003,-7.17943741748223e-003
1.12072072072072e+006	8.41370994752411e-001,3.55019901332739e-001	3.17258010495177e-003,-7.10039802665478e-003
1.13063063063063e+006	8.45574886630435e-001,3.51038793980931e-001	3.08850226739131e-003,-7.02077587961861e-003
1.14054054054054e+006	8.49708754907588e-001,3.47028968950809e-001	3.00582490184823e-003,-6.94057937901617e-003
1.15045045045045e+006	8.53773740113003e-001,3.42990767936353e-001	2.92452519773994e-003,-6.85981535872706e-003
1.16036036036036e+006	8.57770971306255e-001,3.38924453050706e-001	2.84458057387490e-003,-6.77848906101413e-003
1.17027027027027e+006	8.61701565640621e-001,3.34830205368639e-001	2.76596868718757e-003,-6.69660410737279e-003
1.18018018018018e+006	8.65566627972394e-001,3.30708123121118e-001	2.68866744055213e-003,-6.61416246242235e-003
1.19009009009009e+006	8.69367250511818e-001,3.26558219503982e-001	2.61265498976364e-003,-6.53116439007964e-003
1.20000000000000e+006	8.73104512511074e-001,3.22380420056904e-001	2.53790974977853e-003,-6.44760840113809e-003
1.20990990990991e+006	8.76779479984543e-001,3.18174559561869e-001	2.46441040030915e-003,-6.36349119123739e-003
1.21981981981982e+006	8.80393205456294e-001,3.13940378402228e-001	2.39213589087411e-003,-6.27880756804455e-003
1.22972972972973e+006	8.83946727729305e-001,3.09677518313560e-001	2.32106544541389e-003,-6.19355036627121e-003
1.23963963963964e+006	8.87441071670357e-001,3.05385517445895e-001	2.25117856659287e-003,-6.10771034891790e-003
1.24954954954955e+006	8.90877248003744e-001,3.01063804642736e-001	2.18245503992512e-003,-6.02127609285472e-003
1.25945945945946e+006	8.94256253105932e-001,2.96711692825411e-001	2.11487493788136e-003,-5.93423385650822e-003
1.26936936936937e+006	8.97579068791866e-001,2.92328371350664e-001	2.04841862416268e-003,-5.84656742701328e-003
1.27927927927928e+006	9.00846662081877e-001,2.87912897184391e-001	1.98306675836246e-003,-5.75825794368783e-003
1.28918918918919e+006	9.04059984935695e-001,2.83464184703762e-001	1.91880030128609e-003,-5.66928369407523e-003
1.29909909909910e+006	9.07219973936962e-001,2.78980993902231e-001	1.85560052126076e-003,-5.57961987804462e-003
1.30900900900901e+006	9.10327549907463e-001,2.74461916725256e-001	1.79344900185074e-003,-5.48923833450512e-003
1.31891891891892e+006	9.13383617424776e-001,2.69905361206306e-001	1.73232765150448e-003,-5.39810722412612e-003
1.32882882882883e+006	9.16389064209690e-001,2.65309532999788e-001	1.67221871580620e-003,-5.30619065999576e-003
1.33873873873874e+006	9.19344760339839e-001,2.60672413815317e-001	1.61310479320321e-003,-5.21344827630634e-003
1.34864864864865e+006	9.22251557232680e-001,2.55991736140465e-001	1.55496885534640e-003,-5.11983472280929e-003
1.35855855855856e+006	9.25110286322701e-001,2.51264953488651e-001	1.49779427354599e-003,-5.02529906977301e-003
1.36846846846847e+006	9.27921757332789e-001,2.46489205214217e-001	1.44156485334422e-003,-4.92978410428434e-003
1.37837837837838e+006	9.30686756004922e-001,2.41661274682607e-001	1.38626487990156e-003,-4.83322549365215e-003
1.38828828828829e+006	9.33406041106674e-001,2.36777539248616e-001	1.33187917786652e-003,-4.73555078497233e-003
1.39819819819820e+006	9.36080340460912e-001,2.31833910049431e-001	1.27839319078175e-003,-4.63667820098862e-003
1.40810810810811e+006	9.38710345646733e-001,2.26825759017997e-001	1.22579308706534e-003,-4.53651518035995e-003
1.41801801801802e+006	9.41296704875014e-001,2.21747829702383e-001	1.17406590249972e-003,-4.43495659404766e-003
1.42792792792793e+006	9.43840013328020e-001,2.16594127343877e-001	1.12319973343959e-003,-4.33188254687755e-003
1.43783783783784e+006	9.46340799930962e-001,2.11357782078559e-001	1.07318400138075e-003,-4.22715564157119e-003
1.44774774774775e+006	9.48799509031520e-001,2.06030876866152e-001	1.02400981936961e-003,-4.12061753732304e-003
1.45765765765766e+006	9.51216474695880e-001,2.00604228475721e-001	9.75670506082393e-004,-4.01208456951442e-003
1.46756756756756e+006	9.53591884106363e-001,1.95067105026480e-001	9.28162317872747e-004,-3.90134210052961e-003
1.47747747747747e+006	9.55925724547781e-001,1.89406856304237e-001	8.81485509044382e-004,-3.78813712608473e-003
1.48738738738738e+006	9.58217705118773e-001,1.83608421857231e-001	8.35645897624544e-004,-3.67216843714463e-003
1.49729729729729e+006	9.60467138512428e-001,1.77653664139749e-001	7.90657229751439e-004,-3.55307328279498e-003
1.50720720720720e+006	9.62672757853396e-001,1.71520445114611e-001	7.46544842932073e-004,-3.43040890229222e-003
1.51711711711711e+006	9.64832424325268e-001,1.65181316228776e-001	7.03351513494632e-004,-3.30362632457553e-003
1.52702702702702e+006	9.66942643897321e-001,1.58601607125396e-001	6.61147122053576e-004,-3.17203214250792e-003
1.53693693693693e+006	9.68997734840195e-001,1.51736544734142e-001	6.20045303196093e-004,-3.03473089468283e-003
1.54684684684684e+006	9.70988320995410e-001,1.44526741128844e-001	5.80233580091798e-004,-2.89053482257688e-003
1.55675675675675e+006	9.72898435668764e-001,1.36890797333524e-001	5.42031286624711e-004,-2.73781594667048e-003
1.56666666666666e+006	9.74699524769308e-001,1.28712500927367e-001	5.06009504613838e-004,-2.57425001854734e-003
1.57657657657657e+006	9.76336805169386e-001,1.19817174087750e-001	4.73263896612279e-004,-2.39634348175501e-003
1.58648648648648e+006	9.77694225471487e-001,1.09924535704945e-001	4.46115490570256e-004,-2.19849071409890e-003
1.59639639639639e+006	9.78488794679467e-001,9.85472968095463e-002	4.30224106410668e-004,-1.97094593619093e-003
1.60630630630630e+006	9.77875654321718e-001,8.47724536626819e-002	4.42486913565634e-004,-1.69544907325364e-003
1.61621621621621e+006	9.72538497150048e-001,6.71725885271927e-002	5.49230056999042e-004,-1.34345177054385e-003
1.62612612612612e+006	9.49815392076703e-001,5.37462942726757e-002	1.00369215846594e-003,-1.07492588545351e-003
1.63603603603603e+006	9.48244301391607e-001,7.34261934094251e-002	1.03511397216786e-003,-1.46852386818850e-003
1.64594594594594e+006	9.62720486703237e-001,5.38287987629323e-002	7.45590265935256e-004,-1.07657597525865e-003
1.65585585585585e+006	9.51884046167450e-001,1.99192927110710e-002	9.62319076650995e-004,-3.98385854221420e-004
1.66576576576576e+006	8.93662361964002e-001,-9.29921483972437e-003	2.12675276071996e-003,1.85984296794487e-004
1.67567567567567e+006	8.29562536685035e-001,8.28080615624674e-002	3.40874926629930e-003,-1.65616123124935e-003
1.68558558558558e+006	9.10949850240666e-001,1.26650505191676e-001	1.78100299518668e-003,-2.53301010383352e-003
1.69549549549549e+006	9.51412649912266e-001,9.94821628948230e-002	9.71747001754684e-004,-1.98964325789646e-003
1.70540540540540e+006	9.65100714546205e-001,6.92601718833945e-002	6.97985709075903e-004,-1.38520343766789e-003
1.71531531531531e+006	9.65728085282766e-001,3.82731319420307e-002	6.85438294344671e-004,-7.65462638840614e-004
1.72522522522522e+006	9.46568013571655e-001,4.42673404725782e-003	1.06863972856689e-003,-8.85346809451565e-005
1.73513513513513e+006	8.86556265767499e-001,1.32723386650654e-002	2.26887468465001e-003,-2.65446773301308e-004
1.74504504504504e+006	9.23509338340098e-001,6.62892585093287e-002	1.52981323319803e-003,-1.32578517018657e-003
1.75495495495495e+006	9.59305969634543e-001,3.81837331882739e-002	8.13880607309132e-004,-7.63674663765479e-004
1.76486486486486e+006	9.66859792973044e-001,4.21863553413257e-003	6.62804140539117e-004,-8.43727106826514e-005
1.77477477477477e+006	9.65720799940421e-001,-2.91885311879303e-002	6.85584001191584e-004,5.83770623758607e-004
1.78468468468468e+006	9.56295954044226e-001,-6.76274914976772e-002	8.74080919115474e-004,1.35254982995354e-003
1.79459459459459e+006	9.34932543915820e-001,-1.12437284670613e-001	1.30134912168360e-003,2.24874569341226e-003
1.80450450450450e+006	8.92438716451899e-001,-1.65298508775868e-001	2.15122567096202e-003,3.30597017551737e-003
1.81441441441441e+006	8.07666379144968e-001,-2.20094856276670e-001	3.84667241710065e-003,4.40189712553341e-003
1.82432432432432e+006	6.48448348682740e-001,-2.33230153078355e-001	7.03103302634520e-003,4.66460306156711e-003
1.83423423423423e+006	4.62796280294750e-001,-8.35151992407339e-002	1.07440743941050e-002,1.67030398481468e-003
1.84414414414414e+006	4.84381216185618e-001,1.80108687298188e-001	1.03123756762876e-002,-3.60217374596376e-003
1.85405405405405e+006	6.51042343489175e-001,2.91941528840867e-001	6.97915313021650e-003,-5.83883057681734e-003
1.86396396396396e+006	7.78540351329177e-001,2.87615739108285e-001	4.42919297341645e-003,-5.75231478216570e-003
