Freq.	V(1|1|1|a)	I(R129)
1.00000000000000e+005	1.54067750973639e-002,5.88354535879164e-002	1.96918644980527e-002,-1.17670907175833e-003
1.09909909909910e+005	1.61443375428245e-002,6.46361896813462e-002	1.96771132491435e-002,-1.29272379362692e-003
1.19819819819820e+005	1.69512605852820e-002,7.04284858596822e-002	1.96609747882944e-002,-1.40856971719364e-003
1.29729729729730e+005	1.78274683129572e-002,7.62115822920129e-002	1.96434506337409e-002,-1.52423164584026e-003
1.39639639639640e+005	1.87728782481348e-002,8.19847194493517e-002	1.96245424350373e-002,-1.63969438898703e-003
1.49549549549550e+005	1.97874013435907e-002,8.77471381318981e-002	1.96042519731282e-002,-1.75494276263796e-003
1.59459459459459e+005	2.08709419789667e-002,9.34980794968431e-002	1.95825811604207e-002,-1.86996158993686e-003
1.69369369369369e+005	2.20233979571474e-002,9.92367850867533e-002	1.95595320408571e-002,-1.98473570173507e-003
1.79279279279279e+005	2.32446605007030e-002,1.04962496858577e-001	1.95351067899859e-002,-2.09924993717154e-003
1.89189189189189e+005	2.45346142484618e-002,1.10674457213310e-001	1.95093077150308e-002,-2.21348914426619e-003
1.99099099099099e+005	2.58931372522886e-002,1.16371909026356e-001	1.94821372549542e-002,-2.32743818052712e-003
2.09009009009009e+005	2.73201009741457e-002,1.22054095678632e-001	1.94535979805171e-002,-2.44108191357264e-003
2.18918918918919e+005	2.88153702835249e-002,1.27720261088436e-001	1.94236925943295e-002,-2.55440522176872e-003
2.28828828828829e+005	3.03788034553428e-002,1.33369649744139e-001	1.93924239308931e-002,-2.66739299488278e-003
2.38738738738739e+005	3.20102521684007e-002,1.39001506737715e-001	1.93597949566320e-002,-2.78003013475430e-003
2.48648648648649e+005	3.37095615045200e-002,1.44615077799168e-001	1.93258087699096e-002,-2.89230155598335e-003
2.58558558558559e+005	3.54765699484706e-002,1.50209609331870e-001	1.92904686010306e-002,-3.00419218663740e-003
2.68468468468468e+005	3.73111093888236e-002,1.55784348448870e-001	1.92537778122235e-002,-3.11568696897740e-003
2.78378378378378e+005	3.92130051198650e-002,1.61338543010188e-001	1.92157398976027e-002,-3.22677086020375e-003
2.88288288288288e+005	4.11820758447245e-002,1.66871441661145e-001	1.91763584831055e-002,-3.33742883322290e-003
2.98198198198198e+005	4.32181336798833e-002,1.72382293871760e-001	1.91356373264023e-002,-3.44764587743520e-003
3.08108108108108e+005	4.53209841612385e-002,1.77870349977246e-001	1.90935803167752e-002,-3.55740699954492e-003
3.18018018018018e+005	4.74904262519198e-002,1.83334861219646e-001	1.90501914749616e-002,-3.66669722439291e-003
3.27927927927928e+005	4.97262523520680e-002,1.88775079790641e-001	1.90054749529586e-002,-3.77550159581281e-003
3.37837837837838e+005	5.20282483108078e-002,1.94190258875572e-001	1.89594350337838e-002,-3.88380517751143e-003
3.47747747747748e+005	5.43961934406638e-002,1.99579652698701e-001	1.89120761311867e-002,-3.99159305397402e-003
3.57657657657657e+005	5.68298605346965e-002,2.04942516569763e-001	1.88634027893061e-002,-4.09885033139525e-003
3.67567567567567e+005	5.93290158866557e-002,2.10278106931828e-001	1.88134196822669e-002,-4.20556213863657e-003
3.77477477477477e+005	6.18934193144844e-002,2.15585681410536e-001	1.87621316137103e-002,-4.31171362821071e-003
3.87387387387387e+005	6.45228241875313e-002,2.20864498864715e-001	1.87095435162494e-002,-4.41728997729430e-003
3.97297297297297e+005	6.72169774578721e-002,2.26113819438455e-001	1.86556604508426e-002,-4.52227638876909e-003
4.07207207207207e+005	6.99756196961758e-002,2.31332904614651e-001	1.86004876060765e-002,-4.62665809229302e-003
4.17117117117117e+005	7.27984851326031e-002,2.36521017270088e-001	1.85440302973479e-002,-4.73042034540176e-003
4.27027027027027e+005	7.56853017032693e-002,2.41677421732090e-001	1.84862939659346e-002,-4.83354843464181e-003
4.36936936936936e+005	7.86357911028679e-002,2.46801383836809e-001	1.84272841779426e-002,-4.93602767673617e-003
4.46846846846846e+005	8.16496688441141e-002,2.51892170989186e-001	1.83670066231177e-002,-5.03784341978371e-003
4.56756756756756e+005	8.47266443247443e-002,2.56949052224665e-001	1.83054671135051e-002,-5.13898104449331e-003
4.66666666666666e+005	8.78664209028895e-002,2.61971298272711e-001	1.82426715819422e-002,-5.23942596545423e-003
4.76576576576576e+005	9.10686959817438e-002,2.66958181622204e-001	1.81786260803651e-002,-5.33916363244409e-003
4.86486486486486e+005	9.43331611045549e-002,2.71908976588798e-001	1.81133367779089e-002,-5.43817953177595e-003
4.96396396396396e+005	9.76595020610935e-002,2.76822959384318e-001	1.80468099587781e-002,-5.53645918768636e-003
5.06306306306306e+005	1.01047399006907e-001,2.81699408188311e-001	1.79790520198619e-002,-5.63398816376622e-003
5.16216216216216e+005	1.04496526596830e-001,2.86537603221837e-001	1.79100694680634e-002,-5.73075206443675e-003
5.26126126126125e+005	1.08006554134414e-001,2.91336826823646e-001	1.78398689173117e-002,-5.82673653647292e-003
5.36036036036035e+005	1.11577145739181e-001,2.96096363528862e-001	1.77684570852164e-002,-5.92192727057724e-003
5.45945945945945e+005	1.15207960533846e-001,3.00815500150342e-001	1.76958407893231e-002,-6.01631000300685e-003
5.55855855855855e+005	1.18898652853981e-001,3.05493525862891e-001	1.76220269429204e-002,-6.10987051725783e-003
5.65765765765765e+005	1.22648872482929e-001,3.10129732290524e-001	1.75470225503414e-002,-6.20259464581048e-003
5.75675675675675e+005	1.26458264915216e-001,3.14723413597022e-001	1.74708347016957e-002,-6.29446827194045e-003
5.85585585585585e+005	1.30326471652186e-001,3.19273866580051e-001	1.73934705669563e-002,-6.38547733160101e-003
5.95495495495495e+005	1.34253130534160e-001,3.23780390769135e-001	1.73149373893168e-002,-6.47560781538270e-003
6.05405405405405e+005	1.38237876114135e-001,3.28242288527866e-001	1.72352424777173e-002,-6.56484577055732e-003
6.15315315315315e+005	1.42280340078810e-001,3.32658865160729e-001	1.71543931984238e-002,-6.65317730321458e-003
6.25225225225225e+005	1.46380151723729e-001,3.37029429025043e-001	1.70723969655254e-002,-6.74058858050086e-003
6.35135135135135e+005	1.50536938490499e-001,3.41353291648550e-001	1.69892612301900e-002,-6.82706583297099e-003
6.45045045045045e+005	1.54750326575401e-001,3.45629767853296e-001	1.69049934684920e-002,-6.91259535706593e-003
6.54954954954955e+005	1.59019941620459e-001,3.49858175886551e-001	1.68196011675908e-002,-6.99716351773102e-003
6.64864864864865e+005	1.63345409500035e-001,3.54037837559621e-001	1.67330918099993e-002,-7.08075675119242e-003
6.74774774774775e+005	1.67726357218592e-001,3.58168078395589e-001	1.66454728556282e-002,-7.16336156791177e-003
6.84684684684685e+005	1.72162413938320e-001,3.62248227787159e-001	1.65567517212336e-002,-7.24496455574317e-003
6.94594594594594e+005	1.76653212159227e-001,3.66277619166031e-001	1.64669357568155e-002,-7.32555238332063e-003
7.04504504504504e+005	1.81198389079148e-001,3.70255590185472e-001	1.63760322184170e-002,-7.40511180370943e-003
7.14414414414414e+005	1.85797588167380e-001,3.74181482918083e-001	1.62840482366524e-002,-7.48362965836167e-003
7.24324324324324e+005	1.90450460993786e-001,3.78054644071179e-001	1.61909907801243e-002,-7.56109288142357e-003
7.34234234234234e+005	1.95156669366273e-001,3.81874425222639e-001	1.60968666126745e-002,-7.63748850445279e-003
7.44144144144144e+005	1.99915887845205e-001,3.85640183080660e-001	1.60016822430959e-002,-7.71280366161319e-003
7.54054054054054e+005	2.04727806727329e-001,3.89351279771015e-001	1.59054438654534e-002,-7.78702559542031e-003
7.63963963963964e+005	2.09592135633344e-001,3.93007083154005e-001	1.58081572873331e-002,-7.86014166308009e-003
7.73873873873874e+005	2.14508607918819e-001,3.96606967162472e-001	1.57098278416236e-002,-7.93213934324944e-003
7.83783783783784e+005	2.19476986353623e-001,4.00150312087244e-001	1.56104602729275e-002,-8.00300624174488e-003
7.93693693693694e+005	2.24497071313850e-001,4.03636504251541e-001	1.55100585737230e-002,-8.07273008503081e-003
8.03603603603604e+005	2.29568716020299e-001,4.07064928886549e-001	1.54086256795940e-002,-8.14129857773097e-003
8.13513513513514e+005	2.34691785417433e-001,4.10434890890551e-001	1.53061642916513e-002,-8.20869781781102e-003
8.23423423423424e+005	2.39866124760949e-001,4.13746058334406e-001	1.52026775047810e-002,-8.27492116668813e-003
8.33333333333334e+005	2.45092134805304e-001,4.16997662016082e-001	1.50981573038939e-002,-8.33995324032165e-003
8.43243243243244e+005	2.50370123160470e-001,4.20188814507879e-001	1.49925975367906e-002,-8.40377629015758e-003
8.53153153153153e+005	2.55699380487457e-001,4.23316264577807e-001	1.48860123902509e-002,-8.46632529155615e-003
8.63063063063063e+005	2.61076010735348e-001,4.26386851162461e-001	1.47784797852930e-002,-8.52773702324921e-003
8.72972972972973e+005	2.66509279818503e-001,4.29396041891150e-001	1.46698144036299e-002,-8.58792083782300e-003
8.82882882882883e+005	2.71995785377984e-001,4.32342008283155e-001	1.45600842924403e-002,-8.64684016566310e-003
8.92792792792793e+005	2.77536281222120e-001,4.35224928983344e-001	1.44492743755576e-002,-8.70449857966688e-003
9.02702702702703e+005	2.83132064017959e-001,4.38044450821337e-001	1.43373587196408e-002,-8.76088901642674e-003
9.12612612612613e+005	2.88784823977801e-001,4.40800123636946e-001	1.42243035204440e-002,-8.81600247273893e-003
9.22522522522523e+005	2.94496770774575e-001,4.43491473934580e-001	1.41100645845085e-002,-8.86982947869160e-003
9.32432432432433e+005	3.00270808224415e-001,4.46118015605828e-001	1.39945838355117e-002,-8.92236031211656e-003
9.42342342342343e+005	3.06110775031637e-001,4.48679240904952e-001	1.38777844993673e-002,-8.97358481809904e-003
9.52252252252253e+005	3.12021788709230e-001,4.51174595030151e-001	1.37595642258154e-002,-9.02349190060302e-003
9.62162162162163e+005	3.18010752275692e-001,4.53603425237006e-001	1.36397849544862e-002,-9.07206850474012e-003
9.72072072072073e+005	3.24087125432547e-001,4.55964880365074e-001	1.35182574913491e-002,-9.11929760730147e-003
9.81981981981983e+005	3.30264144787121e-001,4.58257691011970e-001	1.33947171042576e-002,-9.16515382023940e-003
9.91891891891893e+005	3.36560731587548e-001,4.60479472410791e-001	1.32687853682490e-002,-9.20958944821583e-003
1.00180180180180e+006	3.43002470786629e-001,4.62626944914691e-001	1.31399505842674e-002,-9.25253889829383e-003
1.01171171171171e+006	3.49635000292882e-001,4.64696149290046e-001	1.30072999941424e-002,-9.29392298580092e-003
1.02162162162162e+006	3.56526191053565e-001,4.66670815085260e-001	1.28694761789287e-002,-9.33341630170520e-003
1.03153153153153e+006	3.63792427856580e-001,4.68521432058017e-001	1.27241514428684e-002,-9.37042864116033e-003
1.04144144144144e+006	3.71650166110012e-001,4.70172724522990e-001	1.25669966777998e-002,-9.40345449045980e-003
1.05135135135135e+006	3.80542038606803e-001,4.71404856474797e-001	1.23891592278639e-002,-9.42809712949594e-003
1.06126126126126e+006	3.91481446583958e-001,4.71417939991995e-001	1.21703710683208e-002,-9.42835879983990e-003
1.07117117117117e+006	4.06653544906343e-001,4.66173126817557e-001	1.18669291018731e-002,-9.32346253635113e-003
1.08108108108108e+006	4.12981390644720e-001,4.35479475750206e-001	1.17403721871056e-002,-8.70958951500413e-003
1.09099099099099e+006	3.77228309006700e-001,4.46114162068481e-001	1.24554338198660e-002,-8.92228324136962e-003
1.10090090090090e+006	3.86210973710499e-001,4.62982286587084e-001	1.22757805257900e-002,-9.25964573174169e-003
1.11081081081081e+006	3.93009409645251e-001,4.71030763934301e-001	1.21398118070950e-002,-9.42061527868601e-003
1.12072072072072e+006	4.03006933328536e-001,4.76225481063646e-001	1.19398613334293e-002,-9.52450962127291e-003
1.13063063063063e+006	4.12505363546972e-001,4.78858781525251e-001	1.17498927290606e-002,-9.57717563050501e-003
1.14054054054054e+006	4.21882102947983e-001,4.80376284525127e-001	1.15623579410403e-002,-9.60752569050253e-003
1.15045045045045e+006	4.31940718852984e-001,4.80776973634788e-001	1.13611856229403e-002,-9.61553947269577e-003
1.16036036036036e+006	4.43948894789533e-001,4.78351142557210e-001	1.11210221042093e-002,-9.56702285114420e-003
1.17027027027027e+006	4.55591733677872e-001,4.63174149678139e-001	1.08881653264426e-002,-9.26348299356278e-003
1.18018018018018e+006	4.30289242965660e-001,4.55479184684951e-001	1.13942151406868e-002,-9.10958369369902e-003
1.19009009009009e+006	4.34115706376661e-001,4.76186076880904e-001	1.13176858724668e-002,-9.52372153761808e-003
1.20000000000000e+006	4.44945467340783e-001,4.82682426662341e-001	1.11010906531843e-002,-9.65364853324682e-003
1.20990990990991e+006	4.54203141411629e-001,4.85335988974691e-001	1.09159371717674e-002,-9.70671977949383e-003
1.21981981981982e+006	4.62471171912555e-001,4.86790236898062e-001	1.07505765617489e-002,-9.73580473796124e-003
1.22972972972973e+006	4.70196379004325e-001,4.87720653288503e-001	1.05960724199135e-002,-9.75441306577005e-003
1.23963963963964e+006	4.77605922837164e-001,4.88355526136863e-001	1.04478815432567e-002,-9.76711052273726e-003
1.24954954954955e+006	4.84821498121465e-001,4.88788623482546e-001	1.03035700375707e-002,-9.77577246965092e-003
1.25945945945946e+006	4.91914494735291e-001,4.89063130633506e-001	1.01617101052942e-002,-9.78126261267013e-003
1.26936936936937e+006	4.98932035949905e-001,4.89198160225532e-001	1.00213592810019e-002,-9.78396320451065e-003
1.27927927927928e+006	5.05911927297764e-001,4.89193287078804e-001	9.88176145404471e-003,-9.78386574157608e-003
1.28918918918919e+006	5.12890572684004e-001,4.89000874203948e-001	9.74218854631992e-003,-9.78001748407897e-003
1.29909909909910e+006	5.19729141827657e-001,4.88376220733605e-001	9.60541716344686e-003,-9.76752441467211e-003
1.30900900900901e+006	5.25780502058085e-001,4.88195038426862e-001	9.48438995883830e-003,-9.76390076853725e-003
1.31891891891892e+006	5.32668500233695e-001,4.88217528127940e-001	9.34662999532610e-003,-9.76435056255880e-003
1.32882882882883e+006	5.39580381919890e-001,4.87833797116259e-001	9.20839236160219e-003,-9.75667594232517e-003
1.33873873873874e+006	5.46438449074992e-001,4.87286735800789e-001	9.07123101850017e-003,-9.74573471601578e-003
1.34864864864865e+006	5.53269948327947e-001,4.86623288511800e-001	8.93460103344106e-003,-9.73246577023599e-003
1.35855855855856e+006	5.60089285544564e-001,4.85854406157871e-001	8.79821428910872e-003,-9.71708812315742e-003
1.36846846846847e+006	5.66904260246346e-001,4.84983086509415e-001	8.66191479507308e-003,-9.69966173018829e-003
1.37837837837838e+006	5.73719773767702e-001,4.84009853244779e-001	8.52560452464596e-003,-9.68019706489558e-003
1.38828828828829e+006	5.80539369349506e-001,4.82934188676147e-001	8.38921261300988e-003,-9.65868377352293e-003
1.39819819819820e+006	5.87365935833769e-001,4.81754987524277e-001	8.25268128332463e-003,-9.63509975048553e-003
1.40810810810811e+006	5.94202078323784e-001,4.80470708565845e-001	8.11595843352431e-003,-9.60941417131689e-003
1.41801801801802e+006	6.01050347768726e-001,4.79079405935478e-001	7.97899304462547e-003,-9.58158811870956e-003
1.42792792792793e+006	6.07913406332628e-001,4.77578678529751e-001	7.84173187334744e-003,-9.55157357059502e-003
1.43783783783784e+006	6.14794057287852e-001,4.75965455809342e-001	7.70411885424297e-003,-9.51930911618685e-003
1.44774774774775e+006	6.21694237242972e-001,4.74236702436536e-001	7.56611525514056e-003,-9.48473404873072e-003
1.45765765765766e+006	6.28620131952804e-001,4.72390155619956e-001	7.42759736094392e-003,-9.44780311239912e-003
1.46756756756756e+006	6.35575133978424e-001,4.70418129438411e-001	7.28849732043152e-003,-9.40836258876821e-003
1.47747747747747e+006	6.42565031708595e-001,4.68317099367303e-001	7.14869936582811e-003,-9.36634198734606e-003
1.48738738738738e+006	6.49597192043737e-001,4.66077746082658e-001	7.00805615912526e-003,-9.32155492165317e-003
1.49729729729729e+006	6.56679496071992e-001,4.63690961282662e-001	6.86641007856017e-003,-9.27381922565324e-003
1.50720720720720e+006	6.63823174649053e-001,4.61144277031411e-001	6.72353650701894e-003,-9.22288554062822e-003
1.51711711711711e+006	6.71043062056600e-001,4.58420056186538e-001	6.57913875886801e-003,-9.16840112373076e-003
1.52702702702702e+006	6.78359397240777e-001,4.55491402988476e-001	6.43281205518445e-003,-9.10982805976951e-003
1.53693693693693e+006	6.85800174094030e-001,4.52310742714524e-001	6.28399651811941e-003,-9.04621485429049e-003
1.54684684684684e+006	6.93395569211440e-001,4.48769284343268e-001	6.13208861577120e-003,-8.97538568686536e-003
1.55675675675675e+006	7.01011832849061e-001,4.44539516356061e-001	5.97976334301878e-003,-8.89079032712122e-003
1.56666666666666e+006	7.07317546081718e-001,4.40336029677743e-001	5.85364907836564e-003,-8.80672059355486e-003
1.57657657657657e+006	7.15475634370831e-001,4.37270026762014e-001	5.69048731258337e-003,-8.74540053524029e-003
1.58648648648648e+006	7.24368317314251e-001,4.32531313971226e-001	5.51263365371498e-003,-8.65062627942451e-003
1.59639639639639e+006	7.33556533437172e-001,4.26696458031077e-001	5.32886933125655e-003,-8.53392916062154e-003
1.60630630630630e+006	7.43325365343092e-001,4.19299964183970e-001	5.13349269313817e-003,-8.38599928367940e-003
1.61621621621621e+006	7.53601799286584e-001,4.08720097381162e-001	4.92796401426832e-003,-8.17440194762324e-003
1.62612612612612e+006	7.59623752499219e-001,3.91280207746607e-001	4.80752495001562e-003,-7.82560415493213e-003
1.63603603603603e+006	7.56074810615992e-001,3.86513471622220e-001	4.87850378768017e-003,-7.73026943244439e-003
1.64594594594594e+006	7.73988075012277e-001,3.73199444923135e-001	4.52023849975446e-003,-7.46398889846271e-003
1.65585585585585e+006	7.78651684201929e-001,3.28527901535243e-001	4.42696631596142e-003,-6.57055803070487e-003
1.66576576576576e+006	6.96841271848144e-001,2.93537580266199e-001	6.06317456303711e-003,-5.87075160532398e-003
1.67567567567567e+006	6.82636379874643e-001,3.82327121350426e-001	6.34727240250713e-003,-7.64654242700853e-003
1.68558558558558e+006	7.27830247907310e-001,3.97033764354075e-001	5.44339504185381e-003,-7.94067528708150e-003
1.69549549549549e+006	7.56668910018990e-001,3.80521620701460e-001	4.86662179962021e-003,-7.61043241402921e-003
1.70540540540540e+006	7.57444361493487e-001,3.40086562598773e-001	4.85111277013027e-003,-6.80173125197545e-003
1.71531531531531e+006	7.08850097231939e-001,3.58196577486595e-001	5.82299805536123e-003,-7.16393154973190e-003
1.72522522522522e+006	7.41133780375443e-001,3.80134210910040e-001	5.17732439249115e-003,-7.60268421820080e-003
1.73513513513513e+006	7.48399812102569e-001,3.52258580877416e-001	5.03200375794862e-003,-7.04517161754833e-003
1.74504504504504e+006	7.18002836747505e-001,3.75742531036697e-001	5.63994326504990e-003,-7.51485062073395e-003
1.75495495495495e+006	7.46549122050183e-001,3.95186518216794e-001	5.06901755899635e-003,-7.90373036433588e-003
1.76486486486486e+006	7.63550072647332e-001,3.93096471755096e-001	4.72899854705336e-003,-7.86192943510193e-003
1.77477477477477e+006	7.79842748660781e-001,3.89959686668512e-001	4.40314502678439e-003,-7.79919373337024e-003
1.78468468468468e+006	7.90962049557281e-001,3.83828385699276e-001	4.18075900885437e-003,-7.67656771398551e-003
1.79459459459459e+006	8.02714784902983e-001,3.78571534351541e-001	3.94570430194034e-003,-7.57143068703081e-003
1.80450450450450e+006	8.13368214790445e-001,3.71217377432573e-001	3.73263570419109e-003,-7.42434754865146e-003
1.81441441441441e+006	8.22984961625104e-001,3.63132810207835e-001	3.54030076749792e-003,-7.26265620415669e-003
1.82432432432432e+006	8.32124908601643e-001,3.54207316919005e-001	3.35750182796714e-003,-7.08414633838009e-003
1.83423423423423e+006	8.41074655432912e-001,3.43832496474514e-001	3.17850689134175e-003,-6.87664992949028e-003
1.84414414414414e+006	8.49839872509574e-001,3.30638035990719e-001	3.00320254980852e-003,-6.61276071981438e-003
1.85405405405405e+006	8.57173138746184e-001,3.11192274878217e-001	2.85653722507632e-003,-6.22384549756434e-003
1.86396396396396e+006	8.52508393841031e-001,2.77479145210237e-001	2.94983212317938e-003,-5.54958290420473e-003
