Freq.	V(1|1|1|b)	I(R129)
1.00000000000000e+005	4.55719294601858e-002,1.41660361901888e-001	1.90885614107963e-002,-2.83320723803776e-003
1.09909909909910e+005	4.98699984005940e-002,1.55056977500236e-001	1.90026000319881e-002,-3.10113955000472e-003
1.19819819819820e+005	5.45373823718016e-002,1.68277699513879e-001	1.89092523525640e-002,-3.36555399027758e-003
1.29729729729730e+005	5.95647275046385e-002,1.81309238638774e-001	1.88087054499072e-002,-3.62618477277547e-003
1.39639639639640e+005	6.49420870759610e-002,1.94138917601084e-001	1.87011582584808e-002,-3.88277835202167e-003
1.49549549549550e+005	7.06589685517799e-002,2.06754701292726e-001	1.85868206289644e-002,-4.13509402585453e-003
1.59459459459459e+005	7.67043821670318e-002,2.19145222799911e-001	1.84659123566594e-002,-4.38290445599822e-003
1.69369369369369e+005	8.30668906452630e-002,2.31299805271449e-001	1.83386621870947e-002,-4.62599610542897e-003
1.79279279279279e+005	8.97346596658259e-002,2.43208479615032e-001	1.82053068066835e-002,-4.86416959230065e-003
1.89189189189189e+005	9.66955086950724e-002,2.54861998049415e-001	1.80660898260986e-002,-5.09723996098830e-003
1.99099099099099e+005	1.03936961811106e-001,2.66251843577928e-001	1.79212607637779e-002,-5.32503687155855e-003
2.09009009009009e+005	1.11446298168509e-001,2.77370235483687e-001	1.77710740366298e-002,-5.54740470967373e-003
2.18918918918919e+005	1.19210601769618e-001,2.88210130978708e-001	1.76157879646076e-002,-5.76420261957415e-003
2.28828828828829e+005	1.27216810231916e-001,2.98765223167733e-001	1.74556637953617e-002,-5.97530446335466e-003
2.38738738738739e+005	1.35451762266384e-001,3.09029935512650e-001	1.72909647546723e-002,-6.18059871025300e-003
2.48648648648649e+005	1.43902243608766e-001,3.18999413004795e-001	1.71219551278247e-002,-6.37998826009589e-003
2.58558558558559e+005	1.52555031174054e-001,3.28669510270167e-001	1.69488993765189e-002,-6.57339020540333e-003
2.68468468468468e+005	1.61396935233664e-001,3.38036776846567e-001	1.67720612953267e-002,-6.76073553693135e-003
2.78378378378378e+005	1.70414839444276e-001,3.47098439882074e-001	1.65917032111145e-002,-6.94196879764148e-003
2.88288288288288e+005	1.79595738586665e-001,3.55852384511124e-001	1.64080852282667e-002,-7.11704769022249e-003
2.98198198198198e+005	1.88926773901706e-001,3.64297132168034e-001	1.62214645219659e-002,-7.28594264336068e-003
3.08108108108108e+005	1.98395265938750e-001,3.72431817098196e-001	1.60320946812250e-002,-7.44863634196392e-003
3.18018018018018e+005	2.07988744858344e-001,3.80256161324780e-001	1.58402251028331e-002,-7.60512322649560e-003
3.27927927927928e+005	2.17694978156674e-001,3.87770448323723e-001	1.56461004368665e-002,-7.75540896647446e-003
3.37837837837838e+005	2.27501995802810e-001,3.94975495652475e-001	1.54499600839438e-002,-7.89950991304950e-003
3.47747747747748e+005	2.37398112801726e-001,4.01872626768638e-001	1.52520377439655e-002,-8.03745253537275e-003
3.57657657657657e+005	2.47371949216045e-001,4.08463642263612e-001	1.50525610156791e-002,-8.16927284527224e-003
3.67567567567567e+005	2.57412447697362e-001,4.14750790723938e-001	1.48517510460528e-002,-8.29501581447877e-003
3.77477477477477e+005	2.67508888593897e-001,4.20736739419483e-001	1.46498222281221e-002,-8.41473478838966e-003
3.87387387387387e+005	2.77650902715018e-001,4.26424545003265e-001	1.44469819456996e-002,-8.52849090006530e-003
3.97297297297297e+005	2.87828481844960e-001,4.31817624392760e-001	1.42434303631008e-002,-8.63635248785520e-003
4.07207207207207e+005	2.98031987107857e-001,4.36919725987286e-001	1.40393602578429e-002,-8.73839451974572e-003
4.17117117117117e+005	3.08252155294085e-001,4.41734901360653e-001	1.38349568941183e-002,-8.83469802721306e-003
4.27027027027027e+005	3.18480103264035e-001,4.46267477553020e-001	1.36303979347193e-002,-8.92534955106040e-003
4.36936936936936e+005	3.28707330549811e-001,4.50522030070834e-001	1.34258533890038e-002,-9.01044060141668e-003
4.46846846846846e+005	3.38925720278217e-001,4.54503356689124e-001	1.32214855944357e-002,-9.09006713378249e-003
4.56756756756756e+005	3.49127538539811e-001,4.58216452136357e-001	1.30174492292038e-002,-9.16432904272715e-003
4.66666666666666e+005	3.59305432328908e-001,4.61666483728591e-001	1.28138913534218e-002,-9.23332967457181e-003
4.76576576576576e+005	3.69452426178446e-001,4.64858768006979e-001	1.26109514764311e-002,-9.29717536013959e-003
4.86486486486486e+005	3.79561917611528e-001,4.67798748420743e-001	1.24087616477694e-002,-9.35597496841486e-003
4.96396396396396e+005	3.89627671528582e-001,4.70491974086622e-001	1.22074465694284e-002,-9.40983948173243e-003
5.06306306306306e+005	3.99643813645426e-001,4.72944079645603e-001	1.20071237270915e-002,-9.45888159291205e-003
5.16216216216216e+005	4.09604823093204e-001,4.75160766228360e-001	1.18079035381359e-002,-9.50321532456719e-003
5.26126126126125e+005	4.19505524286418e-001,4.77147783532340e-001	1.16098895142717e-002,-9.54295567064679e-003
5.36036036036035e+005	4.29341078160071e-001,4.78910913005829e-001	1.14131784367986e-002,-9.57821826011658e-003
5.45945945945945e+005	4.39106972871470e-001,4.80455952127537e-001	1.12178605425706e-002,-9.60911904255073e-003
5.55855855855855e+005	4.48799014056540e-001,4.81788699764270e-001	1.10240197188692e-002,-9.63577399528540e-003
5.65765765765765e+005	4.58413314724709e-001,4.82914942584094e-001	1.08317337055058e-002,-9.65829885168188e-003
5.75675675675675e+005	4.67946284870564e-001,4.83840442497895e-001	1.06410743025887e-002,-9.67680884995790e-003
5.85585585585585e+005	4.77394620874625e-001,4.84570925098536e-001	1.04521075825075e-002,-9.69141850197072e-003
5.95495495495495e+005	4.86755294759821e-001,4.85112069063657e-001	1.02648941048036e-002,-9.70224138127315e-003
6.05405405405405e+005	4.96025543364586e-001,4.85469496485669e-001	1.00794891327083e-002,-9.70938992971338e-003
6.15315315315315e+005	5.05202857488005e-001,4.85648764090531e-001	9.89594285023991e-003,-9.71297528181062e-003
6.25225225225225e+005	5.14284971057119e-001,4.85655355305436e-001	9.71430057885763e-003,-9.71310710610873e-003
6.35135135135135e+005	5.23269850361403e-001,4.85494673134522e-001	9.53460299277195e-003,-9.70989346269044e-003
6.45045045045045e+005	5.32155683394577e-001,4.85172033801118e-001	9.35688633210845e-003,-9.70344067602236e-003
6.54954954954955e+005	5.40940869339304e-001,4.84692661114817e-001	9.18118261321392e-003,-9.69385322229635e-003
6.64864864864865e+005	5.49624008225959e-001,4.84061681521724e-001	9.00751983548082e-003,-9.68123363043449e-003
6.74774774774775e+005	5.58203890792614e-001,4.83284119796601e-001	8.83592218414772e-003,-9.66568239593202e-003
6.84684684684685e+005	5.66679488569534e-001,4.82364895336226e-001	8.66641022860933e-003,-9.64729790672453e-003
6.94594594594594e+005	5.75049944207951e-001,4.81308819014101e-001	8.49900111584097e-003,-9.62617638028201e-003
7.04504504504504e+005	5.83314562069624e-001,4.80120590557585e-001	8.33370875860752e-003,-9.60241181115171e-003
7.14414414414414e+005	5.91472799090639e-001,4.78804796409706e-001	8.17054401818721e-003,-9.57609592819412e-003
7.24324324324324e+005	5.99524255930182e-001,4.77365908039073e-001	8.00951488139636e-003,-9.54731816078145e-003
7.34234234234234e+005	6.07468668412461e-001,4.75808280662691e-001	7.85062663175079e-003,-9.51616561325381e-003
7.44144144144144e+005	6.15305899267681e-001,4.74136152347832e-001	7.69388201464638e-003,-9.48272304695665e-003
7.54054054054054e+005	6.23035930175926e-001,4.72353643460573e-001	7.53928139648149e-003,-9.44707286921146e-003
7.63963963963964e+005	6.30658854115890e-001,4.70464756430056e-001	7.38682291768219e-003,-9.40929512860112e-003
7.73873873873874e+005	6.38174868018837e-001,4.68473375799038e-001	7.23650263962325e-003,-9.36946751598075e-003
7.83783783783784e+005	6.45584265726589e-001,4.66383268532727e-001	7.08831468546822e-003,-9.32766537065454e-003
7.93693693693694e+005	6.52887431251140e-001,4.64198084559409e-001	6.94225137497720e-003,-9.28396169118818e-003
8.03603603603604e+005	6.60084832332296e-001,4.61921357517770e-001	6.79830335335408e-003,-9.23842715035541e-003
8.13513513513514e+005	6.67177014288795e-001,4.59556505687249e-001	6.65645971422411e-003,-9.19113011374497e-003
8.23423423423424e+005	6.74164594157480e-001,4.57106833079104e-001	6.51670811685040e-003,-9.14213666158207e-003
8.33333333333334e+005	6.81048255114424e-001,4.54575530667205e-001	6.37903489771153e-003,-9.09151061334411e-003
8.43243243243244e+005	6.87828741171249e-001,4.51965677738811e-001	6.24342517657503e-003,-9.03931355477622e-003
8.53153153153153e+005	6.94506852139439e-001,4.49280243346802e-001	6.10986295721122e-003,-8.98560486693603e-003
8.63063063063063e+005	7.01083438854997e-001,4.46522087845995e-001	5.97833122290006e-003,-8.93044175691990e-003
8.72972972972973e+005	7.07559398655526e-001,4.43693964497225e-001	5.84881202688949e-003,-8.87387928994449e-003
8.82882882882883e+005	7.13935671101540e-001,4.40798521123901e-001	5.72128657796920e-003,-8.81597042247802e-003
8.92792792792793e+005	7.20213233933685e-001,4.37838301806686e-001	5.59573532132630e-003,-8.75676603613373e-003
9.02702702702703e+005	7.26393099257410e-001,4.34815748602829e-001	5.47213801485180e-003,-8.69631497205657e-003
9.12612612612613e+005	7.32476309946611e-001,4.31733203277449e-001	5.35047380106779e-003,-8.63466406554897e-003
9.22522522522523e+005	7.38463936257759e-001,4.28592909034847e-001	5.23072127484482e-003,-8.57185818069694e-003
9.32432432432433e+005	7.44357072646076e-001,4.25397012238515e-001	5.11285854707848e-003,-8.50794024477030e-003
9.42342342342343e+005	7.50156834775397e-001,4.22147564109126e-001	4.99686330449205e-003,-8.44295128218252e-003
9.52252252252253e+005	7.55864356713482e-001,4.18846522390269e-001	4.88271286573035e-003,-8.37693044780539e-003
9.62162162162163e+005	7.61480788304685e-001,4.15495752972110e-001	4.77038423390629e-003,-8.30991505944220e-003
9.72072072072073e+005	7.67007292712051e-001,4.12097031463486e-001	4.65985414575897e-003,-8.24194062926971e-003
9.81981981981983e+005	7.72445044121097e-001,4.08652044703207e-001	4.55109911757807e-003,-8.17304089406414e-003
9.91891891891893e+005	7.77795225597747e-001,4.05162392201470e-001	4.44409548804506e-003,-8.10324784402939e-003
1.00180180180180e+006	7.83059027093106e-001,4.01629587502374e-001	4.33881945813789e-003,-8.03259175004749e-003
1.01171171171171e+006	7.88237643587973e-001,3.98055059458491e-001	4.23524712824053e-003,-7.96110118916982e-003
1.02162162162162e+006	7.93332273370256e-001,3.94440153408282e-001	4.13335453259488e-003,-7.88880306816564e-003
1.03153153153153e+006	7.98344116438662e-001,3.90786132246941e-001	4.03311767122676e-003,-7.81572264493883e-003
1.04144144144144e+006	8.03274373026309e-001,3.87094177380816e-001	3.93451253947381e-003,-7.74188354761632e-003
1.05135135135135e+006	8.08124242238145e-001,3.83365389555080e-001	3.83751515523710e-003,-7.66730779110161e-003
1.06126126126126e+006	8.12894920796286e-001,3.79600789543661e-001	3.74210158407428e-003,-7.59201579087322e-003
1.07117117117117e+006	8.17587601887676e-001,3.75801318689579e-001	3.64824796224648e-003,-7.51602637379158e-003
1.08108108108108e+006	8.22203474108663e-001,3.71967839282856e-001	3.55593051782673e-003,-7.43935678565713e-003
1.09099099099099e+006	8.26743720501370e-001,3.68101134761908e-001	3.46512558997260e-003,-7.36202269523816e-003
1.10090090090090e+006	8.31209517676926e-001,3.64201909722846e-001	3.37580964646149e-003,-7.28403819445692e-003
1.11081081081081e+006	8.35602035020891e-001,3.60270789719387e-001	3.28795929958218e-003,-7.20541579438775e-003
1.12072072072072e+006	8.39922433976390e-001,3.56308320833951e-001	3.20155132047219e-003,-7.12616641667902e-003
1.13063063063063e+006	8.44171867400679e-001,3.52314968998083e-001	3.11656265198643e-003,-7.04629937996167e-003
1.14054054054054e+006	8.48351478991058e-001,3.48291119037441e-001	3.03297042017884e-003,-6.96582238074882e-003
1.15045045045045e+006	8.52462402776223e-001,3.44237073413125e-001	2.95075194447553e-003,-6.88474146826251e-003
1.16036036036036e+006	8.56505762669264e-001,3.40153050627136e-001	2.86988474661472e-003,-6.80306101254273e-003
1.17027027027027e+006	8.60482672078668e-001,3.36039183254906e-001	2.79034655842665e-003,-6.72078366509812e-003
1.18018018018018e+006	8.64394233573745e-001,3.31895515562239e-001	2.71211532852511e-003,-6.63791031124479e-003
1.19009009009009e+006	8.68241538600959e-001,3.27722000657254e-001	2.63516922798082e-003,-6.55444001314509e-003
1.20000000000000e+006	8.72025667247598e-001,3.23518497119928e-001	2.55948665504804e-003,-6.47036994239857e-003
1.20990990990991e+006	8.75747688049160e-001,3.19284765042322e-001	2.48504623901680e-003,-6.38569530084643e-003
1.21981981981982e+006	8.79408657836637e-001,3.15020461401114e-001	2.41182684326726e-003,-6.30040922802227e-003
1.22972972972973e+006	8.83009621619586e-001,3.10725134670355e-001	2.33980756760828e-003,-6.21450269340710e-003
1.23963963963964e+006	8.86551612500413e-001,3.06398218565742e-001	2.26896774999175e-003,-6.12796437131483e-003
1.24954954954955e+006	8.90035651614626e-001,3.02039024791592e-001	2.19928696770748e-003,-6.04078049583184e-003
1.25945945945946e+006	8.93462748090887e-001,2.97646734637186e-001	2.13074503818227e-003,-5.95293469274371e-003
1.26936936936937e+006	8.96833899023327e-001,2.93220389239071e-001	2.06332201953346e-003,-5.86440778478143e-003
1.27927927927928e+006	9.00150089446819e-001,2.88758878288955e-001	1.99699821106362e-003,-5.77517756577911e-003
1.28918918918919e+006	9.03412292303327e-001,2.84260926920933e-001	1.93175415393346e-003,-5.68521853841866e-003
1.29909909909910e+006	9.06621468384032e-001,2.79725080454692e-001	1.86757063231936e-003,-5.59450160909385e-003
1.30900900900901e+006	9.09778566227145e-001,2.75149686599655e-001	1.80442867545709e-003,-5.50299373199309e-003
1.31891891891892e+006	9.12884521944763e-001,2.70532874634461e-001	1.74230956110475e-003,-5.41065749268922e-003
1.32882882882883e+006	9.15940258942982e-001,2.65872530961018e-001	1.68119482114035e-003,-5.31745061922035e-003
1.33873873873874e+006	9.18946687486818e-001,2.61166270284543e-001	1.62106625026364e-003,-5.22332540569087e-003
1.34864864864865e+006	9.21904704043589e-001,2.56411401480001e-001	1.56190591912821e-003,-5.12822802960002e-003
1.35855855855856e+006	9.24815190313251e-001,2.51604886955966e-001	1.50369619373498e-003,-5.03209773911931e-003
1.36846846846847e+006	9.27679011818079e-001,2.46743293998594e-001	1.44641976363841e-003,-4.93486587997189e-003
1.37837837837838e+006	9.30497015872222e-001,2.41822736141330e-001	1.39005968255555e-003,-4.83645472282659e-003
1.38828828828829e+006	9.33270028675864e-001,2.36838802017988e-001	1.33459942648272e-003,-4.73677604035976e-003
1.39819819819820e+006	9.35998851167017e-001,2.31786468356363e-001	1.28002297665966e-003,-4.63572936712727e-003
1.40810810810811e+006	9.38684253096781e-001,2.26659992665577e-001	1.22631493806437e-003,-4.53319985331153e-003
1.41801801801802e+006	9.41326964540100e-001,2.21452779626890e-001	1.17346070919800e-003,-4.42905559253781e-003
1.42792792792793e+006	9.43927663662379e-001,2.16157213006676e-001	1.12144672675241e-003,-4.32314426013352e-003
1.43783783783784e+006	9.46486958946868e-001,2.10764441748266e-001	1.07026082106265e-003,-4.21528883496532e-003
1.44774774774775e+006	9.49005363100953e-001,2.05264104253012e-001	1.01989273798094e-003,-4.10528208506025e-003
1.45765765765766e+006	9.51483254241870e-001,1.99643967895401e-001	9.70334915162610e-004,-3.99287935790803e-003
1.46756756756756e+006	9.53920817243143e-001,1.93889450141817e-001	9.21583655137135e-004,-3.87778900283633e-003
1.47747747747747e+006	9.56317953422150e-001,1.87982970873844e-001	8.73640931557003e-004,-3.75965941747687e-003
1.48738738738738e+006	9.58674138359135e-001,1.81903058440313e-001	8.26517232817310e-004,-3.63806116880625e-003
1.49729729729729e+006	9.60988192110270e-001,1.75623086860730e-001	7.80236157794596e-004,-3.51246173721459e-003
1.50720720720720e+006	9.63257896114524e-001,1.69109443781257e-001	7.34842077709521e-004,-3.38218887562515e-003
1.51711711711711e+006	9.65479330408159e-001,1.62318788990990e-001	6.90413391836817e-004,-3.24637577981981e-003
1.52702702702702e+006	9.67645674671266e-001,1.55193800315094e-001	6.47086506574686e-004,-3.10387600630188e-003
1.53693693693693e+006	9.69744918356207e-001,1.47656281877067e-001	6.05101632875860e-004,-2.95312563754134e-003
1.54684684684684e+006	9.71755183688110e-001,1.39595408823660e-001	5.64896326237792e-004,-2.79190817647320e-003
1.55675675675675e+006	9.73634331284863e-001,1.30846392247499e-001	5.27313374302736e-004,-2.61692784494998e-003
1.56666666666666e+006	9.75294212124845e-001,1.21148773556770e-001	4.94115757503097e-004,-2.42297547113539e-003
1.57657657657657e+006	9.76527106781056e-001,1.10057748074389e-001	4.69457864378886e-004,-2.20115496148777e-003
1.58648648648648e+006	9.76751151682424e-001,9.67423444374269e-002	4.64976966351511e-004,-1.93484688874854e-003
1.59639639639639e+006	9.73874602774749e-001,7.96025068985353e-002	5.22507944505020e-004,-1.59205013797071e-003
1.60630630630630e+006	9.58165693027163e-001,5.86395766553171e-002	8.36686139456742e-004,-1.17279153310634e-003
1.61621621621621e+006	9.29217860538091e-001,7.47714348159483e-002	1.41564278923818e-003,-1.49542869631897e-003
1.62612612612612e+006	9.55382321460147e-001,7.67735146193262e-002	8.92353570797062e-004,-1.53547029238652e-003
1.63603603603603e+006	9.59201244910915e-001,4.52529229113779e-002	8.15975101781696e-004,-9.05058458227558e-004
1.64594594594594e+006	9.31830325489867e-001,4.23439137051082e-003	1.36339349020267e-003,-8.46878274102164e-005
1.65585585585585e+006	8.32882514061977e-001,3.88426045608431e-003	3.34234971876047e-003,-7.76852091216862e-005
1.66576576576576e+006	8.37851218336955e-001,1.37853680775945e-001	3.24297563326091e-003,-2.75707361551891e-003
1.67567567567567e+006	9.20488430654838e-001,1.41452194929739e-001	1.59023138690324e-003,-2.82904389859478e-003
1.68558558558558e+006	9.52923899678453e-001,1.11916417963609e-001	9.41522006430946e-004,-2.23832835927219e-003
1.69549549549549e+006	9.65491069519795e-001,8.32878669745971e-002	6.90178609604100e-004,-1.66575733949194e-003
1.70540540540540e+006	9.68323495769935e-001,5.44180040412179e-002	6.33530084601301e-004,-1.08836008082436e-003
1.71531531531531e+006	9.58764166546673e-001,2.13761485084468e-002	8.24716669066545e-004,-4.27522970168935e-004
1.72522522522522e+006	9.12358390692206e-001,-6.07906707557385e-003	1.75283218615587e-003,1.21581341511477e-004
1.73513513513513e+006	8.79114272824704e-001,6.45278784919421e-002	2.41771454350591e-003,-1.29055756983884e-003
1.74504504504504e+006	9.41835813806660e-001,6.91609168316243e-002	1.16328372386679e-003,-1.38321833663249e-003
1.75495495495495e+006	9.63404237413408e-001,3.45098679471088e-002	7.31915251731843e-004,-6.90197358942176e-004
1.76486486486486e+006	9.66095236369047e-001,5.68045842398696e-004	6.78095272619048e-004,-1.13609168479739e-005
1.77477477477477e+006	9.62655499225556e-001,-3.39322949312508e-002	7.46890015488884e-004,6.78645898625017e-004
1.78468468468468e+006	9.49424584155293e-001,-7.57793648924707e-002	1.01150831689413e-003,1.51558729784941e-003
1.79459459459459e+006	9.19415190376901e-001,-1.25823051271380e-001	1.61169619246199e-003,2.51646102542760e-003
1.80450450450450e+006	8.56046581985415e-001,-1.83234661511608e-001	2.87906836029169e-003,3.66469323023217e-003
1.81441441441441e+006	7.24504211890114e-001,-2.22419738174555e-001	5.50991576219772e-003,4.44839476349110e-003
1.82432432432432e+006	5.24770505429351e-001,-1.29478057069101e-001	9.50458989141297e-003,2.58956114138201e-003
1.83423423423423e+006	4.92683524428138e-001,1.39915441123507e-001	1.01463295114372e-002,-2.79830882247015e-003
1.84414414414414e+006	6.59814885505050e-001,2.75512755361313e-001	6.80370228989899e-003,-5.51025510722625e-003
1.85405405405405e+006	7.93361220087242e-001,2.71503556271418e-001	4.13277559825517e-003,-5.43007112542837e-003
1.86396396396396e+006	8.68314546800269e-001,2.33173087261354e-001	2.63370906399462e-003,-4.66346174522708e-003
