Freq.	V(1|1|1|b)	I(R129)
1.00000000000000e+005	4.80910520699740e-002,1.48134853419632e-001	1.90381789586005e-002,-2.96269706839263e-003
1.09909909909910e+005	5.27942450755648e-002,1.62078165868270e-001	1.89441150984887e-002,-3.24156331736539e-003
1.19819819819820e+005	5.78979282129410e-002,1.75821229947994e-001	1.88420414357412e-002,-3.51642459895988e-003
1.29729729729730e+005	6.33910456871094e-002,1.89349106882939e-001	1.87321790862578e-002,-3.78698213765878e-003
1.39639639639640e+005	6.92618537450374e-002,2.02647624181561e-001	1.86147629250993e-002,-4.05295248363121e-003
1.49549549549550e+005	7.54979838089119e-002,2.15703406325494e-001	1.84900403238218e-002,-4.31406812650988e-003
1.59459459459459e+005	8.20865060318076e-002,2.28503901470870e-001	1.83582698793638e-002,-4.57007802941741e-003
1.69369369369369e+005	8.90139933044392e-002,2.41037403583217e-001	1.82197201339112e-002,-4.82074807166433e-003
1.79279279279279e+005	9.62665854847638e-002,2.53293069704040e-001	1.80746682903047e-002,-5.06586139408079e-003
1.89189189189189e+005	1.03830053504308e-001,2.65260932227042e-001	1.79233989299138e-002,-5.30521864454085e-003
1.99099099099099e+005	1.11689862956800e-001,2.76931906186222e-001	1.77662027408640e-002,-5.53863812372444e-003
2.09009009009009e+005	1.19831236763617e-001,2.88297791648746e-001	1.76033752647277e-002,-5.76595583297492e-003
2.18918918918919e+005	1.28239216520679e-001,2.99351271374380e-001	1.74352156695864e-002,-5.98702542748760e-003
2.28828828828829e+005	1.36898722154262e-001,3.10085903956870e-001	1.72620255569148e-002,-6.20171807913740e-003
2.38738738738739e+005	1.45794609543909e-001,3.20496112704774e-001	1.70841078091218e-002,-6.40992225409549e-003
2.48648648648649e+005	1.54911725806324e-001,3.30577170552050e-001	1.69017654838735e-002,-6.61154341104100e-003
2.58558558558559e+005	1.64234961972706e-001,3.40325181313542e-001	1.67153007605459e-002,-6.80650362627085e-003
2.68468468468468e+005	1.73749302832192e-001,3.49737057618462e-001	1.65250139433562e-002,-6.99474115236924e-003
2.78378378378378e+005	1.83439873754651e-001,3.58810495866599e-001	1.63312025249070e-002,-7.17620991733198e-003
2.88288288288288e+005	1.93291984346325e-001,3.67543948558100e-001	1.61341603130735e-002,-7.35087897116200e-003
2.98198198198198e+005	2.03291168830910e-001,3.75936594348658e-001	1.59341766233818e-002,-7.51873188697315e-003
3.08108108108108e+005	2.13423223086140e-001,3.83988306178468e-001	1.57315355382772e-002,-7.67976612356937e-003
3.18018018018018e+005	2.23674238301305e-001,3.91699617815842e-001	1.55265152339739e-002,-7.83399235631683e-003
3.27927927927928e+005	2.34030631253993e-001,3.99071689145419e-001	1.53193873749201e-002,-7.98143378290838e-003
3.37837837837838e+005	2.44479171234567e-001,4.06106270517069e-001	1.51104165753087e-002,-8.12212541034139e-003
3.47747747747748e+005	2.55007003674084e-001,4.12805666455202e-001	1.48998599265183e-002,-8.25611332910404e-003
3.57657657657657e+005	2.65601670555667e-001,4.19172699009955e-001	1.46879665888867e-002,-8.38345398019910e-003
3.67567567567567e+005	2.76251127710471e-001,4.25210671011908e-001	1.44749774457906e-002,-8.50421342023817e-003
3.77477477477477e+005	2.86943759117556e-001,4.30923329471104e-001	1.42611248176489e-002,-8.61846658942207e-003
3.87387387387387e+005	2.97668388342101e-001,4.36314829339612e-001	1.40466322331580e-002,-8.72629658679224e-003
3.97297297297297e+005	3.08414287258698e-001,4.41389697835025e-001	1.38317142548260e-002,-8.82779395670051e-003
4.07207207207207e+005	3.19171182215974e-001,4.46152799500409e-001	1.36165763556805e-002,-8.92305599000819e-003
4.17117117117117e+005	3.29929257805782e-001,4.50609302154696e-001	1.34014148438844e-002,-9.01218604309392e-003
4.27027027027027e+005	3.40679158404808e-001,4.54764643866514e-001	1.31864168319038e-002,-9.09529287733028e-003
4.36936936936936e+005	3.51411987658828e-001,4.58624501064185e-001	1.29717602468234e-002,-9.17249002128370e-003
4.46846846846846e+005	3.62119306080365e-001,4.62194757875302e-001	1.27576138783927e-002,-9.24389515750604e-003
4.56756756756756e+005	3.72793126929168e-001,4.65481476771045e-001	1.25441374614166e-002,-9.30962953542091e-003
4.66666666666666e+005	3.83425910542177e-001,4.68490870573281e-001	1.23314817891565e-002,-9.36981741146563e-003
4.76576576576576e+005	3.94010557275473e-001,4.71229275866629e-001	1.21197888544905e-002,-9.42458551733258e-003
4.86486486486486e+005	4.04540399215493e-001,4.73703127843087e-001	1.19091920156901e-002,-9.47406255686175e-003
4.96396396396396e+005	4.15009190810660e-001,4.75918936593540e-001	1.16998161837868e-002,-9.51837873187080e-003
5.06306306306306e+005	4.25411098567622e-001,4.77883264848442e-001	1.14917780286476e-002,-9.55766529696885e-003
5.16216216216216e+005	4.35740689948902e-001,4.79602707159316e-001	1.12851862010220e-002,-9.59205414318631e-003
5.26126126126125e+005	4.45992921600820e-001,4.81083870503185e-001	1.10801415679836e-002,-9.62167741006371e-003
5.36036036036035e+005	4.56163127032424e-001,4.82333356283848e-001	1.08767374593515e-002,-9.64666712567695e-003
5.45945945945945e+005	4.66247003857848e-001,4.83357743696725e-001	1.06750599228430e-002,-9.66715487393450e-003
5.55855855855855e+005	4.76240600706145e-001,4.84163574418016e-001	1.04751879858771e-002,-9.68327148836033e-003
5.65765765765765e+005	4.86140303894367e-001,4.84757338573816e-001	1.02771939221127e-002,-9.69514677147632e-003
5.75675675675675e+005	4.95942823951460e-001,4.85145461940763e-001	1.00811435209708e-002,-9.70290923881526e-003
5.85585585585585e+005	5.05645182072607e-001,4.85334294326538e-001	9.88709635854786e-003,-9.70668588653076e-003
5.95495495495495e+005	5.15244696575915e-001,4.85330099076040e-001	9.69510606848169e-003,-9.70660198152080e-003
6.05405405405405e+005	5.24738969425959e-001,4.85139043647338e-001	9.50522061148083e-003,-9.70278087294675e-003
6.15315315315315e+005	5.34125872881609e-001,4.84767191200330e-001	9.31748254236782e-003,-9.69534382400660e-003
6.25225225225225e+005	5.43403536318904e-001,4.84220493140493e-001	9.13192927362192e-003,-9.68440986280985e-003
6.35135135135135e+005	5.52570333273378e-001,4.83504782560005e-001	8.94859333453244e-003,-9.67009565120010e-003
6.45045045045045e+005	5.61624868740375e-001,4.82625768518883e-001	8.76750262519249e-003,-9.65251537037767e-003
6.54954954954955e+005	5.70565966766346e-001,4.81589031109473e-001	8.58868066467309e-003,-9.63178062218946e-003
6.64864864864865e+005	5.79392658359025e-001,4.80400017248654e-001	8.41214683281951e-003,-9.60800034497307e-003
6.74774774774775e+005	5.88104169739676e-001,4.79064037143394e-001	8.23791660520649e-003,-9.58128074286789e-003
6.84684684684685e+005	5.96699910956256e-001,4.77586261376764e-001	8.06600178087487e-003,-9.55172522753528e-003
6.94594594594594e+005	6.05179464872420e-001,4.75971718563155e-001	7.89641070255160e-003,-9.51943437126310e-003
7.04504504504504e+005	6.13542576543703e-001,4.74225293523231e-001	7.72914846912595e-003,-9.48450587046461e-003
7.14414414414414e+005	6.21789142988979e-001,4.72351725930957e-001	7.56421714022042e-003,-9.44703451861914e-003
7.24324324324324e+005	6.29919203362415e-001,4.70355609386975e-001	7.40161593275171e-003,-9.40711218773949e-003
7.34234234234234e+005	6.37932929528512e-001,4.68241390874497e-001	7.24134140942975e-003,-9.36482781748994e-003
7.44144144144144e+005	6.45830617040598e-001,4.66013370555820e-001	7.08338765918804e-003,-9.32026741111640e-003
7.54054054054054e+005	6.53612676521045e-001,4.63675701869429e-001	6.92774646957909e-003,-9.27351403738859e-003
7.63963963963964e+005	6.61279625439802e-001,4.61232391889518e-001	6.77440749120396e-003,-9.22464783779035e-003
7.73873873873874e+005	6.68832080286248e-001,4.58687301911499e-001	6.62335839427505e-003,-9.17374603822998e-003
7.83783783783784e+005	6.76270749128126e-001,4.56044148228782e-001	6.47458501743748e-003,-9.12088296457563e-003
7.93693693693694e+005	6.83596424550184e-001,4.53306503067638e-001	6.32807150899632e-003,-9.06613006135277e-003
8.03603603603604e+005	6.90809976964260e-001,4.50477795648477e-001	6.18380046071480e-003,-9.00955591296955e-003
8.13513513513514e+005	6.97912348281799e-001,4.47561313343148e-001	6.04175303436403e-003,-8.95122626686296e-003
8.23423423423424e+005	7.04904545939212e-001,4.44560202899082e-001	5.90190908121576e-003,-8.89120405798165e-003
8.33333333333334e+005	7.11787637266028e-001,4.41477471702130e-001	5.76424725467944e-003,-8.82954943404260e-003
8.43243243243244e+005	7.18562744185488e-001,4.38315989050768e-001	5.62874511629025e-003,-8.76631978101537e-003
8.53153153153153e+005	7.25231038237004e-001,4.35078487415061e-001	5.49537923525992e-003,-8.70156974830122e-003
8.63063063063063e+005	7.31793735909829e-001,4.31767563654190e-001	5.36412528180343e-003,-8.63535127308381e-003
8.72972972972973e+005	7.38252094277240e-001,4.28385680166652e-001	5.23495811445521e-003,-8.56771360333304e-003
8.82882882882883e+005	7.44607406920642e-001,4.24935165947195e-001	5.10785186158717e-003,-8.49870331894391e-003
8.92792792792793e+005	7.50861000133107e-001,4.21418217524357e-001	4.98277999733786e-003,-8.42836435048713e-003
9.02702702702703e+005	7.57014229392103e-001,4.17836899751880e-001	4.85971541215793e-003,-8.35673799503760e-003
9.12612612612613e+005	7.63068476091403e-001,4.14193146426477e-001	4.73863047817194e-003,-8.28386292852954e-003
9.22522522522523e+005	7.69025144522490e-001,4.10488760703152e-001	4.61949710955021e-003,-8.20977521406304e-003
9.32432432432433e+005	7.74885659096143e-001,4.06725415277717e-001	4.50228681807713e-003,-8.13450830555433e-003
9.42342342342343e+005	7.80651461795257e-001,4.02904652304046e-001	4.38697076409486e-003,-8.05809304608091e-003
9.52252252252253e+005	7.86324009850385e-001,3.99027883011052e-001	4.27351980299231e-003,-7.98055766022104e-003
9.62162162162163e+005	7.91904773629972e-001,3.95096386981186e-001	4.16190452740055e-003,-7.90192773962373e-003
9.72072072072073e+005	7.97395234737681e-001,3.91111311048409e-001	4.05209530524639e-003,-7.82222622096819e-003
9.81981981981983e+005	8.02796884309724e-001,3.87073667768941e-001	3.94406231380553e-003,-7.74147335537882e-003
9.91891891891893e+005	8.08111221505636e-001,3.82984333412515e-001	3.83777556988728e-003,-7.65968666825030e-003
1.00180180180180e+006	8.13339752186391e-001,3.78844045415184e-001	3.73320495627219e-003,-7.57688090830368e-003
1.01171171171171e+006	8.18483987774293e-001,3.74653399226766e-001	3.63032024451414e-003,-7.49306798453532e-003
1.02162162162162e+006	8.23545444289568e-001,3.70412844476508e-001	3.52909111420864e-003,-7.40825688953016e-003
1.03153153153153e+006	8.28525641559024e-001,3.66122680369176e-001	3.42948716881951e-003,-7.32245360738352e-003
1.04144144144144e+006	8.33426102592591e-001,3.61783050210214e-001	3.33147794814818e-003,-7.23566100420427e-003
1.05135135135135e+006	8.38248353123899e-001,3.57393934942317e-001	3.23503293752202e-003,-7.14787869884635e-003
1.06126126126126e+006	8.42993921311340e-001,3.52955145556221e-001	3.14012157377320e-003,-7.05910291112443e-003
1.07117117117117e+006	8.47664337596184e-001,3.48466314214910e-001	3.04671324807631e-003,-6.96932628429820e-003
1.08108108108108e+006	8.52261134714287e-001,3.43926883901915e-001	2.95477730571425e-003,-6.87853767803831e-003
1.09099099099099e+006	8.56785847857653e-001,3.39336096369696e-001	2.86428304284694e-003,-6.78672192739392e-003
1.10090090090090e+006	8.61240014981459e-001,3.34692978121695e-001	2.77519970037082e-003,-6.69385956243390e-003
1.11081081081081e+006	8.65625177251070e-001,3.29996324109664e-001	2.68749645497860e-003,-6.59992648219327e-003
1.12072072072072e+006	8.69942879621775e-001,3.25244678763562e-001	2.60114240756450e-003,-6.50489357527124e-003
1.13063063063063e+006	8.74194671541334e-001,3.20436313891406e-001	2.51610656917331e-003,-6.40872627782813e-003
1.14054054054054e+006	8.78382107761461e-001,3.15569202886341e-001	2.43235784477078e-003,-6.31138405772681e-003
1.15045045045045e+006	8.82506749238698e-001,3.10640990551789e-001	2.34986501522603e-003,-6.21281981103577e-003
1.16036036036036e+006	8.86570164096966e-001,3.05648957694498e-001	2.26859671806067e-003,-6.11297915388995e-003
1.17027027027027e+006	8.90573928612406e-001,3.00589979428077e-001	2.18852142775189e-003,-6.01179958856155e-003
1.18018018018018e+006	8.94519628164473e-001,2.95460475859978e-001	2.10960743671053e-003,-5.90920951719956e-003
1.19009009009009e+006	8.98408858073286e-001,2.90256353479541e-001	2.03182283853429e-003,-5.80512706959083e-003
1.20000000000000e+006	9.02243224208502e-001,2.84972935089718e-001	1.95513551582996e-003,-5.69945870179436e-003
1.20990990990991e+006	9.06024343204072e-001,2.79604875479397e-001	1.87951313591856e-003,-5.59209750958793e-003
1.21981981981982e+006	9.09753842036982e-001,2.74146059138779e-001	1.80492315926036e-003,-5.48292118277557e-003
1.22972972972973e+006	9.13433356611489e-001,2.68589475052977e-001	1.73133286777021e-003,-5.37178950105954e-003
1.23963963963964e+006	9.17064528806054e-001,2.62927061766041e-001	1.65870942387892e-003,-5.25854123532081e-003
1.24954954954955e+006	9.20649001137160e-001,2.57149513142995e-001	1.58701997725681e-003,-5.14299026285990e-003
1.25945945945946e+006	9.24188407670171e-001,2.51246030955142e-001	1.51623184659657e-003,-5.02492061910284e-003
1.26936936936937e+006	9.27684358843125e-001,2.45204003419185e-001	1.44631282313749e-003,-4.90408006838369e-003
1.27927927927928e+006	9.31138415958698e-001,2.39008576841533e-001	1.37723168082604e-003,-4.78017153683065e-003
1.28918918918919e+006	9.34552046973038e-001,2.32642065695296e-001	1.30895906053924e-003,-4.65284131390592e-003
1.29909909909910e+006	9.37926545380110e-001,2.26083103676827e-001	1.24146909239779e-003,-4.52166207353653e-003
1.30900900900901e+006	9.41262867829391e-001,2.19305346838986e-001	1.17474264341219e-003,-4.38610693677972e-003
1.31891891891892e+006	9.44561267060349e-001,2.12275323323082e-001	1.10877465879302e-003,-4.24550646646163e-003
1.32882882882883e+006	9.47820318894522e-001,2.04948445145391e-001	1.04359362210955e-003,-4.09896890290783e-003
1.33873873873874e+006	9.51033761757512e-001,1.97260411978503e-001	9.79324764849761e-004,-3.94520823957006e-003
1.34864864864865e+006	9.54177104101551e-001,1.89104818942174e-001	9.16457917968980e-004,-3.78209637884348e-003
1.35855855855856e+006	9.57125245549214e-001,1.80264524481695e-001	8.57495089015712e-004,-3.60529048963390e-003
1.36846846846847e+006	9.58883611585348e-001,1.70492498614961e-001	8.22327768293045e-004,-3.40984997229923e-003
1.37837837837838e+006	9.60463112411833e-001,1.63958622567808e-001	7.90737751763349e-004,-3.27917245135616e-003
1.38828828828829e+006	9.65078666055392e-001,1.53840164117115e-001	6.98426678892168e-004,-3.07680328234230e-003
1.39819819819820e+006	9.67887524477438e-001,1.41666572309430e-001	6.42249510451232e-004,-2.83333144618860e-003
1.40810810810811e+006	9.67322274237671e-001,1.27883197555737e-001	6.53554515246573e-004,-2.55766395111475e-003
1.41801801801802e+006	9.67974530151011e-001,1.21808806065219e-001	6.40509396979776e-004,-2.43617612130438e-003
1.42792792792793e+006	9.73705103544863e-001,1.06422893179823e-001	5.25897929102743e-004,-2.12845786359646e-003
1.43783783783784e+006	9.75421449468089e-001,8.72490872340631e-002	4.91571010638214e-004,-1.74498174468126e-003
1.44774774774775e+006	9.73225691406563e-001,6.36653605057879e-002	5.35486171868740e-004,-1.27330721011576e-003
1.45765765765766e+006	9.61525666886136e-001,3.96684287886413e-002	7.69486662277286e-004,-7.93368575772825e-004
1.46756756756756e+006	9.52034727313166e-001,6.60613771532062e-003	9.59305453736674e-004,-1.32122754306412e-004
1.47747747747747e+006	8.90105008732414e-001,-4.21755257574640e-002	2.19789982535171e-003,8.43510515149281e-004
1.48738738738738e+006	7.79363204870199e-001,5.64519688783546e-002	4.41273590259603e-003,-1.12903937756709e-003
1.49729729729729e+006	8.87064251035950e-001,1.19211555502173e-001	2.25871497928100e-003,-2.38423111004345e-003
1.50720720720720e+006	9.22726792944087e-001,8.82751099481387e-002	1.54546414111826e-003,-1.76550219896277e-003
1.51711711711711e+006	9.53064365842709e-001,5.16735138352977e-002	9.38712683145821e-004,-1.03347027670595e-003
1.52702702702702e+006	9.59407732055516e-001,1.48704898024241e-003	8.11845358889676e-004,-2.97409796048481e-005
1.53693693693693e+006	9.49896195413627e-001,-5.37138043960694e-002	1.00207609172746e-003,1.07427608792139e-003
1.54684684684684e+006	9.21333120829790e-001,-1.18270111425147e-001	1.57333758340419e-003,2.36540222850293e-003
1.55675675675675e+006	8.58012383273066e-001,-1.93284502486581e-001	2.83975233453867e-003,3.86569004973162e-003
1.56666666666666e+006	7.27413774320928e-001,-2.60577585550336e-001	5.45172451358145e-003,5.21155171100672e-003
1.57657657657657e+006	5.06947722949558e-001,-2.35438881173064e-001	9.86104554100884e-003,4.70877762346128e-003
1.58648648648648e+006	3.38288849789944e-001,-5.00531755919625e-003	1.32342230042011e-002,1.00106351183925e-004
1.59639639639639e+006	4.01176418806769e-001,2.43836340020484e-001	1.19764716238646e-002,-4.87672680040969e-003
1.60630630630630e+006	5.52019678196372e-001,3.59249472265314e-001	8.95960643607257e-003,-7.18498944530628e-003
1.61621621621621e+006	6.78217152774072e-001,3.75204703737568e-001	6.43565694451855e-003,-7.50409407475136e-003
1.62612612612612e+006	7.61244155398626e-001,3.57712919594897e-001	4.77511689202749e-003,-7.15425839189795e-003
1.63603603603603e+006	8.15723235679146e-001,3.32567499953395e-001	3.68553528641708e-003,-6.65134999906789e-003
1.64594594594594e+006	8.52896155035801e-001,3.07512118853625e-001	2.94207689928398e-003,-6.15024237707249e-003
1.65585585585585e+006	8.79442157717598e-001,2.84493087670139e-001	2.41115684564804e-003,-5.68986175340279e-003
1.66576576576576e+006	8.99194826473396e-001,2.63733149160211e-001	2.01610347053208e-003,-5.27466298320422e-003
1.67567567567567e+006	9.14417758436466e-001,2.44979124308334e-001	1.71164483127069e-003,-4.89958248616668e-003
1.68558558558558e+006	9.26500350207145e-001,2.27882150168817e-001	1.46999299585710e-003,-4.55764300337633e-003
1.69549549549549e+006	9.36328303394089e-001,2.12109472707751e-001	1.27343393211822e-003,-4.24218945415502e-003
1.70540540540540e+006	9.44485346993115e-001,1.97370044892744e-001	1.11029306013770e-003,-3.94740089785489e-003
1.71531531531531e+006	9.51366478234455e-001,1.83412130447792e-001	9.72670435310907e-004,-3.66824260895584e-003
1.72522522522522e+006	9.57242854984395e-001,1.70011330941608e-001	8.55142900312105e-004,-3.40022661883216e-003
1.73513513513513e+006	9.62297732335699e-001,1.56953086114690e-001	7.54045353286026e-004,-3.13906172229379e-003
1.74504504504504e+006	9.66639445164973e-001,1.44005719791805e-001	6.67211096700542e-004,-2.88011439583609e-003
1.75495495495495e+006	9.70277456724942e-001,1.30868416149029e-001	5.94450865501157e-004,-2.61736832298059e-003
1.76486486486486e+006	9.72964514148530e-001,1.17051382679247e-001	5.40709717029395e-004,-2.34102765358493e-003
1.77477477477477e+006	9.73233164569655e-001,1.01749270818636e-001	5.35336708606904e-004,-2.03498541637271e-003
1.78468468468468e+006	9.64675063247156e-001,9.00196691505418e-002	7.06498735056877e-004,-1.80039338301084e-003
1.79459459459459e+006	9.70541089587667e-001,9.07835688285381e-002	5.89178208246668e-004,-1.81567137657076e-003
1.80450450450450e+006	9.78105424538279e-001,7.52239926195279e-002	4.37891509234427e-004,-1.50447985239056e-003
1.81441441441441e+006	9.79820221248781e-001,5.70737329050951e-002	4.03595575024382e-004,-1.14147465810190e-003
1.82432432432432e+006	9.76782005330819e-001,3.69193393068962e-002	4.64359893383615e-004,-7.38386786137924e-004
1.83423423423423e+006	9.69953246750691e-001,1.82236977024026e-002	6.00935064986172e-004,-3.64473954048051e-004
1.84414414414414e+006	9.55472310656410e-001,-1.17769403706835e-002	8.90553786871799e-004,2.35538807413670e-004
1.85405405405405e+006	8.94289127419258e-001,-3.03569745823123e-002	2.11421745161484e-003,6.07139491646247e-004
1.86396396396396e+006	8.75925091755137e-001,5.05002974355151e-002	2.48149816489725e-003,-1.01000594871030e-003
