Freq.	V(1|1|1|a)	I(R129)
1.00000000000000e+005	1.54067710932278e-002,5.88354485741863e-002	1.96918645781354e-002,-1.17670897148373e-003
1.09909909909910e+005	1.61443314650510e-002,6.46361814697918e-002	1.96771133706990e-002,-1.29272362939584e-003
1.19819819819820e+005	1.69512516413945e-002,7.04284730155028e-002	1.96609749671721e-002,-1.40856946031006e-003
1.29729729729730e+005	1.78274554881617e-002,7.62115629486328e-002	1.96434508902368e-002,-1.52423125897266e-003
1.39639639639640e+005	1.87728602593799e-002,8.19846912298468e-002	1.96245427948124e-002,-1.63969382459694e-003
1.49549549549550e+005	1.97873765867016e-002,8.77470980637916e-002	1.96042524682660e-002,-1.75494196127583e-003
1.59459459459459e+005	2.08709084681856e-002,9.34980239202333e-002	1.95825818306363e-002,-1.86996047840467e-003
1.69369369369369e+005	2.20233532563812e-002,9.92367095557346e-002	1.95595329348724e-002,-1.98473419111469e-003
1.79279279279279e+005	2.32446016457452e-002,1.04962396035907e-001	1.95351079670851e-002,-2.09924792071815e-003
1.89189189189189e+005	2.45345376594210e-002,1.10674324758274e-001	1.95093092468116e-002,-2.21348649516548e-003
1.99099099099099e+005	2.58930386354116e-002,1.16371737475772e-001	1.94821392272918e-002,-2.32743474951544e-003
2.09009009009009e+005	2.73199752121806e-002,1.22053876320927e-001	1.94536004957564e-002,-2.44107752641855e-003
2.18918918918919e+005	2.88152113137170e-002,1.27719983830739e-001	1.94236957737257e-002,-2.55439967661479e-003
2.28828828828829e+005	3.03786041341029e-002,1.33369302972292e-001	1.93924279173179e-002,-2.66738605944584e-003
2.38738738738739e+005	3.20100041216228e-002,1.39001077169133e-001	1.93597999175675e-002,-2.78002154338266e-003
2.48648648648649e+005	3.37092549624584e-002,1.44614550328440e-001	1.93258149007508e-002,-2.89229100656880e-003
2.58558558558559e+005	3.54761935640133e-002,1.50208966869004e-001	1.92904761287197e-002,-3.00417933738008e-003
2.68468468468468e+005	3.73106500379131e-002,1.55783571750054e-001	1.92537869992417e-002,-3.11567143500108e-003
2.78378378378378e+005	3.92124476827326e-002,1.61337610500943e-001	1.92157510463453e-002,-3.22675221001886e-003
2.88288288288288e+005	4.11814029664994e-002,1.66870329251724e-001	1.91763719406700e-002,-3.33740658503447e-003
2.98198198198198e+005	4.32173255090290e-002,1.72380974764628e-001	1.91356534898194e-002,-3.44761949529255e-003
3.08108108108108e+005	4.53200180641476e-002,1.77868794466470e-001	1.90935996387170e-002,-3.55737588932940e-003
3.18018018018018e+005	4.74892765018617e-002,1.83333036481997e-001	1.90502144699628e-002,-3.66666072963993e-003
3.27927927927928e+005	4.97248897905357e-002,1.88772949668185e-001	1.90055022041893e-002,-3.77545899336370e-003
3.37837837837838e+005	5.20266399791417e-002,1.94187783649518e-001	1.89594672004172e-002,-3.88375567299036e-003
3.47747747747748e+005	5.43943021796494e-002,1.99576788854237e-001	1.89121139564070e-002,-3.99153577708474e-003
3.57657657657657e+005	5.68276445496247e-002,2.04939216551584e-001	1.88634471090075e-002,-4.09878433103167e-003
3.67567567567567e+005	5.93264282751109e-002,2.10274318890038e-001	1.88134714344978e-002,-4.20548637780076e-003
3.77477477477477e+005	6.18904075538682e-002,2.15581348936558e-001	1.87621918489226e-002,-4.31162697873116e-003
3.87387387387387e+005	6.45193295790502e-002,2.20859560716822e-001	1.87096134084190e-002,-4.41719121433643e-003
3.97297297297297e+005	6.72129345234008e-002,2.26108209256467e-001	1.86557413095320e-002,-4.52216418512934e-003
4.07207207207207e+005	6.99709555240574e-002,2.31326550623336e-001	1.86005808895189e-002,-4.62653101246672e-003
4.17117117117117e+005	7.27931186680499e-002,2.36513841970705e-001	1.85441376266390e-002,-4.73027683941409e-003
4.27027027027027e+005	7.56791429785895e-002,2.41669341581497e-001	1.84864171404282e-002,-4.83338683162995e-003
4.36936936936936e+005	7.86287404022459e-002,2.46792308913473e-001	1.84274251919551e-002,-4.93584617826945e-003
4.46846846846846e+005	8.16416157971139e-002,2.51882004645359e-001	1.83671676840577e-002,-5.03764009290719e-003
4.56756756756756e+005	8.47174669220774e-002,2.56937690723931e-001	1.83056506615585e-002,-5.13875381447862e-003
4.66666666666666e+005	8.78559844272822e-002,2.61958630411987e-001	1.82428803114544e-002,-5.23917260823973e-003
4.76576576576576e+005	9.10568518459356e-002,2.66944088337223e-001	1.81788629630813e-002,-5.33888176674445e-003
4.86486486486486e+005	9.43197455875538e-002,2.71893330541951e-001	1.81136050882489e-002,-5.43786661083902e-003
4.96396396396396e+005	9.76443349327871e-002,2.76805624533638e-001	1.80471133013443e-002,-5.53611249067277e-003
5.06306306306306e+005	1.01030282029959e-001,2.81680239336225e-001	1.79793943594008e-002,-5.63360478672450e-003
5.16216216216216e+005	1.04477241893461e-001,2.86516445542170e-001	1.79104551621308e-002,-5.73032891084340e-003
5.26126126126125e+005	1.07984862404148e-001,2.91313515365185e-001	1.78403027519170e-002,-5.82627030730370e-003
5.36036036036035e+005	1.11552784311901e-001,2.96070722693591e-001	1.77689443137620e-002,-5.92141445387182e-003
5.45945945945945e+005	1.15180641240521e-001,3.00787343144241e-001	1.76963871751896e-002,-6.01574686288482e-003
5.55855855855855e+005	1.18868059695118e-001,3.05462654116937e-001	1.76226388060976e-002,-6.10925308233875e-003
5.65765765765765e+005	1.22614659072206e-001,3.10095934849276e-001	1.75477068185559e-002,-6.20191869698552e-003
5.75675675675675e+005	1.26420051672676e-001,3.14686466471827e-001	1.74715989665465e-002,-6.29372932943653e-003
5.85585585585585e+005	1.30283842717878e-001,3.19233532063565e-001	1.73943231456424e-002,-6.38467064127130e-003
5.95495495495495e+005	1.34205630369019e-001,3.23736416707460e-001	1.73158873926196e-002,-6.47472833414920e-003
6.05405405405405e+005	1.38185005750131e-001,3.28194407546106e-001	1.72362998849974e-002,-6.56388815092212e-003
6.15315315315315e+005	1.42221552974850e-001,3.32606793837284e-001	1.71555689405030e-002,-6.65213587674567e-003
6.25225225225225e+005	1.46314849177291e-001,3.36972867009329e-001	1.70737030164542e-002,-6.73945734018658e-003
6.35135135135135e+005	1.50464464547297e-001,3.41291920716164e-001	1.69907107090541e-002,-6.82583841432328e-003
6.45045045045045e+005	1.54669962370400e-001,3.45563250891848e-001	1.69066007525920e-002,-6.91126501783697e-003
6.54954954954955e+005	1.58930899072798e-001,3.49786155804479e-001	1.68213820185440e-002,-6.99572311608958e-003
6.64864864864865e+005	1.63246824271753e-001,3.53959936109270e-001	1.67350635145649e-002,-7.07919872218541e-003
6.74774774774775e+005	1.67617280831770e-001,3.58083894900616e-001	1.66476543833646e-002,-7.16167789801233e-003
6.84684684684685e+005	1.72041804927007e-001,3.62157337762924e-001	1.65591639014599e-002,-7.24314675525848e-003
6.94594594594594e+005	1.76519926110375e-001,3.66179572819991e-001	1.64696014777925e-002,-7.32359145639983e-003
7.04504504504504e+005	1.81051167389829e-001,3.70149910782683e-001	1.63789766522034e-002,-7.40299821565366e-003
7.14414414414414e+005	1.85635045312407e-001,3.74067664994622e-001	1.62872990937519e-002,-7.48135329989245e-003
7.24324324324324e+005	1.90271070056620e-001,3.77932151475612e-001	1.61945785988676e-002,-7.55864302951224e-003
7.34234234234234e+005	1.94958745533851e-001,3.81742688962451e-001	1.61008250893230e-002,-7.63485377924903e-003
7.44144144144144e+005	1.99697569499489e-001,3.85498598946799e-001	1.60060486100102e-002,-7.70997197893598e-003
7.54054054054054e+005	2.04487033674592e-001,3.89199205709681e-001	1.59102593265082e-002,-7.78398411419361e-003
7.63963963963964e+005	2.09326623878970e-001,3.92843836352228e-001	1.58134675224206e-002,-7.85687672704455e-003
7.73873873873874e+005	2.14215820176643e-001,3.96431820822159e-001	1.57156835964671e-002,-7.92863641644318e-003
7.83783783783784e+005	2.19154097034765e-001,3.99962491935492e-001	1.56169180593047e-002,-7.99924983870984e-003
7.93693693693694e+005	2.24140923497197e-001,4.03435185392914e-001	1.55171815300561e-002,-8.06870370785827e-003
8.03603603603604e+005	2.29175763374062e-001,4.06849239790162e-001	1.54164847325188e-002,-8.13698479580324e-003
8.13513513513514e+005	2.34258075448768e-001,4.10203996621724e-001	1.53148384910246e-002,-8.20407993243449e-003
8.23423423423424e+005	2.39387313704139e-001,4.13498800277066e-001	1.52122537259172e-002,-8.26997600554132e-003
8.33333333333334e+005	2.44562927569519e-001,4.16732998028511e-001	1.51087414486096e-002,-8.33465996057023e-003
8.43243243243244e+005	2.49784362190919e-001,4.19905940009810e-001	1.50043127561816e-002,-8.39811880019619e-003
8.53153153153153e+005	2.55051058726554e-001,4.23016979184294e-001	1.48989788254689e-002,-8.46033958368587e-003
8.63063063063063e+005	2.60362454670396e-001,4.26065471301406e-001	1.47927509065921e-002,-8.52130942602813e-003
8.72972972972973e+005	2.65717984206717e-001,4.29050774840220e-001	1.46856403158657e-002,-8.58101549680440e-003
8.82882882882883e+005	2.71117078599021e-001,4.31972250938400e-001	1.45776584280196e-002,-8.63944501876799e-003
8.92792792792793e+005	2.76559166617159e-001,4.34829263304854e-001	1.44688166676568e-002,-8.69658526609707e-003
9.02702702702703e+005	2.82043675007015e-001,4.37621178114078e-001	1.43591264998597e-002,-8.75242356228157e-003
9.12612612612613e+005	2.87570029007727e-001,4.40347363879939e-001	1.42485994198455e-002,-8.80694727759877e-003
9.22522522522523e+005	2.93137652922128e-001,4.43007191306294e-001	1.41372469415574e-002,-8.86014382612589e-003
9.32432432432433e+005	2.98745970746951e-001,4.45600033111517e-001	1.40250805850610e-002,-8.91200066223035e-003
9.42342342342343e+005	3.04394406870287e-001,4.48125263823500e-001	1.39121118625943e-002,-8.96250527647001e-003
9.52252252252253e+005	3.10082386844972e-001,4.50582259541246e-001	1.37983522631006e-002,-9.01164519082491e-003
9.62162162162163e+005	3.15809338247900e-001,4.52970397658505e-001	1.36838132350420e-002,-9.05940795317010e-003
9.72072072072073e+005	3.21574691636899e-001,4.55289056544217e-001	1.35685061672620e-002,-9.10578113088434e-003
9.81981981981983e+005	3.27377881618667e-001,4.57537615173636e-001	1.34524423676267e-002,-9.15075230347271e-003
9.91891891891893e+005	3.33218348043564e-001,4.59715452702985e-001	1.33356330391287e-002,-9.19430905405970e-003
1.00180180180180e+006	3.39095537345723e-001,4.61821947979266e-001	1.32180892530855e-002,-9.23643895958533e-003
1.01171171171171e+006	3.45008904050199e-001,4.63856478975327e-001	1.30998219189960e-002,-9.27712957950654e-003
1.02162162162162e+006	3.50957912472759e-001,4.65818422138493e-001	1.29808417505448e-002,-9.31636844276985e-003
1.03153153153153e+006	3.56942038642619e-001,4.67707151638879e-001	1.28611592271476e-002,-9.35414303277758e-003
1.04144144144144e+006	3.62960772484117e-001,4.69522038500790e-001	1.27407845503177e-002,-9.39044077001581e-003
1.05135135135135e+006	3.69013620300314e-001,4.71262449597322e-001	1.26197275939937e-002,-9.42524899194643e-003
1.06126126126126e+006	3.75100107609942e-001,4.72927746484202e-001	1.24979978478012e-002,-9.45855492968404e-003
1.07117117117117e+006	3.81219782399662e-001,4.74517284043857e-001	1.23756043520068e-002,-9.49034568087714e-003
1.08108108108108e+006	3.87372218866495e-001,4.76030408904352e-001	1.22525556226701e-002,-9.52060817808703e-003
1.09099099099099e+006	3.93557021741393e-001,4.77466457589941e-001	1.21288595651721e-002,-9.54932915179881e-003
1.10090090090090e+006	3.99773831305078e-001,4.78824754349940e-001	1.20045233738984e-002,-9.57649508699880e-003
1.11081081081081e+006	4.06022329232610e-001,4.80104608599850e-001	1.18795534153478e-002,-9.60209217199700e-003
1.12072072072072e+006	4.12302245435255e-001,4.81305311892327e-001	1.17539550912949e-002,-9.62610623784655e-003
1.13063063063063e+006	4.18613366109240e-001,4.82426134314457e-001	1.16277326778152e-002,-9.64852268628914e-003
1.14054054054054e+006	4.24955543253659e-001,4.83466320180246e-001	1.15008891349268e-002,-9.66932640360491e-003
1.15045045045045e+006	4.31328705988114e-001,4.84425082851081e-001	1.13734258802377e-002,-9.68850165702161e-003
1.16036036036036e+006	4.37732874090019e-001,4.85301598468857e-001	1.12453425181996e-002,-9.70603196937713e-003
1.17027027027027e+006	4.44168174289448e-001,4.86094998322054e-001	1.11166365142110e-002,-9.72189996644109e-003
1.18018018018018e+006	4.50634860016802e-001,4.86804359477616e-001	1.09873027996640e-002,-9.73608718955233e-003
1.19009009009009e+006	4.57133335510985e-001,4.87428693191308e-001	1.08573332897803e-002,-9.74857386382616e-003
1.20000000000000e+006	4.63664185486140e-001,4.87966930441697e-001	1.07267162902772e-002,-9.75933860883395e-003
1.20990990990991e+006	4.70228211957600e-001,4.88417903695558e-001	1.05954357608480e-002,-9.76835807391115e-003
1.21981981981982e+006	4.76826480394915e-001,4.88780323670114e-001	1.04634703921017e-002,-9.77560647340228e-003
1.22972972972973e+006	4.83460378183585e-001,4.89052749353257e-001	1.03307924363283e-002,-9.78105498706514e-003
1.23963963963964e+006	4.90131689569308e-001,4.89233548781839e-001	1.01973662086138e-002,-9.78467097563679e-003
1.24954954954955e+006	4.96842693048039e-001,4.89320846896500e-001	1.00631461390392e-002,-9.78641693792999e-003
1.25945945945946e+006	5.03596289928839e-001,4.89312454892879e-001	9.92807420142323e-003,-9.78624909785758e-003
1.26936936936937e+006	5.10396177211822e-001,4.89205772309931e-001	9.79207645576356e-003,-9.78411544619861e-003
1.27927927927928e+006	5.17247085269784e-001,4.88997647495954e-001	9.65505829460431e-003,-9.77995294991907e-003
1.28918918918919e+006	5.24155113657845e-001,4.88684171591401e-001	9.51689772684309e-003,-9.77368343182803e-003
1.29909909909910e+006	5.31128222168236e-001,4.88260359881406e-001	9.37743555663527e-003,-9.76520719762812e-003
1.30900900900901e+006	5.38176981588827e-001,4.87719626838134e-001	9.23646036822347e-003,-9.75439253676267e-003
1.31891891891892e+006	5.45315790981005e-001,4.87052841421094e-001	9.09368418037989e-003,-9.74105682842188e-003
1.32882882882883e+006	5.52565010761820e-001,4.86246398390727e-001	8.94869978476360e-003,-9.72492796781453e-003
1.33873873873874e+006	5.59955081144589e-001,4.85277497328672e-001	8.80089837710821e-003,-9.70554994657344e-003
1.34864864864865e+006	5.67535150381608e-001,4.84099166621692e-001	8.64929699236785e-003,-9.68198333243385e-003
1.35855855855856e+006	5.75384944790732e-001,4.82572130948862e-001	8.49230110418536e-003,-9.65144261897725e-003
1.36846846846847e+006	5.83316475396236e-001,4.80071183593012e-001	8.33367049207527e-003,-9.60142367186025e-003
1.37837837837838e+006	5.89467695506702e-001,4.78520683701307e-001	8.21064608986596e-003,-9.57041367402613e-003
1.38828828828829e+006	5.98539410872454e-001,4.77311296309884e-001	8.02921178255092e-003,-9.54622592619769e-003
1.39819819819820e+006	6.08225644190326e-001,4.74329069646144e-001	7.83548711619347e-003,-9.48658139292287e-003
1.40810810810811e+006	6.17717519237728e-001,4.68539880135678e-001	7.64564961524545e-003,-9.37079760271357e-003
1.41801801801802e+006	6.23641331261801e-001,4.66172310836005e-001	7.52717337476397e-003,-9.32344621672011e-003
1.42792792792793e+006	6.37520586734733e-001,4.62008029466944e-001	7.24958826530534e-003,-9.24016058933889e-003
1.43783783783784e+006	6.53604655792431e-001,4.51135708554077e-001	6.92790688415139e-003,-9.02271417108153e-003
1.44774774774775e+006	6.71069429615925e-001,4.25569694806602e-001	6.57861140768150e-003,-8.51139389613204e-003
1.45765765765766e+006	6.58292667111354e-001,3.80246595915728e-001	6.83414665777292e-003,-7.60493191831456e-003
1.46756756756756e+006	5.98218792746938e-001,3.35480593766919e-001	8.03562414506123e-003,-6.70961187533838e-003
1.47747747747747e+006	5.46425094282249e-001,4.25513534207280e-001	9.07149811435503e-003,-8.51027068414561e-003
1.48738738738738e+006	5.83316466361153e-001,4.60648151812543e-001	8.33367067277694e-003,-9.21296303625085e-003
1.49729729729729e+006	6.08546923278667e-001,4.66875745627053e-001	7.82906153442665e-003,-9.33751491254106e-003
1.50720720720720e+006	6.25917664705506e-001,4.66887034455692e-001	7.48164670588988e-003,-9.33774068911383e-003
1.51711711711711e+006	6.39419398210407e-001,4.64672717236100e-001	7.21161203579185e-003,-9.29345434472201e-003
1.52702702702702e+006	6.48976724393260e-001,4.61073447045623e-001	7.02046551213479e-003,-9.22146894091246e-003
1.53693693693693e+006	6.58073709482144e-001,4.60502833877188e-001	6.83852581035712e-003,-9.21005667754376e-003
1.54684684684684e+006	6.67762931319712e-001,4.58182997370104e-001	6.64474137360576e-003,-9.16365994740207e-003
1.55675675675675e+006	6.76669951634891e-001,4.55270908386006e-001	6.46660096730218e-003,-9.10541816772011e-003
1.56666666666666e+006	6.85141911080741e-001,4.52032284633797e-001	6.29716177838519e-003,-9.04064569267594e-003
1.57657657657657e+006	6.93382410383997e-001,4.48283077171104e-001	6.13235179232006e-003,-8.96566154342208e-003
1.58648648648648e+006	7.01015271052396e-001,4.43086189276095e-001	5.97969457895209e-003,-8.86172378552189e-003
1.59639639639639e+006	7.03426155607614e-001,4.38944713224008e-001	5.93147688784773e-003,-8.77889426448017e-003
1.60630630630630e+006	7.11098032944643e-001,4.39602102728792e-001	5.77803934110714e-003,-8.79204205457584e-003
1.61621621621621e+006	7.19432693025523e-001,4.36664195264053e-001	5.61134613948955e-003,-8.73328390528105e-003
1.62612612612612e+006	7.27102099813462e-001,4.33234170774429e-001	5.45795800373075e-003,-8.66468341548858e-003
1.63603603603603e+006	7.34512213696742e-001,4.29490686832057e-001	5.30975572606516e-003,-8.58981373664115e-003
1.64594594594594e+006	7.41724496451580e-001,4.25571642488388e-001	5.16551007096841e-003,-8.51143284976777e-003
1.65585585585585e+006	7.48821671886253e-001,4.21504276740506e-001	5.02356656227494e-003,-8.43008553481011e-003
1.66576576576576e+006	7.55847612639110e-001,4.17284836638580e-001	4.88304774721780e-003,-8.34569673277160e-003
1.67567567567567e+006	7.62829761747175e-001,4.12902377193922e-001	4.74340476505650e-003,-8.25804754387844e-003
1.68558558558558e+006	7.69788657770769e-001,4.08342096684383e-001	4.60422684458463e-003,-8.16684193368767e-003
1.69549549549549e+006	7.76742183195137e-001,4.03585226132260e-001	4.46515633609726e-003,-8.07170452264520e-003
1.70540540540540e+006	7.83707948809122e-001,3.98607734888244e-001	4.32584102381756e-003,-7.97215469776487e-003
1.71531531531531e+006	7.90705050563380e-001,3.93377984893845e-001	4.18589898873239e-003,-7.86755969787689e-003
1.72522522522522e+006	7.97755746691261e-001,3.87852728161844e-001	4.04488506617479e-003,-7.75705456323687e-003
1.73513513513513e+006	8.04887315896072e-001,3.81969861489105e-001	3.90225368207856e-003,-7.63939722978210e-003
1.74504504504504e+006	8.12133830134697e-001,3.75633851566515e-001	3.75732339730605e-003,-7.51267703133030e-003
1.75495495495495e+006	8.19534433471694e-001,3.68681617889107e-001	3.60931133056611e-003,-7.37363235778214e-003
1.76486486486486e+006	8.27099791811952e-001,3.60785102359084e-001	3.45800416376096e-003,-7.21570204718168e-003
1.77477477477477e+006	8.34448812313014e-001,3.51150272018586e-001	3.31102375373973e-003,-7.02300544037171e-003
1.78468468468468e+006	8.38107835707841e-001,3.40567862555328e-001	3.23784328584318e-003,-6.81135725110655e-003
1.79459459459459e+006	8.46021623096737e-001,3.34601424600399e-001	3.07956753806525e-003,-6.69202849200799e-003
1.80450450450450e+006	8.56571339342115e-001,3.20673379433903e-001	2.86857321315770e-003,-6.41346758867806e-003
1.81441441441441e+006	8.64666104836813e-001,2.98822242661187e-001	2.70667790326373e-003,-5.97644485322374e-003
1.82432432432432e+006	8.58585658822190e-001,2.63436181214979e-001	2.82828682355621e-003,-5.26872362429958e-003
1.83423423423423e+006	8.21325677564281e-001,2.46420361853723e-001	3.57348644871438e-003,-4.92840723707446e-003
1.84414414414414e+006	7.75666879179957e-001,2.82549918968600e-001	4.48666241640085e-003,-5.65099837937200e-003
1.85405405405405e+006	8.19471371140560e-001,3.13933696069982e-001	3.61057257718881e-003,-6.27867392139964e-003
1.86396396396396e+006	8.46629222255103e-001,2.92215890906932e-001	3.06741555489793e-003,-5.84431781813865e-003
