Freq.	V(1|1|1|a)	I(R129)
1.00000000000000e+005	1.54067714655832e-002,5.88354487639702e-002	1.96918645706883e-002,-1.17670897527940e-003
1.09909909909910e+005	1.61443320239420e-002,6.46361818030390e-002	1.96771133595212e-002,-1.29272363606078e-003
1.19819819819820e+005	1.69512524539314e-002,7.04284735631814e-002	1.96609749509214e-002,-1.40856947126363e-003
1.29729729729730e+005	1.78274566385801e-002,7.62115638046086e-002	1.96434508672284e-002,-1.52423127609217e-003
1.39639639639640e+005	1.87728618522069e-002,8.19846925154090e-002	1.96245427629559e-002,-1.63969385030818e-003
1.49549549549550e+005	1.97873787503874e-002,8.77470999326590e-002	1.96042524249923e-002,-1.75494199865318e-003
1.59459459459459e+005	2.08709113592542e-002,9.34980265640647e-002	1.95825817728149e-002,-1.86996053128129e-003
1.69369369369369e+005	2.20233570641623e-002,9.92367132101709e-002	1.95595328587168e-002,-1.98473426420342e-003
1.79279279279279e+005	2.32446065977506e-002,1.04962400987174e-001	1.95351078680450e-002,-2.09924801974349e-003
1.89189189189189e+005	2.45345440274375e-002,1.10674331350376e-001	1.95093091194513e-002,-2.21348662700752e-003
1.99099099099099e+005	2.58930467423854e-002,1.16371746118308e-001	1.94821390651523e-002,-2.32743492236616e-003
2.09009009009009e+005	2.73199854399781e-002,1.22053887497566e-001	1.94536002912004e-002,-2.44107774995131e-003
2.18918918918919e+005	2.88152241118508e-002,1.27719998108384e-001	1.94236955177630e-002,-2.55439996216768e-003
2.28828828828829e+005	3.03786200295214e-002,1.33369321010980e-001	1.93924275994096e-002,-2.66738642021960e-003
2.38738738738739e+005	3.20100237296703e-002,1.39001099732703e-001	1.93597995254066e-002,-2.78002199465406e-003
2.48648648648649e+005	3.37092789991202e-002,1.44614578296009e-001	1.93258144200176e-002,-2.89229156592018e-003
2.58558558558559e+005	3.54762228595716e-002,1.50209001247299e-001	1.92904755428086e-002,-3.00418002494598e-003
2.68468468468468e+005	3.73106855521504e-002,1.55783613686639e-001	1.92537862889570e-002,-3.11567227373279e-003
2.78378378378378e+005	3.92124905218286e-002,1.61337661298392e-001	1.92157501895634e-002,-3.22675322596784e-003
2.88288288288288e+005	4.11814544017834e-002,1.66870390382777e-001	1.91763709119643e-002,-3.33740780765553e-003
2.98198198198198e+005	4.32173869977604e-002,1.72381047888389e-001	1.91356522600448e-002,-3.44762095776778e-003
3.08108108108108e+005	4.53200912725135e-002,1.77868881445692e-001	1.90935981745497e-002,-3.55737762891385e-003
3.18018018018018e+005	4.74893633303958e-002,1.83333139401499e-001	1.90502127333921e-002,-3.66666278802998e-003
3.27927927927928e+005	4.97249924021807e-002,1.88773070854463e-001	1.90055001519564e-002,-3.77546141708925e-003
3.37837837837838e+005	5.20267608301957e-002,1.94187925691591e-001	1.89594647833961e-002,-3.88375851383182e-003
3.47747747747748e+005	5.43944440538561e-002,1.99576954625792e-001	1.89121111189229e-002,-3.99153909251583e-003
3.57657657657657e+005	5.68278105956920e-002,2.04939409234463e-001	1.88634437880862e-002,-4.09878818468926e-003
3.67567567567567e+005	5.93266220479631e-002,2.10274541999131e-001	1.88134675590407e-002,-4.20549083998262e-003
3.77477477477477e+005	6.18906330599656e-002,2.15581606346145e-001	1.87621873388007e-002,-4.31163212692290e-003
3.87387387387387e+005	6.45195913261364e-002,2.20859856688426e-001	1.87096081734773e-002,-4.41719713376852e-003
3.97297297297297e+005	6.72132375750698e-002,2.26108548468271e-001	1.86557352484986e-002,-4.52217096936542e-003
4.07207207207207e+005	6.99713055595650e-002,2.31326938201210e-001	1.86005738888087e-002,-4.62653876402419e-003
4.17117117117117e+005	7.27935220478309e-002,2.36514283520899e-001	1.85441295590434e-002,-4.73028567041798e-003
4.27027027027027e+005	7.56796068159814e-002,2.41669843225056e-001	1.84864078636804e-002,-4.83339686450112e-003
4.36936936936936e+005	7.86292726419626e-002,2.46792877322406e-001	1.84274145471607e-002,-4.93585754644811e-003
4.46846846846846e+005	8.16422253010611e-002,2.51882647080626e-001	1.83671554939788e-002,-5.03765294161251e-003
4.56756756756756e+005	8.47181635631509e-002,2.56938415075273e-001	1.83056367287370e-002,-5.13876830150545e-003
4.66666666666666e+005	8.78567791918477e-002,2.61959445239654e-001	1.82428644161630e-002,-5.23918890479308e-003
4.76576576576576e+005	9.10577569457491e-002,2.66945002915622e-001	1.81788448610850e-002,-5.33890005831244e-003
4.86486486486486e+005	9.43207745819498e-002,2.71894354905245e-001	1.81135845083610e-002,-5.43788709810490e-003
4.96396396396396e+005	9.76455028620343e-002,2.76806769523324e-001	1.80470899427593e-002,-5.53613539046649e-003
5.06306306306306e+005	1.01031605560764e-001,2.81681516650698e-001	1.79793678887847e-002,-5.63363033301395e-003
5.16216216216216e+005	1.04478739477688e-001,2.86517867788286e-001	1.79104252104462e-002,-5.73035735576572e-003
5.26126126126125e+005	1.07986554451923e-001,2.91315096111817e-001	1.78402689109615e-002,-5.82630192223633e-003
5.36036036036035e+005	1.11554693380375e-001,2.96072476527156e-001	1.77689061323925e-002,-5.92144953054312e-003
5.45945945945945e+005	1.15182792239672e-001,3.00789285726179e-001	1.76963441552066e-002,-6.01578571452358e-003
5.55855855855855e+005	1.18870480112129e-001,3.05464802243094e-001	1.76225903977574e-002,-6.10929604486187e-003
5.65765765765765e+005	1.22617379216069e-001,3.10098306511118e-001	1.75476524156786e-002,-6.20196613022236e-003
5.75675675675675e+005	1.26423104940849e-001,3.14689080919421e-001	1.74715379011830e-002,-6.29378161838842e-003
5.85585585585585e+005	1.30287265886988e-001,3.19236409870202e-001	1.73942546822602e-002,-6.38472819740403e-003
5.95495495495495e+005	1.34209463911802e-001,3.23739579835791e-001	1.73158107217640e-002,-6.47479159671583e-003
6.05405405405405e+005	1.38189294181014e-001,3.28197879415635e-001	1.72362141163797e-002,-6.56395758831271e-003
6.15315315315315e+005	1.42226345226809e-001,3.32610599393001e-001	1.71554730954638e-002,-6.65221198786001e-003
6.25225225225225e+005	1.46320199012898e-001,3.36977032791251e-001	1.70735960197420e-002,-6.73954065582502e-003
6.35135135135135e+005	1.50470431007151e-001,3.41296474929492e-001	1.69905913798570e-002,-6.82592949858985e-003
6.45045045045045e+005	1.54676610262464e-001,3.45568223477398e-001	1.69064677947507e-002,-6.91136446954796e-003
6.54954954954955e+005	1.58938299506543e-001,3.49791578508977e-001	1.68212340098691e-002,-6.99583157017955e-003
6.64864864864865e+005	1.63255055241390e-001,3.53965842555049e-001	1.67348988951722e-002,-7.07931685110098e-003
6.74774774774775e+005	1.67626427853344e-001,3.58090320654138e-001	1.66474714429331e-002,-7.16180641308275e-003
6.84684684684685e+005	1.72051961734604e-001,3.62164320401497e-001	1.65589607653079e-002,-7.24328640802994e-003
6.94594594594594e+005	1.76531195417274e-001,3.66187151995918e-001	1.64693760916545e-002,-7.32374303991836e-003
7.04504504504504e+005	1.81063661721096e-001,3.70158128283956e-001	1.63787267655781e-002,-7.40316256567911e-003
7.14414414414414e+005	1.85648887916117e-001,3.74076564801151e-001	1.62870222416777e-002,-7.48153129602301e-003
7.24324324324324e+005	1.90286395901729e-001,3.77941779809801e-001	1.61942720819654e-002,-7.55883559619601e-003
7.34234234234234e+005	1.94975702403661e-001,3.81753094332751e-001	1.61004859519268e-002,-7.63506188665501e-003
7.44144144144144e+005	1.99716319190679e-001,3.85509832182642e-001	1.60056736161864e-002,-7.71019664365284e-003
7.54054054054054e+005	2.04507753312969e-001,3.89211319985973e-001	1.59098449337406e-002,-7.78422639971947e-003
7.63963963963964e+005	2.09349507364438e-001,3.92856887201251e-001	1.58130098527112e-002,-7.85713774402502e-003
7.73873873873874e+005	2.14241079771391e-001,3.96445866130428e-001	1.57151784045722e-002,-7.92891732260856e-003
7.83783783783784e+005	2.19181965110424e-001,3.99977591922709e-001	1.56163606977915e-002,-7.99955183845419e-003
7.93693693693694e+005	2.24171654458669e-001,4.03451402569703e-001	1.55165669108266e-002,-8.06902805139406e-003
8.03603603603604e+005	2.29209635780002e-001,4.06866638890748e-001	1.54158072844000e-002,-8.13733277781496e-003
8.13513513513514e+005	2.34295394351255e-001,4.10222644507093e-001	1.53140921129749e-002,-8.20445289014186e-003
8.23423423423424e+005	2.39428413233067e-001,4.13518765803421e-001	1.52114317353387e-002,-8.27037531606843e-003
8.33333333333334e+005	2.44608173790638e-001,4.16754351875002e-001	1.51078365241872e-002,-8.33508703750005e-003
8.43243243243244e+005	2.49834156270384e-001,4.19928754458499e-001	1.50033168745923e-002,-8.39857508916999e-003
8.53153153153153e+005	2.55105840439404e-001,4.23041327844172e-001	1.48978831912119e-002,-8.46082655688345e-003
8.63063063063063e+005	2.60422706295638e-001,4.26091428766869e-001	1.47915458740872e-002,-8.52182857533739e-003
8.72972972972973e+005	2.65784234857829e-001,4.29078416272801e-001	1.46843153028434e-002,-8.58156832545601e-003
8.82882882882883e+005	2.71189909045789e-001,4.32001651558602e-001	1.45762018190842e-002,-8.64003303117204e-003
8.92792792792793e+005	2.76639214663108e-001,4.34860497778633e-001	1.44672157067378e-002,-8.69720995557265e-003
9.02702702702703e+005	2.82131641496423e-001,4.37654319815773e-001	1.43573671700715e-002,-8.75308639631547e-003
9.12612612612613e+005	2.87666684547652e-001,4.40382484010176e-001	1.42466663090470e-002,-8.80764968020351e-003
9.22522522522523e+005	2.93243845418360e-001,4.43044357839445e-001	1.41351230916328e-002,-8.86088715678889e-003
9.32432432432433e+005	2.98862633868703e-001,4.45639309542568e-001	1.40227473226259e-002,-8.91278619085135e-003
9.42342342342343e+005	3.04522569577327e-001,4.48166707678474e-001	1.39095486084535e-002,-8.96333415356948e-003
9.52252252252253e+005	3.10223184133309e-001,4.50625920608399e-001	1.37955363173338e-002,-9.01251841216798e-003
9.62162162162163e+005	3.15964023296942e-001,4.53016315889117e-001	1.36807195340612e-002,-9.06032631778233e-003
9.72072072072073e+005	3.21744649573047e-001,4.55337259561526e-001	1.35651070085391e-002,-9.10674519123052e-003
9.81981981981983e+005	3.27564645148889e-001,4.57588115315918e-001	1.34487070970222e-002,-9.15176230631836e-003
9.91891891891893e+005	3.33423615259026e-001,4.59768243511301e-001	1.33315276948195e-002,-9.19536487022601e-003
1.00180180180180e+006	3.39321192051998e-001,4.61877000021301e-001	1.32135761589600e-002,-9.23754000042603e-003
1.01171171171171e+006	3.45257039049249e-001,4.63913734873047e-001	1.30948592190150e-002,-9.27827469746095e-003
1.02162162162162e+006	3.51230856305903e-001,4.65877790637746e-001	1.29753828738819e-002,-9.31755581275492e-003
1.03153153153153e+006	3.57242386406928e-001,4.67768500521990e-001	1.28551522718614e-002,-9.35537001043980e-003
1.04144144144144e+006	3.63291421462194e-001,4.69585186096449e-001	1.27341715707561e-002,-9.39170372192898e-003
1.05135135135135e+006	3.69377811301646e-001,4.71327154582789e-001	1.26124437739671e-002,-9.42654309165579e-003
1.06126126126126e+006	3.75501473119667e-001,4.72993695599263e-001	1.24899705376067e-002,-9.45987391198526e-003
1.07117117117117e+006	3.81662402878679e-001,4.74584077238901e-001	1.23667519424264e-002,-9.49168154477802e-003
1.08108108108108e+006	3.87860688860316e-001,4.76097541319576e-001	1.22427862227937e-002,-9.52195082639151e-003
1.09099099099099e+006	3.94096527853804e-001,4.77533297599453e-001	1.21180694429239e-002,-9.55066595198906e-003
1.10090090090090e+006	4.00370244603056e-001,4.78890516690482e-001	1.19925951079389e-002,-9.57781033380964e-003
1.11081081081081e+006	4.06682315307257e-001,4.80168321320889e-001	1.18663536938549e-002,-9.60336642641778e-003
1.12072072072072e+006	4.13033396199191e-001,4.81365775486892e-001	1.17393320760162e-002,-9.62731550973784e-003
1.13063063063063e+006	4.19424358532171e-001,4.82481870882235e-001	1.16115128293566e-002,-9.64963741764470e-003
1.14054054054054e+006	4.25856331720241e-001,4.83515509784226e-001	1.14828733655952e-002,-9.67031019568452e-003
1.15045045045045e+006	4.32330756940333e-001,4.84465483280989e-001	1.13533848611933e-002,-9.68930966561978e-003
1.16036036036036e+006	4.38849454282452e-001,4.85330443307668e-001	1.12230109143510e-002,-9.70660886615336e-003
1.17027027027027e+006	4.45414707617978e-001,4.86108866359908e-001	1.10917058476404e-002,-9.72217732719817e-003
1.18018018018018e+006	4.52029372887083e-001,4.86799005878620e-001	1.09594125422583e-002,-9.73598011757240e-003
1.19009009009009e+006	4.58697017697780e-001,4.87398829004376e-001	1.08260596460444e-002,-9.74797658008752e-003
1.20000000000000e+006	4.65422103312868e-001,4.87905931446660e-001	1.06915579337426e-002,-9.75811862893319e-003
1.20990990990991e+006	4.72210224800285e-001,4.88317421213393e-001	1.05557955039943e-002,-9.76634842426786e-003
1.21981981981982e+006	4.79068432179610e-001,4.88629757243713e-001	1.04186313564078e-002,-9.77259514487426e-003
1.22972972972973e+006	4.86005666196954e-001,4.88838521447989e-001	1.02798866760609e-002,-9.77677042895978e-003
1.23963963963964e+006	4.93033359230269e-001,4.88938090269129e-001	1.01393328153946e-002,-9.77876180538259e-003
1.24954954954955e+006	5.00166278779094e-001,4.88921150948738e-001	9.99667442441812e-003,-9.77842301897476e-003
1.25945945945946e+006	5.07423735130613e-001,4.88777971220395e-001	9.85152529738774e-003,-9.77555942440790e-003
1.26936936936937e+006	5.14831349068816e-001,4.88495265405410e-001	9.70337301862369e-003,-9.76990530810821e-003
1.27927927927928e+006	5.22423704277976e-001,4.88054376609175e-001	9.55152591444047e-003,-9.76108753218350e-003
1.28918918918919e+006	5.30248439838000e-001,4.87428253034251e-001	9.39503120324001e-003,-9.74856506068503e-003
1.29909909909910e+006	5.38372766651250e-001,4.86576197667382e-001	9.23254466697501e-003,-9.73152395334764e-003
1.30900900900901e+006	5.46894217828540e-001,4.85434277982656e-001	9.06211564342920e-003,-9.70868555965313e-003
1.31891891891892e+006	5.55959097362538e-001,4.83896714431808e-001	8.88081805274923e-003,-9.67793428863615e-003
1.32882882882883e+006	5.65795505254048e-001,4.81777003559508e-001	8.68408989491905e-003,-9.63554007119016e-003
1.33873873873874e+006	5.76774847373993e-001,4.78718968247930e-001	8.46450305252014e-003,-9.57437936495859e-003
1.34864864864865e+006	5.89528200855050e-001,4.73968497976874e-001	8.20943598289900e-003,-9.47936995953748e-003
1.35855855855856e+006	6.05141641836565e-001,4.65695688886143e-001	7.89716716326870e-003,-9.31391377772286e-003
1.36846846846847e+006	6.25111811728318e-001,4.48591110582591e-001	7.49776376543364e-003,-8.97182221165182e-003
1.37837837837838e+006	6.45384617069106e-001,4.04424808586565e-001	7.09230765861789e-003,-8.08849617173129e-003
1.38828828828829e+006	5.88045164419830e-001,3.14985914373416e-001	8.23909671160339e-003,-6.29971828746832e-003
1.39819819819820e+006	4.83382982733653e-001,3.92189046382721e-001	1.03323403453269e-002,-7.84378092765443e-003
1.40810810810811e+006	5.11521478386417e-001,4.54979392106724e-001	9.76957043227165e-003,-9.09958784213448e-003
1.41801801801802e+006	5.40380225495050e-001,4.71884457800456e-001	9.19239549009901e-003,-9.43768915600912e-003
1.42792792792793e+006	5.60582246861039e-001,4.76720224175365e-001	8.78835506277923e-003,-9.53440448350731e-003
1.43783783783784e+006	5.75861672293699e-001,4.77540249889200e-001	8.48276655412602e-003,-9.55080499778400e-003
1.44774774774775e+006	5.87430258110538e-001,4.76428560607341e-001	8.25139483778924e-003,-9.52857121214681e-003
1.45765765765766e+006	5.97391088793854e-001,4.76525029402538e-001	8.05217822412293e-003,-9.53050058805075e-003
1.46756756756756e+006	6.07354408534453e-001,4.75571038978611e-001	7.85291182931095e-003,-9.51142077957223e-003
1.47747747747747e+006	6.16477843168579e-001,4.74049389550209e-001	7.67044313662842e-003,-9.48098779100417e-003
1.48738738738738e+006	6.25020892252611e-001,4.72273330898256e-001	7.49958215494777e-003,-9.44546661796513e-003
1.49729729729729e+006	6.33166382146355e-001,4.70312379357599e-001	7.33667235707290e-003,-9.40624758715197e-003
1.50720720720720e+006	6.41026011678068e-001,4.68156389040547e-001	7.17947976643863e-003,-9.36312778081095e-003
1.51711711711711e+006	6.48559469543660e-001,4.65682258421231e-001	7.02881060912680e-003,-9.31364516842462e-003
1.52702702702702e+006	6.55421924191920e-001,4.63383391492025e-001	6.89156151616161e-003,-9.26766782984049e-003
1.53693693693693e+006	6.62462067062758e-001,4.61330664505640e-001	6.75075865874485e-003,-9.22661329011281e-003
1.54684684684684e+006	6.69701667014451e-001,4.59090596309570e-001	6.60596665971099e-003,-9.18181192619140e-003
1.55675675675675e+006	6.76812023262446e-001,4.56566867295586e-001	6.46375953475108e-003,-9.13133734591172e-003
1.56666666666666e+006	6.83787198597127e-001,4.53907382968327e-001	6.32425602805746e-003,-9.07814765936654e-003
1.57657657657657e+006	6.90662647198690e-001,4.51139735529169e-001	6.18674705602619e-003,-9.02279471058338e-003
1.58648648648648e+006	6.97458061943259e-001,4.48269449460165e-001	6.05083876113482e-003,-8.96538898920330e-003
1.59639639639639e+006	7.04185634087379e-001,4.45297389504706e-001	5.91628731825242e-003,-8.90594779009412e-003
1.60630630630630e+006	7.10853827318854e-001,4.42222973368535e-001	5.78292345362292e-003,-8.84445946737070e-003
1.61621621621621e+006	7.17468999062581e-001,4.39044948347488e-001	5.65062001874837e-003,-8.78089896694976e-003
1.62612612612612e+006	7.24036218096240e-001,4.35761580214990e-001	5.51927563807521e-003,-8.71523160429979e-003
1.63603603603603e+006	7.30559757470545e-001,4.32370627684646e-001	5.38880485058909e-003,-8.64741255369291e-003
1.64594594594594e+006	7.37043456159485e-001,4.28869157412683e-001	5.25913087681030e-003,-8.57738314825365e-003
1.65585585585585e+006	7.43491048853669e-001,4.25253108858460e-001	5.13017902292662e-003,-8.50506217716919e-003
1.66576576576576e+006	7.49906521769406e-001,4.21516284182561e-001	5.00186956461188e-003,-8.43032568365121e-003
1.67567567567567e+006	7.56294409334399e-001,4.17647719763484e-001	4.87411181331202e-003,-8.35295439526968e-003
1.68558558558558e+006	7.62658661381244e-001,4.13623591903822e-001	4.74682677237513e-003,-8.27247183807644e-003
1.69549549549549e+006	7.68984670713366e-001,4.09377949565988e-001	4.62030658573267e-003,-8.18755899131976e-003
1.70540540540540e+006	7.75024947465887e-001,4.04785937940290e-001	4.49950105068226e-003,-8.09571875880580e-003
1.71531531531531e+006	7.80607126205270e-001,4.00645383419554e-001	4.38785747589460e-003,-8.01290766839107e-003
1.72522522522522e+006	7.86629040505361e-001,3.96753836521422e-001	4.26741918989279e-003,-7.93507673042845e-003
1.73513513513513e+006	7.93103696343483e-001,3.92438097415480e-001	4.13792607313035e-003,-7.84876194830959e-003
1.74504504504504e+006	7.99439470976036e-001,3.87730607877034e-001	4.01121058047929e-003,-7.75461215754068e-003
1.75495495495495e+006	8.05677859831087e-001,3.82832046930265e-001	3.88644280337826e-003,-7.65664093860531e-003
1.76486486486486e+006	8.11868594219814e-001,3.77760376025560e-001	3.76262811560372e-003,-7.55520752051121e-003
1.77477477477477e+006	8.18035059771060e-001,3.72504471576859e-001	3.63929880457880e-003,-7.45008943153718e-003
1.78468468468468e+006	8.24192011153375e-001,3.67044769562775e-001	3.51615977693249e-003,-7.34089539125550e-003
1.79459459459459e+006	8.30352152835290e-001,3.61354544666910e-001	3.39295694329420e-003,-7.22709089333820e-003
1.80450450450450e+006	8.36528923088642e-001,3.55397388958697e-001	3.26942153822716e-003,-7.10794777917394e-003
1.81441441441441e+006	8.42738131433804e-001,3.49122143975641e-001	3.14523737132392e-003,-6.98244287951283e-003
1.82432432432432e+006	8.48999126275556e-001,3.42453784305353e-001	3.02001747448888e-003,-6.84907568610705e-003
1.83423423423423e+006	8.55335032660530e-001,3.35276098061361e-001	2.89329934678941e-003,-6.70552196122721e-003
1.84414414414414e+006	8.61768672805719e-001,3.27395556679545e-001	2.76462654388562e-003,-6.54791113359089e-003
1.85405405405405e+006	8.68295719606130e-001,3.18456229410551e-001	2.63408560787740e-003,-6.36912458821101e-003
1.86396396396396e+006	8.74706884864126e-001,3.07724181347089e-001	2.50586230271747e-003,-6.15448362694177e-003
